Time [s],Packet ID,Address,Data,Read/Write,ACK/NAK
0.0007945,0,0xD4,0xA6,Write,ACK
0.000915875,1,0xD5,0x13,Read,ACK
0.000963875,1,0xD5,0x0F,Read,NAK
0.00109475,2,0xD4,0xA8,Write,ACK
0.001215125,3,0xD5,0xBA,Read,ACK
0.001263125,3,0xD5,0xFF,Read,ACK
0.001311125,3,0xD5,0x74,Read,ACK
0.001359125,3,0xD5,0xFF,Read,ACK
0.001407125,3,0xD5,0xE0,Read,ACK
0.00146275,3,0xD5,0xFF,Read,NAK
0.00159275,4,0x52,0x02,Write,ACK
0.001713125,5,0x53,0x00,Read,ACK
0.001761125,5,0x53,0x00,Read,ACK
0.001809375,5,0x53,0x4F,Read,ACK
0.001857375,5,0x53,0xC0,Read,ACK
0.00190575,5,0x53,0xBE,Read,ACK
0.00195375,5,0x53,0x00,Read,ACK
0.002009375,5,0x53,0xAB,Read,NAK
0.010793625,6,0xD4,0xA6,Write,ACK
0.010915,7,0xD5,0x13,Read,ACK
0.010963,7,0xD5,0x0F,Read,NAK
0.011094,8,0xD4,0xA8,Write,ACK
0.011214375,9,0xD5,0xC0,Read,ACK
0.011262375,9,0xD5,0xFF,Read,ACK
0.011310375,9,0xD5,0x72,Read,ACK
0.011358375,9,0xD5,0xFF,Read,ACK
0.011406375,9,0xD5,0xE6,Read,ACK
0.011462,9,0xD5,0xFF,Read,NAK
0.011592,10,0x52,0x02,Write,ACK
0.01171225,11,0x53,0x00,Read,ACK
0.01176025,11,0x53,0x00,Read,ACK
0.011808375,11,0x53,0x4F,Read,ACK
0.01185625,11,0x53,0xC0,Read,ACK
0.0119045,11,0x53,0xBE,Read,ACK
0.011952625,11,0x53,0x00,Read,ACK
0.01200825,11,0x53,0xAB,Read,NAK
0.0207925,12,0xD4,0xA6,Write,ACK
0.020913875,13,0xD5,0x13,Read,ACK
0.020961875,13,0xD5,0x0F,Read,NAK
0.021092875,14,0xD4,0xA8,Write,ACK
0.02121325,15,0xD5,0xD0,Read,ACK
0.02126125,15,0xD5,0xFF,Read,ACK
0.02130925,15,0xD5,0x74,Read,ACK
0.021357125,15,0xD5,0xFF,Read,ACK
0.021405125,15,0xD5,0xE7,Read,ACK
0.021460875,15,0xD5,0xFF,Read,NAK
0.021590875,16,0x52,0x02,Write,ACK
0.021711125,17,0x53,0x00,Read,ACK
0.021759125,17,0x53,0x00,Read,ACK
0.021807375,17,0x53,0x4F,Read,ACK
0.0218555,17,0x53,0xC0,Read,ACK
0.02190375,17,0x53,0xBE,Read,ACK
0.021951875,17,0x53,0x00,Read,ACK
0.0220075,17,0x53,0xAB,Read,NAK
0.03079275,18,0xD4,0xA6,Write,ACK
0.030914125,19,0xD5,0x13,Read,ACK
0.030962125,19,0xD5,0x0F,Read,NAK
0.031093,20,0xD4,0xA8,Write,ACK
0.031213375,21,0xD5,0xDD,Read,ACK
0.031261375,21,0xD5,0xFF,Read,ACK
0.031309375,21,0xD5,0x77,Read,ACK
0.031357375,21,0xD5,0xFF,Read,ACK
0.031405375,21,0xD5,0xE7,Read,ACK
0.031461,21,0xD5,0xFF,Read,NAK
0.031591,22,0x52,0x02,Write,ACK
0.031711375,23,0x53,0x00,Read,ACK
0.031759375,23,0x53,0x00,Read,ACK
0.0318075,23,0x53,0x4F,Read,ACK
0.031855375,23,0x53,0xC0,Read,ACK
0.03190375,23,0x53,0xBE,Read,ACK
0.031951625,23,0x53,0x00,Read,ACK
0.032007375,23,0x53,0xAB,Read,NAK
0.040791875,24,0xD4,0xA6,Write,ACK
0.04091325,25,0xD5,0x13,Read,ACK
0.04096125,25,0xD5,0x0F,Read,NAK
0.04109225,26,0xD4,0xA8,Write,ACK
0.041212625,27,0xD5,0xDE,Read,ACK
0.041260625,27,0xD5,0xFF,Read,ACK
0.041308625,27,0xD5,0x79,Read,ACK
0.041356625,27,0xD5,0xFF,Read,ACK
0.041404625,27,0xD5,0xE8,Read,ACK
0.04146025,27,0xD5,0xFF,Read,NAK
0.04159025,28,0x52,0x02,Write,ACK
0.0417105,29,0x53,0x00,Read,ACK
0.0417585,29,0x53,0x00,Read,ACK
0.04180675,29,0x53,0x4F,Read,ACK
0.041854875,29,0x53,0xC0,Read,ACK
0.04190325,29,0x53,0xBE,Read,ACK
0.04195125,29,0x53,0x00,Read,ACK
0.042006875,29,0x53,0xAB,Read,NAK
0.05079175,30,0xD4,0xA6,Write,ACK
0.050913125,31,0xD5,0x13,Read,ACK
0.050961125,31,0xD5,0x0F,Read,NAK
0.051092125,32,0xD4,0xA8,Write,ACK
0.0512125,33,0xD5,0xD7,Read,ACK
0.051260375,33,0xD5,0xFF,Read,ACK
0.0513085,33,0xD5,0x77,Read,ACK
0.051356375,33,0xD5,0xFF,Read,ACK
0.051404375,33,0xD5,0xE9,Read,ACK
0.051460125,33,0xD5,0xFF,Read,NAK
0.051590125,34,0x52,0x02,Write,ACK
0.051710375,35,0x53,0x00,Read,ACK
0.051758375,35,0x53,0x00,Read,ACK
0.051806625,35,0x53,0x4F,Read,ACK
0.05185475,35,0x53,0xC0,Read,ACK
0.051903,35,0x53,0xBE,Read,ACK
0.051951125,35,0x53,0x00,Read,ACK
0.05200675,35,0x53,0xAB,Read,NAK
0.060791625,36,0xD4,0xA6,Write,ACK
0.060913,37,0xD5,0x13,Read,ACK
0.060961,37,0xD5,0x0F,Read,NAK
0.061092625,38,0xD4,0xA8,Write,ACK
0.061213,39,0xD5,0xCE,Read,ACK
0.061261,39,0xD5,0xFF,Read,ACK
0.061309,39,0xD5,0x6C,Read,ACK
0.061357,39,0xD5,0xFF,Read,ACK
0.061405,39,0xD5,0xE7,Read,ACK
0.061460625,39,0xD5,0xFF,Read,NAK
0.061590625,40,0x52,0x02,Write,ACK
0.061711,41,0x53,0x00,Read,ACK
0.061759,41,0x53,0x00,Read,ACK
0.061807125,41,0x53,0x4F,Read,ACK
0.061854875,41,0x53,0xC0,Read,ACK
0.06190325,41,0x53,0xBE,Read,ACK
0.06195125,41,0x53,0x00,Read,ACK
0.062006875,41,0x53,0xAB,Read,NAK
0.0707905,42,0xD4,0xA6,Write,ACK
0.070911875,43,0xD5,0x13,Read,ACK
0.070959875,43,0xD5,0x0F,Read,NAK
0.071090875,44,0xD4,0xA8,Write,ACK
0.071211125,45,0xD5,0xCB,Read,ACK
0.071259125,45,0xD5,0xFF,Read,ACK
0.071307125,45,0xD5,0x5F,Read,ACK
0.071355125,45,0xD5,0xFF,Read,ACK
0.071403125,45,0xD5,0xE8,Read,ACK
0.071458875,45,0xD5,0xFF,Read,NAK
0.071588875,46,0x52,0x02,Write,ACK
0.071709125,47,0x53,0x00,Read,ACK
0.071757125,47,0x53,0x00,Read,ACK
0.0718055,47,0x53,0x4F,Read,ACK
0.0718535,47,0x53,0xC0,Read,ACK
0.07190175,47,0x53,0xBE,Read,ACK
0.07194975,47,0x53,0x00,Read,ACK
0.0720055,47,0x53,0xAB,Read,NAK
0.08079075,48,0xD4,0xA6,Write,ACK
0.080912,49,0xD5,0x13,Read,ACK
0.08096,49,0xD5,0x0F,Read,NAK
0.081091,50,0xD4,0xA8,Write,ACK
0.081211375,51,0xD5,0xCD,Read,ACK
0.081259375,51,0xD5,0xFF,Read,ACK
0.081307375,51,0xD5,0x59,Read,ACK
0.081355375,51,0xD5,0xFF,Read,ACK
0.081403375,51,0xD5,0xEB,Read,ACK
0.081459,51,0xD5,0xFF,Read,NAK
0.081589,52,0x52,0x02,Write,ACK
0.081709375,53,0x53,0x00,Read,ACK
0.081757375,53,0x53,0x00,Read,ACK
0.0818055,53,0x53,0x4F,Read,ACK
0.081853625,53,0x53,0xC0,Read,ACK
0.081901875,53,0x53,0xBE,Read,ACK
0.08195,53,0x53,0x00,Read,ACK
0.082005625,53,0x53,0xAB,Read,NAK
0.090789875,54,0xD4,0xA6,Write,ACK
0.09091125,55,0xD5,0x13,Read,ACK
0.09095925,55,0xD5,0x0F,Read,NAK
0.09109025,56,0xD4,0xA8,Write,ACK
0.0912105,57,0xD5,0xD0,Read,ACK
0.0912585,57,0xD5,0xFF,Read,ACK
0.0913065,57,0xD5,0x5E,Read,ACK
0.0913545,57,0xD5,0xFF,Read,ACK
0.0914025,57,0xD5,0xEF,Read,ACK
0.09145825,57,0xD5,0xFF,Read,NAK
0.09158825,58,0x52,0x02,Write,ACK
0.0917085,59,0x53,0x00,Read,ACK
0.0917565,59,0x53,0x00,Read,ACK
0.091804625,59,0x53,0x4F,Read,ACK
0.091852875,59,0x53,0xC0,Read,ACK
0.091901125,59,0x53,0xBE,Read,ACK
0.091949125,59,0x53,0x00,Read,ACK
0.092004875,59,0x53,0xAB,Read,NAK
0.100789375,60,0xD4,0xA6,Write,ACK
0.10091075,61,0xD5,0x13,Read,ACK
0.10095875,61,0xD5,0x0F,Read,NAK
0.10108975,62,0xD4,0xA8,Write,ACK
0.101210125,63,0xD5,0xCD,Read,ACK
0.101258125,63,0xD5,0xFF,Read,ACK
0.101306125,63,0xD5,0x66,Read,ACK
0.101354125,63,0xD5,0xFF,Read,ACK
0.101402125,63,0xD5,0xEF,Read,ACK
0.10145775,63,0xD5,0xFF,Read,NAK
0.10158775,64,0x52,0x02,Write,ACK
0.101708,65,0x53,0x00,Read,ACK
0.101756,65,0x53,0x00,Read,ACK
0.10180425,65,0x53,0x4F,Read,ACK
0.101852375,65,0x53,0xC0,Read,ACK
0.101900625,65,0x53,0xBE,Read,ACK
0.10194875,65,0x53,0x00,Read,ACK
0.102004375,65,0x53,0xAB,Read,NAK
0.110788625,66,0xD4,0xA6,Write,ACK
0.11091,67,0xD5,0x13,Read,ACK
0.110958,67,0xD5,0x0F,Read,NAK
0.111089,68,0xD4,0xA8,Write,ACK
0.11120925,69,0xD5,0xC6,Read,ACK
0.11125725,69,0xD5,0xFF,Read,ACK
0.11130525,69,0xD5,0x6B,Read,ACK
0.11135325,69,0xD5,0xFF,Read,ACK
0.11140125,69,0xD5,0xEA,Read,ACK
0.111456875,69,0xD5,0xFF,Read,NAK
0.111586875,70,0x52,0x02,Write,ACK
0.11170725,71,0x53,0x00,Read,ACK
0.11175525,71,0x53,0x00,Read,ACK
0.111803375,71,0x53,0x4F,Read,ACK
0.111851625,71,0x53,0xC0,Read,ACK
0.111899875,71,0x53,0xBE,Read,ACK
0.111947875,71,0x53,0x00,Read,ACK
0.112003625,71,0x53,0xAB,Read,NAK
0.1207875,72,0xD4,0xA6,Write,ACK
0.120908875,73,0xD5,0x13,Read,ACK
0.120956875,73,0xD5,0x0F,Read,NAK
0.12108775,74,0xD4,0xA8,Write,ACK
0.121208125,75,0xD5,0xC1,Read,ACK
0.121256125,75,0xD5,0xFF,Read,ACK
0.121304125,75,0xD5,0x6D,Read,ACK
0.121352125,75,0xD5,0xFF,Read,ACK
0.121400125,75,0xD5,0xE7,Read,ACK
0.12145575,75,0xD5,0xFF,Read,NAK
0.12158575,76,0x52,0x02,Write,ACK
0.121706125,77,0x53,0x00,Read,ACK
0.121754125,77,0x53,0x00,Read,ACK
0.12180225,77,0x53,0x4F,Read,ACK
0.121850375,77,0x53,0xC0,Read,ACK
0.12189875,77,0x53,0xBE,Read,ACK
0.12194675,77,0x53,0x00,Read,ACK
0.122002375,77,0x53,0xAB,Read,NAK
0.130787375,78,0xD4,0xA6,Write,ACK
0.130908625,79,0xD5,0x13,Read,ACK
0.130956625,79,0xD5,0x00,Read,NAK
0.131090625,80,0x52,0x02,Write,ACK
0.131211,81,0x53,0x00,Read,ACK
0.131259,81,0x53,0x00,Read,ACK
0.131307125,81,0x53,0x4F,Read,ACK
0.131355,81,0x53,0xC0,Read,ACK
0.131403375,81,0x53,0xBE,Read,ACK
0.131451375,81,0x53,0x00,Read,ACK
0.131507,81,0x53,0xAB,Read,NAK
0.140786875,82,0xD4,0xA6,Write,ACK
0.14090825,83,0xD5,0x13,Read,ACK
0.14095625,83,0xD5,0x0F,Read,NAK
0.14108725,84,0xD4,0xA8,Write,ACK
0.1412075,85,0xD5,0xC2,Read,ACK
0.1412555,85,0xD5,0xFF,Read,ACK
0.1413035,85,0xD5,0x71,Read,ACK
0.1413515,85,0xD5,0xFF,Read,ACK
0.1413995,85,0xD5,0xE9,Read,ACK
0.141455125,85,0xD5,0xFF,Read,NAK
0.141585125,86,0x52,0x02,Write,ACK
0.1417055,87,0x53,0x00,Read,ACK
0.1417535,87,0x53,0x00,Read,ACK
0.141801625,87,0x53,0x4F,Read,ACK
0.141849875,87,0x53,0xC0,Read,ACK
0.141898125,87,0x53,0xBE,Read,ACK
0.141946125,87,0x53,0x00,Read,ACK
0.142001875,87,0x53,0xAB,Read,NAK
0.150786375,88,0xD4,0xA6,Write,ACK
0.15090775,89,0xD5,0x13,Read,ACK
0.15095575,89,0xD5,0x0F,Read,NAK
0.15108675,90,0xD4,0xA8,Write,ACK
0.151207,91,0xD5,0xC8,Read,ACK
0.151255,91,0xD5,0xFF,Read,ACK
0.151303,91,0xD5,0x71,Read,ACK
0.151351,91,0xD5,0xFF,Read,ACK
0.151399,91,0xD5,0xEB,Read,ACK
0.15145475,91,0xD5,0xFF,Read,NAK
0.15158475,92,0x52,0x02,Write,ACK
0.151705,93,0x53,0x00,Read,ACK
0.151753,93,0x53,0x00,Read,ACK
0.15180125,93,0x53,0x4F,Read,ACK
0.151849375,93,0x53,0xC0,Read,ACK
0.151897625,93,0x53,0xBE,Read,ACK
0.151945625,93,0x53,0x00,Read,ACK
0.152001375,93,0x53,0xAB,Read,NAK
0.16078625,94,0xD4,0xA6,Write,ACK
0.160907625,95,0xD5,0x13,Read,ACK
0.160955625,95,0xD5,0x0F,Read,NAK
0.161086625,96,0xD4,0xA8,Write,ACK
0.161206875,97,0xD5,0xCE,Read,ACK
0.161254875,97,0xD5,0xFF,Read,ACK
0.161302875,97,0xD5,0x68,Read,ACK
0.161350875,97,0xD5,0xFF,Read,ACK
0.161398875,97,0xD5,0xEB,Read,ACK
0.161454625,97,0xD5,0xFF,Read,NAK
0.1615845,98,0x52,0x02,Write,ACK
0.161704875,99,0x53,0x00,Read,ACK
0.161752875,99,0x53,0x00,Read,ACK
0.161801,99,0x53,0x4F,Read,ACK
0.16184925,99,0x53,0xC0,Read,ACK
0.1618975,99,0x53,0xBE,Read,ACK
0.1619455,99,0x53,0x00,Read,ACK
0.16200125,99,0x53,0xAB,Read,NAK
0.17078575,100,0xD4,0xA6,Write,ACK
0.170907125,101,0xD5,0x13,Read,ACK
0.170955125,101,0xD5,0x0F,Read,NAK
0.171086125,102,0xD4,0xA8,Write,ACK
0.171206375,103,0xD5,0xD2,Read,ACK
0.171254375,103,0xD5,0xFF,Read,ACK
0.171302375,103,0xD5,0x5C,Read,ACK
0.171350375,103,0xD5,0xFF,Read,ACK
0.171398375,103,0xD5,0xE8,Read,ACK
0.171454125,103,0xD5,0xFF,Read,NAK
0.171584125,104,0x52,0x02,Write,ACK
0.171704375,105,0x53,0x00,Read,ACK
0.171752375,105,0x53,0x00,Read,ACK
0.17180075,105,0x53,0x4F,Read,ACK
0.17184875,105,0x53,0xC0,Read,ACK
0.171897,105,0x53,0xBE,Read,ACK
0.171945125,105,0x53,0x00,Read,ACK
0.17200075,105,0x53,0xAB,Read,NAK
0.180785,106,0xD4,0xA6,Write,ACK
0.180906375,107,0xD5,0x13,Read,ACK
0.18095425,107,0xD5,0x0F,Read,NAK
0.18108525,108,0xD4,0xA8,Write,ACK
0.181205625,109,0xD5,0xD4,Read,ACK
0.181253625,109,0xD5,0xFF,Read,ACK
0.181301625,109,0xD5,0x59,Read,ACK
0.181349625,109,0xD5,0xFF,Read,ACK
0.181397625,109,0xD5,0xE8,Read,ACK
0.18145325,109,0xD5,0xFF,Read,NAK
0.18158325,110,0x52,0x02,Write,ACK
0.181703625,111,0x53,0x00,Read,ACK
0.181751625,111,0x53,0x00,Read,ACK
0.18179975,111,0x53,0x4F,Read,ACK
0.181847875,111,0x53,0xC0,Read,ACK
0.18189625,111,0x53,0xBE,Read,ACK
0.18194425,111,0x53,0x00,Read,ACK
0.181999875,111,0x53,0xAB,Read,NAK
0.1907845,112,0xD4,0xA6,Write,ACK
0.190905875,113,0xD5,0x13,Read,ACK
0.190953875,113,0xD5,0x0F,Read,NAK
0.191084875,114,0xD4,0xA8,Write,ACK
0.191205125,115,0xD5,0xD4,Read,ACK
0.191253125,115,0xD5,0xFF,Read,ACK
0.191301125,115,0xD5,0x63,Read,ACK
0.191349125,115,0xD5,0xFF,Read,ACK
0.191397125,115,0xD5,0xEA,Read,ACK
0.19145275,115,0xD5,0xFF,Read,NAK
0.19158275,116,0x52,0x02,Write,ACK
0.191703125,117,0x53,0x00,Read,ACK
0.191751125,117,0x53,0x00,Read,ACK
0.19179925,117,0x53,0x4F,Read,ACK
0.191847125,117,0x53,0xC0,Read,ACK
0.191895375,117,0x53,0xBE,Read,ACK
0.1919435,117,0x53,0x00,Read,ACK
0.191999125,117,0x53,0xAB,Read,NAK
0.200784375,118,0xD4,0xA6,Write,ACK
0.20090575,119,0xD5,0x13,Read,ACK
0.20095375,119,0xD5,0x0F,Read,NAK
0.20108475,120,0xD4,0xA8,Write,ACK
0.201205,121,0xD5,0xD0,Read,ACK
0.201253,121,0xD5,0xFF,Read,ACK
0.201301,121,0xD5,0x6F,Read,ACK
0.201349,121,0xD5,0xFF,Read,ACK
0.201397,121,0xD5,0xE8,Read,ACK
0.201452625,121,0xD5,0xFF,Read,NAK
0.201582625,122,0x52,0x02,Write,ACK
0.201703,123,0x53,0x00,Read,ACK
0.201751,123,0x53,0x00,Read,ACK
0.201799125,123,0x53,0x4F,Read,ACK
0.201847,123,0x53,0xC0,Read,ACK
0.20189525,123,0x53,0xBE,Read,ACK
0.201943375,123,0x53,0x00,Read,ACK
0.201999,123,0x53,0xAB,Read,NAK
0.210783875,124,0xD4,0xA6,Write,ACK
0.21090525,125,0xD5,0x13,Read,ACK
0.21095325,125,0xD5,0x0F,Read,NAK
0.21108425,126,0xD4,0xA8,Write,ACK
0.2112045,127,0xD5,0xCB,Read,ACK
0.2112525,127,0xD5,0xFF,Read,ACK
0.2113005,127,0xD5,0x72,Read,ACK
0.2113485,127,0xD5,0xFF,Read,ACK
0.2113965,127,0xD5,0xE2,Read,ACK
0.21145225,127,0xD5,0xFF,Read,NAK
0.21158225,128,0x52,0x02,Write,ACK
0.2117025,129,0x53,0x00,Read,ACK
0.2117505,129,0x53,0x00,Read,ACK
0.211798625,129,0x53,0x4F,Read,ACK
0.211846875,129,0x53,0xC0,Read,ACK
0.211895125,129,0x53,0xBE,Read,ACK
0.211943125,129,0x53,0x00,Read,ACK
0.211998875,129,0x53,0xAB,Read,NAK
0.220782375,130,0xD4,0xA6,Write,ACK
0.22090375,131,0xD5,0x13,Read,ACK
0.22095175,131,0xD5,0x0F,Read,NAK
0.22108275,132,0xD4,0xA8,Write,ACK
0.221203125,133,0xD5,0xC9,Read,ACK
0.221251125,133,0xD5,0xFF,Read,ACK
0.221299125,133,0xD5,0x6B,Read,ACK
0.221347125,133,0xD5,0xFF,Read,ACK
0.221395125,133,0xD5,0xDD,Read,ACK
0.22145075,133,0xD5,0xFF,Read,NAK
0.22158075,134,0x52,0x02,Write,ACK
0.221701,135,0x53,0x00,Read,ACK
0.221749,135,0x53,0x00,Read,ACK
0.22179725,135,0x53,0x4F,Read,ACK
0.221845375,135,0x53,0xC0,Read,ACK
0.22189375,135,0x53,0xBE,Read,ACK
0.22194175,135,0x53,0x00,Read,ACK
0.221997375,135,0x53,0xAB,Read,NAK
0.230782625,136,0xD4,0xA6,Write,ACK
0.230904,137,0xD5,0x13,Read,ACK
0.230952,137,0xD5,0x0F,Read,NAK
0.231083,138,0xD4,0xA8,Write,ACK
0.23120325,139,0xD5,0xCD,Read,ACK
0.23125125,139,0xD5,0xFF,Read,ACK
0.23129925,139,0xD5,0x64,Read,ACK
0.23134725,139,0xD5,0xFF,Read,ACK
0.23139525,139,0xD5,0xDF,Read,ACK
0.231450875,139,0xD5,0xFF,Read,NAK
0.231580875,140,0x52,0x02,Write,ACK
0.23170125,141,0x53,0x00,Read,ACK
0.23174925,141,0x53,0x00,Read,ACK
0.231797375,141,0x53,0x4F,Read,ACK
0.231845625,141,0x53,0xC0,Read,ACK
0.231893875,141,0x53,0xBE,Read,ACK
0.231941875,141,0x53,0x00,Read,ACK
0.231997625,141,0x53,0xAB,Read,NAK
0.240782125,142,0xD4,0xA6,Write,ACK
0.2409035,143,0xD5,0x13,Read,ACK
0.2409515,143,0xD5,0x0F,Read,NAK
0.2410825,144,0xD4,0xA8,Write,ACK
0.24120275,145,0xD5,0xD1,Read,ACK
0.24125075,145,0xD5,0xFF,Read,ACK
0.24129875,145,0xD5,0x62,Read,ACK
0.24134675,145,0xD5,0xFF,Read,ACK
0.24139475,145,0xD5,0xE3,Read,ACK
0.2414505,145,0xD5,0xFF,Read,NAK
0.2415805,146,0x52,0x02,Write,ACK
0.24170075,147,0x53,0x00,Read,ACK
0.24174875,147,0x53,0x00,Read,ACK
0.241796875,147,0x53,0x4F,Read,ACK
0.24184475,147,0x53,0xC0,Read,ACK
0.241893125,147,0x53,0xBE,Read,ACK
0.241941125,147,0x53,0x00,Read,ACK
0.24199675,147,0x53,0xAB,Read,NAK
0.250781625,148,0xD4,0xA6,Write,ACK
0.250903,149,0xD5,0x13,Read,ACK
0.250951,149,0xD5,0x0F,Read,NAK
0.251082,150,0xD4,0xA8,Write,ACK
0.251202375,151,0xD5,0xCE,Read,ACK
0.251250375,151,0xD5,0xFF,Read,ACK
0.251298375,151,0xD5,0x63,Read,ACK
0.251346375,151,0xD5,0xFF,Read,ACK
0.251394375,151,0xD5,0xE5,Read,ACK
0.25145,151,0xD5,0xFF,Read,NAK
0.25158,152,0x52,0x02,Write,ACK
0.25170025,153,0x53,0x00,Read,ACK
0.25174825,153,0x53,0x00,Read,ACK
0.251796625,153,0x53,0x4F,Read,ACK
0.251844625,153,0x53,0xC0,Read,ACK
0.251892875,153,0x53,0xBE,Read,ACK
0.251941,153,0x53,0x00,Read,ACK
0.251996625,153,0x53,0xAB,Read,NAK
0.2607815,154,0xD4,0xA6,Write,ACK
0.260902875,155,0xD5,0x13,Read,ACK
0.260950875,155,0xD5,0x0F,Read,NAK
0.261081875,156,0xD4,0xA8,Write,ACK
0.261202125,157,0xD5,0xCB,Read,ACK
0.261250125,157,0xD5,0xFF,Read,ACK
0.261298125,157,0xD5,0x65,Read,ACK
0.261346125,157,0xD5,0xFF,Read,ACK
0.261394125,157,0xD5,0xE4,Read,ACK
0.261449875,157,0xD5,0xFF,Read,NAK
0.261579875,158,0x52,0x02,Write,ACK
0.261700125,159,0x53,0x00,Read,ACK
0.261748125,159,0x53,0x00,Read,ACK
0.26179625,159,0x53,0x4F,Read,ACK
0.2618445,159,0x53,0xC0,Read,ACK
0.26189275,159,0x53,0xBE,Read,ACK
0.261940875,159,0x53,0x00,Read,ACK
0.2619965,159,0x53,0xAB,Read,NAK
0.270781125,160,0xD4,0xA6,Write,ACK
0.270902375,161,0xD5,0x13,Read,ACK
0.270950375,161,0xD5,0x0F,Read,NAK
0.271081375,162,0xD4,0xA8,Write,ACK
0.27120175,163,0xD5,0xCE,Read,ACK
0.27124975,163,0xD5,0xFF,Read,ACK
0.27129775,163,0xD5,0x65,Read,ACK
0.27134575,163,0xD5,0xFF,Read,ACK
0.27139375,163,0xD5,0xE2,Read,ACK
0.271449375,163,0xD5,0xFF,Read,NAK
0.271579375,164,0x52,0x02,Write,ACK
0.27169975,165,0x53,0x00,Read,ACK
0.27174775,165,0x53,0x00,Read,ACK
0.27179575,165,0x53,0x4F,Read,ACK
0.271843625,165,0x53,0xC0,Read,ACK
0.271891875,165,0x53,0xBE,Read,ACK
0.27194,165,0x53,0x00,Read,ACK
0.271995625,165,0x53,0xAB,Read,NAK
0.280780625,166,0xD4,0xA6,Write,ACK
0.280901875,167,0xD5,0x13,Read,ACK
0.280949875,167,0xD5,0x0F,Read,NAK
0.281080875,168,0xD4,0xA8,Write,ACK
0.28120125,169,0xD5,0xD5,Read,ACK
0.28124925,169,0xD5,0xFF,Read,ACK
0.28129725,169,0xD5,0x63,Read,ACK
0.28134525,169,0xD5,0xFF,Read,ACK
0.28139325,169,0xD5,0xE5,Read,ACK
0.281448875,169,0xD5,0xFF,Read,NAK
0.281578875,170,0x52,0x02,Write,ACK
0.28169925,171,0x53,0x00,Read,ACK
0.28174725,171,0x53,0x00,Read,ACK
0.281795375,171,0x53,0x4F,Read,ACK
0.2818435,171,0x53,0xC0,Read,ACK
0.28189175,171,0x53,0xBE,Read,ACK
0.281939875,171,0x53,0x00,Read,ACK
0.2819955,171,0x53,0xAB,Read,NAK
0.2907795,172,0xD4,0xA6,Write,ACK
0.29090075,173,0xD5,0x13,Read,ACK
0.29094875,173,0xD5,0x0F,Read,NAK
0.29107975,174,0xD4,0xA8,Write,ACK
0.291200125,175,0xD5,0xDC,Read,ACK
0.291248125,175,0xD5,0xFF,Read,ACK
0.291296125,175,0xD5,0x61,Read,ACK
0.291344125,175,0xD5,0xFF,Read,ACK
0.291392125,175,0xD5,0xE8,Read,ACK
0.29144775,175,0xD5,0xFF,Read,NAK
0.29157775,176,0x52,0x02,Write,ACK
0.291698125,177,0x53,0x00,Read,ACK
0.291746125,177,0x53,0x00,Read,ACK
0.29179425,177,0x53,0x4F,Read,ACK
0.291842125,177,0x53,0xC0,Read,ACK
0.291890375,177,0x53,0xBE,Read,ACK
0.291938375,177,0x53,0x00,Read,ACK
0.291994,177,0x53,0xAB,Read,NAK
0.300779625,178,0xD4,0xA6,Write,ACK
0.300901,179,0xD5,0x13,Read,ACK
0.300949,179,0xD5,0x0F,Read,NAK
0.30108,180,0xD4,0xA8,Write,ACK
0.30120025,181,0xD5,0xE1,Read,ACK
0.30124825,181,0xD5,0xFF,Read,ACK
0.30129625,181,0xD5,0x65,Read,ACK
0.30134425,181,0xD5,0xFF,Read,ACK
0.30139225,181,0xD5,0xE7,Read,ACK
0.301448,181,0xD5,0xFF,Read,NAK
0.301578,182,0x52,0x02,Write,ACK
0.30169825,183,0x53,0x00,Read,ACK
0.30174625,183,0x53,0x00,Read,ACK
0.301794375,183,0x53,0x4F,Read,ACK
0.30184225,183,0x53,0xC0,Read,ACK
0.3018905,183,0x53,0xBE,Read,ACK
0.301938625,183,0x53,0x00,Read,ACK
0.30199425,183,0x53,0xAB,Read,NAK
0.310778125,184,0xD4,0xA6,Write,ACK
0.3108995,185,0xD5,0x13,Read,ACK
0.3109475,185,0xD5,0x00,Read,NAK
0.3110815,186,0x52,0x02,Write,ACK
0.311201875,187,0x53,0x00,Read,ACK
0.311249875,187,0x53,0x00,Read,ACK
0.311298125,187,0x53,0x4F,Read,ACK
0.311346125,187,0x53,0xC0,Read,ACK
0.311394625,187,0x53,0xBE,Read,ACK
0.3114425,187,0x53,0x00,Read,ACK
0.311498125,187,0x53,0xAB,Read,NAK
0.320778,188,0xD4,0xA6,Write,ACK
0.320899375,189,0xD5,0x13,Read,ACK
0.320947375,189,0xD5,0x0F,Read,NAK
0.321078375,190,0xD4,0xA8,Write,ACK
0.321198625,191,0xD5,0xE2,Read,ACK
0.321246625,191,0xD5,0xFF,Read,ACK
0.321294625,191,0xD5,0x6A,Read,ACK
0.321342625,191,0xD5,0xFF,Read,ACK
0.321390625,191,0xD5,0xE5,Read,ACK
0.321446375,191,0xD5,0xFF,Read,NAK
0.321576375,192,0x52,0x02,Write,ACK
0.321696625,193,0x53,0x00,Read,ACK
0.321744625,193,0x53,0x00,Read,ACK
0.32179275,193,0x53,0x4F,Read,ACK
0.321840625,193,0x53,0xC0,Read,ACK
0.321889,193,0x53,0xBE,Read,ACK
0.321937,193,0x53,0x00,Read,ACK
0.321992625,193,0x53,0xAB,Read,NAK
0.3307775,194,0xD4,0xA6,Write,ACK
0.330898875,195,0xD5,0x13,Read,ACK
0.330946875,195,0xD5,0x0F,Read,NAK
0.331077875,196,0xD4,0xA8,Write,ACK
0.33119825,197,0xD5,0xDD,Read,ACK
0.33124625,197,0xD5,0xFF,Read,ACK
0.33129425,197,0xD5,0x6A,Read,ACK
0.33134225,197,0xD5,0xFF,Read,ACK
0.33139025,197,0xD5,0xE5,Read,ACK
0.331445875,197,0xD5,0xFF,Read,NAK
0.331575875,198,0x52,0x02,Write,ACK
0.33169625,199,0x53,0x00,Read,ACK
0.331744125,199,0x53,0x00,Read,ACK
0.331792375,199,0x53,0x4F,Read,ACK
0.3318405,199,0x53,0xC0,Read,ACK
0.331888875,199,0x53,0xBE,Read,ACK
0.331936875,199,0x53,0x00,Read,ACK
0.3319925,199,0x53,0xAB,Read,NAK
0.340777375,200,0xD4,0xA6,Write,ACK
0.34089875,201,0xD5,0x13,Read,ACK
0.34094675,201,0xD5,0x0F,Read,NAK
0.34107775,202,0xD4,0xA8,Write,ACK
0.341198125,203,0xD5,0xD3,Read,ACK
0.341246125,203,0xD5,0xFF,Read,ACK
0.341294125,203,0xD5,0x6B,Read,ACK
0.341342125,203,0xD5,0xFF,Read,ACK
0.34139,203,0xD5,0xEA,Read,ACK
0.34144575,203,0xD5,0xFF,Read,NAK
0.34157575,204,0x52,0x02,Write,ACK
0.341696,205,0x53,0x00,Read,ACK
0.341744,205,0x53,0x00,Read,ACK
0.34179225,205,0x53,0x4F,Read,ACK
0.341840375,205,0x53,0xC0,Read,ACK
0.341888625,205,0x53,0xBE,Read,ACK
0.34193675,205,0x53,0x00,Read,ACK
0.341992375,205,0x53,0xAB,Read,NAK
0.35077725,206,0xD4,0xA6,Write,ACK
0.350898625,207,0xD5,0x13,Read,ACK
0.350946625,207,0xD5,0x0F,Read,NAK
0.351077625,208,0xD4,0xA8,Write,ACK
0.351197875,209,0xD5,0xCA,Read,ACK
0.351245875,209,0xD5,0xFF,Read,ACK
0.351293875,209,0xD5,0x73,Read,ACK
0.351341875,209,0xD5,0xFF,Read,ACK
0.351389875,209,0xD5,0xED,Read,ACK
0.351445625,209,0xD5,0xFF,Read,NAK
0.351575625,210,0x52,0x02,Write,ACK
0.351695875,211,0x53,0x00,Read,ACK
0.351743875,211,0x53,0x00,Read,ACK
0.351792,211,0x53,0x4F,Read,ACK
0.351839875,211,0x53,0xC0,Read,ACK
0.351888125,211,0x53,0xBE,Read,ACK
0.35193625,211,0x53,0x00,Read,ACK
0.351991875,211,0x53,0xAB,Read,NAK
0.36077675,212,0xD4,0xA6,Write,ACK
0.360898125,213,0xD5,0x13,Read,ACK
0.360946125,213,0xD5,0x0F,Read,NAK
0.361077125,214,0xD4,0xA8,Write,ACK
0.3611975,215,0xD5,0xC3,Read,ACK
0.3612455,215,0xD5,0xFF,Read,ACK
0.3612935,215,0xD5,0x7D,Read,ACK
0.3613415,215,0xD5,0xFF,Read,ACK
0.3613895,215,0xD5,0xE9,Read,ACK
0.361445125,215,0xD5,0xFF,Read,NAK
0.361575125,216,0x52,0x02,Write,ACK
0.3616955,217,0x53,0x00,Read,ACK
0.361743375,217,0x53,0x00,Read,ACK
0.36179175,217,0x53,0x4F,Read,ACK
0.36183975,217,0x53,0xC0,Read,ACK
0.361888,217,0x53,0xBE,Read,ACK
0.361936125,217,0x53,0x00,Read,ACK
0.36199175,217,0x53,0xAB,Read,NAK
0.370776375,218,0xD4,0xA6,Write,ACK
0.370897625,219,0xD5,0x13,Read,ACK
0.370945625,219,0xD5,0x0F,Read,NAK
0.371076625,220,0xD4,0xA8,Write,ACK
0.371197,221,0xD5,0xBF,Read,ACK
0.371245,221,0xD5,0xFF,Read,ACK
0.371293,221,0xD5,0x7C,Read,ACK
0.371341,221,0xD5,0xFF,Read,ACK
0.371389,221,0xD5,0xE1,Read,ACK
0.371444625,221,0xD5,0xFF,Read,NAK
0.371574625,222,0x52,0x02,Write,ACK
0.371695,223,0x53,0x00,Read,ACK
0.371743,223,0x53,0x00,Read,ACK
0.371791125,223,0x53,0x4F,Read,ACK
0.37183925,223,0x53,0xC0,Read,ACK
0.371887625,223,0x53,0xBE,Read,ACK
0.371935625,223,0x53,0x00,Read,ACK
0.37199125,223,0x53,0xAB,Read,NAK
0.3807755,224,0xD4,0xA6,Write,ACK
0.380896875,225,0xD5,0x13,Read,ACK
0.380944875,225,0xD5,0x0F,Read,NAK
0.381075875,226,0xD4,0xA8,Write,ACK
0.381196125,227,0xD5,0xBF,Read,ACK
0.381244125,227,0xD5,0xFF,Read,ACK
0.381292125,227,0xD5,0x74,Read,ACK
0.381340125,227,0xD5,0xFF,Read,ACK
0.381388125,227,0xD5,0xD9,Read,ACK
0.381443875,227,0xD5,0xFF,Read,NAK
0.381573875,228,0x52,0x02,Write,ACK
0.381694125,229,0x53,0x00,Read,ACK
0.381742125,229,0x53,0x00,Read,ACK
0.38179025,229,0x53,0x4F,Read,ACK
0.381838125,229,0x53,0xC0,Read,ACK
0.3818865,229,0x53,0xBE,Read,ACK
0.3819345,229,0x53,0x00,Read,ACK
0.381990125,229,0x53,0xAB,Read,NAK
0.390775,230,0xD4,0xA6,Write,ACK
0.390896375,231,0xD5,0x13,Read,ACK
0.390944375,231,0xD5,0x0F,Read,NAK
0.391075375,232,0xD4,0xA8,Write,ACK
0.39119575,233,0xD5,0xC4,Read,ACK
0.39124375,233,0xD5,0xFF,Read,ACK
0.39129175,233,0xD5,0x72,Read,ACK
0.39133975,233,0xD5,0xFF,Read,ACK
0.39138775,233,0xD5,0xD6,Read,ACK
0.391443375,233,0xD5,0xFF,Read,NAK
0.391573375,234,0x52,0x02,Write,ACK
0.39169375,235,0x53,0x00,Read,ACK
0.391741625,235,0x53,0x00,Read,ACK
0.391789875,235,0x53,0x4F,Read,ACK
0.391838,235,0x53,0xC0,Read,ACK
0.391886375,235,0x53,0xBE,Read,ACK
0.391934375,235,0x53,0x00,Read,ACK
0.39199,235,0x53,0xAB,Read,NAK
0.400774875,236,0xD4,0xA6,Write,ACK
0.40089625,237,0xD5,0x13,Read,ACK
0.40094425,237,0xD5,0x0F,Read,NAK
0.40107525,238,0xD4,0xA8,Write,ACK
0.401195625,239,0xD5,0xCC,Read,ACK
0.401243625,239,0xD5,0xFF,Read,ACK
0.401291625,239,0xD5,0x79,Read,ACK
0.4013395,239,0xD5,0xFF,Read,ACK
0.4013875,239,0xD5,0xD8,Read,ACK
0.40144325,239,0xD5,0xFF,Read,NAK
0.40157325,240,0x52,0x02,Write,ACK
0.4016935,241,0x53,0x00,Read,ACK
0.4017415,241,0x53,0x00,Read,ACK
0.40178975,241,0x53,0x4F,Read,ACK
0.401837875,241,0x53,0xC0,Read,ACK
0.40188625,241,0x53,0xBE,Read,ACK
0.40193425,241,0x53,0x00,Read,ACK
0.401989875,241,0x53,0xAB,Read,NAK
0.4107745,242,0xD4,0xA6,Write,ACK
0.41089575,243,0xD5,0x13,Read,ACK
0.41094375,243,0xD5,0x0F,Read,NAK
0.41107475,244,0xD4,0xA8,Write,ACK
0.411195125,245,0xD5,0xD3,Read,ACK
0.411243125,245,0xD5,0xFF,Read,ACK
0.411291125,245,0xD5,0x7C,Read,ACK
0.411339125,245,0xD5,0xFF,Read,ACK
0.411387125,245,0xD5,0xDD,Read,ACK
0.41144275,245,0xD5,0xFF,Read,NAK
0.41157275,246,0x52,0x02,Write,ACK
0.411693125,247,0x53,0x00,Read,ACK
0.411741125,247,0x53,0x00,Read,ACK
0.411789375,247,0x53,0x4F,Read,ACK
0.411837375,247,0x53,0xC0,Read,ACK
0.411885625,247,0x53,0xBE,Read,ACK
0.41193375,247,0x53,0x00,Read,ACK
0.411989375,247,0x53,0xAB,Read,NAK
0.42077325,248,0xD4,0xA6,Write,ACK
0.420894625,249,0xD5,0x13,Read,ACK
0.420942625,249,0xD5,0x0F,Read,NAK
0.421073625,250,0xD4,0xA8,Write,ACK
0.421194,251,0xD5,0xD8,Read,ACK
0.421242,251,0xD5,0xFF,Read,ACK
0.42129,251,0xD5,0x77,Read,ACK
0.421338,251,0xD5,0xFF,Read,ACK
0.421386,251,0xD5,0xE1,Read,ACK
0.421441625,251,0xD5,0xFF,Read,NAK
0.421571625,252,0x52,0x02,Write,ACK
0.421692,253,0x53,0x00,Read,ACK
0.421739875,253,0x53,0x00,Read,ACK
0.421788,253,0x53,0x4F,Read,ACK
0.421835875,253,0x53,0xC0,Read,ACK
0.421884125,253,0x53,0xBE,Read,ACK
0.42193225,253,0x53,0x00,Read,ACK
0.421987875,253,0x53,0xAB,Read,NAK
0.430773125,254,0xD4,0xA6,Write,ACK
0.4308945,255,0xD5,0x13,Read,ACK
0.4309425,255,0xD5,0x0F,Read,NAK
0.4310735,256,0xD4,0xA8,Write,ACK
0.431193875,257,0xD5,0xD9,Read,ACK
0.431241875,257,0xD5,0xFF,Read,ACK
0.431289875,257,0xD5,0x71,Read,ACK
0.43133775,257,0xD5,0xFF,Read,ACK
0.43138575,257,0xD5,0xE1,Read,ACK
0.4314415,257,0xD5,0xFF,Read,NAK
0.4315715,258,0x52,0x02,Write,ACK
0.43169175,259,0x53,0x00,Read,ACK
0.43173975,259,0x53,0x00,Read,ACK
0.431787875,259,0x53,0x4F,Read,ACK
0.43183575,259,0x53,0xC0,Read,ACK
0.431884125,259,0x53,0xBE,Read,ACK
0.431932125,259,0x53,0x00,Read,ACK
0.43198775,259,0x53,0xAB,Read,NAK
0.44077275,260,0xD4,0xA6,Write,ACK
0.440894,261,0xD5,0x13,Read,ACK
0.440942,261,0xD5,0x0F,Read,NAK
0.441073,262,0xD4,0xA8,Write,ACK
0.441193375,263,0xD5,0xD9,Read,ACK
0.441241375,263,0xD5,0xFF,Read,ACK
0.441289375,263,0xD5,0x73,Read,ACK
0.441337375,263,0xD5,0xFF,Read,ACK
0.441385375,263,0xD5,0xDF,Read,ACK
0.441441,263,0xD5,0xFF,Read,NAK
0.441571,264,0x52,0x02,Write,ACK
0.441691375,265,0x53,0x00,Read,ACK
0.441739375,265,0x53,0x00,Read,ACK
0.4417875,265,0x53,0x4F,Read,ACK
0.441835625,265,0x53,0xC0,Read,ACK
0.441884,265,0x53,0xBE,Read,ACK
0.441932,265,0x53,0x00,Read,ACK
0.441987625,265,0x53,0xAB,Read,NAK
0.4507725,266,0xD4,0xA6,Write,ACK
0.450893875,267,0xD5,0x13,Read,ACK
0.450941875,267,0xD5,0x0F,Read,NAK
0.451072875,268,0xD4,0xA8,Write,ACK
0.45119325,269,0xD5,0xD8,Read,ACK
0.45124125,269,0xD5,0xFF,Read,ACK
0.45128925,269,0xD5,0x7B,Read,ACK
0.45133725,269,0xD5,0xFF,Read,ACK
0.45138525,269,0xD5,0xDA,Read,ACK
0.451440875,269,0xD5,0xFF,Read,NAK
0.451570875,270,0x52,0x02,Write,ACK
0.451691125,271,0x53,0x00,Read,ACK
0.451739125,271,0x53,0x00,Read,ACK
0.451787375,271,0x53,0x4F,Read,ACK
0.4518355,271,0x53,0xC0,Read,ACK
0.45188375,271,0x53,0xBE,Read,ACK
0.451931875,271,0x53,0x00,Read,ACK
0.4519875,271,0x53,0xAB,Read,NAK
0.460772125,272,0xD4,0xA6,Write,ACK
0.460893375,273,0xD5,0x13,Read,ACK
0.460941375,273,0xD5,0x0F,Read,NAK
0.461072375,274,0xD4,0xA8,Write,ACK
0.46119275,275,0xD5,0xD8,Read,ACK
0.46124075,275,0xD5,0xFF,Read,ACK
0.46128875,275,0xD5,0x84,Read,ACK
0.46133675,275,0xD5,0xFF,Read,ACK
0.46138475,275,0xD5,0xD3,Read,ACK
0.461440375,275,0xD5,0xFF,Read,NAK
0.461570375,276,0x52,0x02,Write,ACK
0.46169075,277,0x53,0x00,Read,ACK
0.46173875,277,0x53,0x00,Read,ACK
0.461787,277,0x53,0x4F,Read,ACK
0.461835,277,0x53,0xC0,Read,ACK
0.461883375,277,0x53,0xBE,Read,ACK
0.461931375,277,0x53,0x00,Read,ACK
0.461987,277,0x53,0xAB,Read,NAK
0.470770625,278,0xD4,0xA6,Write,ACK
0.470892,279,0xD5,0x13,Read,ACK
0.47094,279,0xD5,0x0F,Read,NAK
0.471070875,280,0xD4,0xA8,Write,ACK
0.47119125,281,0xD5,0xD8,Read,ACK
0.47123925,281,0xD5,0xFF,Read,ACK
0.47128725,281,0xD5,0x86,Read,ACK
0.47133525,281,0xD5,0xFF,Read,ACK
0.47138325,281,0xD5,0xCF,Read,ACK
0.471438875,281,0xD5,0xFF,Read,NAK
0.471568875,282,0x52,0x02,Write,ACK
0.47168925,283,0x53,0x00,Read,ACK
0.47173725,283,0x53,0x00,Read,ACK
0.471785375,283,0x53,0x4F,Read,ACK
0.47183325,283,0x53,0xC0,Read,ACK
0.471881625,283,0x53,0xBE,Read,ACK
0.471929625,283,0x53,0x00,Read,ACK
0.47198525,283,0x53,0xAB,Read,NAK
0.480771125,284,0xD4,0xA6,Write,ACK
0.4808925,285,0xD5,0x13,Read,ACK
0.4809405,285,0xD5,0x0F,Read,NAK
0.4810715,286,0xD4,0xA8,Write,ACK
0.48119175,287,0xD5,0xD6,Read,ACK
0.48123975,287,0xD5,0xFF,Read,ACK
0.48128775,287,0xD5,0x82,Read,ACK
0.48133575,287,0xD5,0xFF,Read,ACK
0.48138375,287,0xD5,0xD2,Read,ACK
0.4814395,287,0xD5,0xFF,Read,NAK
0.4815695,288,0x52,0x02,Write,ACK
0.48168975,289,0x53,0x00,Read,ACK
0.48173775,289,0x53,0x00,Read,ACK
0.481785875,289,0x53,0x4F,Read,ACK
0.481834125,289,0x53,0xC0,Read,ACK
0.481882375,289,0x53,0xBE,Read,ACK
0.481930375,289,0x53,0x00,Read,ACK
0.481986125,289,0x53,0xAB,Read,NAK
0.490769625,290,0xD4,0xA6,Write,ACK
0.490891,291,0xD5,0x13,Read,ACK
0.490939,291,0xD5,0x00,Read,NAK
0.491073,292,0x52,0x02,Write,ACK
0.491193375,293,0x53,0x00,Read,ACK
0.491241375,293,0x53,0x00,Read,ACK
0.4912895,293,0x53,0x4F,Read,ACK
0.491337625,293,0x53,0xC0,Read,ACK
0.491386,293,0x53,0xBE,Read,ACK
0.491434,293,0x53,0x00,Read,ACK
0.491489625,293,0x53,0xAB,Read,NAK
0.500769875,294,0xD4,0xA6,Write,ACK
0.50089125,295,0xD5,0x13,Read,ACK
0.50093925,295,0xD5,0x0F,Read,NAK
0.501070125,296,0xD4,0xA8,Write,ACK
0.5011905,297,0xD5,0xD3,Read,ACK
0.5012385,297,0xD5,0xFF,Read,ACK
0.5012865,297,0xD5,0x79,Read,ACK
0.5013345,297,0xD5,0xFF,Read,ACK
0.5013825,297,0xD5,0xD8,Read,ACK
0.501438125,297,0xD5,0xFF,Read,NAK
0.501568125,298,0x52,0x02,Write,ACK
0.5016885,299,0x53,0x00,Read,ACK
0.5017365,299,0x53,0x00,Read,ACK
0.501784625,299,0x53,0x4F,Read,ACK
0.501832875,299,0x53,0xC0,Read,ACK
0.50188125,299,0x53,0xBE,Read,ACK
0.501929125,299,0x53,0x00,Read,ACK
0.50198475,299,0x53,0xAB,Read,NAK
0.510769375,300,0xD4,0xA6,Write,ACK
0.51089075,301,0xD5,0x13,Read,ACK
0.51093875,301,0xD5,0x0F,Read,NAK
0.51106975,302,0xD4,0xA8,Write,ACK
0.51119,303,0xD5,0xCE,Read,ACK
0.511238,303,0xD5,0xFF,Read,ACK
0.511286,303,0xD5,0x70,Read,ACK
0.511334,303,0xD5,0xFF,Read,ACK
0.511382,303,0xD5,0xDC,Read,ACK
0.51143775,303,0xD5,0xFF,Read,NAK
0.51156775,304,0x52,0x02,Write,ACK
0.511688,305,0x53,0x00,Read,ACK
0.511736,305,0x53,0x00,Read,ACK
0.511784125,305,0x53,0x4F,Read,ACK
0.511832375,305,0x53,0xC0,Read,ACK
0.511880625,305,0x53,0xBE,Read,ACK
0.511928625,305,0x53,0x00,Read,ACK
0.511984375,305,0x53,0xAB,Read,NAK
0.520768875,306,0xD4,0xA6,Write,ACK
0.52089025,307,0xD5,0x13,Read,ACK
0.52093825,307,0xD5,0x0F,Read,NAK
0.52106925,308,0xD4,0xA8,Write,ACK
0.521189625,309,0xD5,0xCB,Read,ACK
0.521237625,309,0xD5,0xFF,Read,ACK
0.521285625,309,0xD5,0x67,Read,ACK
0.5213335,309,0xD5,0xFF,Read,ACK
0.5213815,309,0xD5,0xDE,Read,ACK
0.52143725,309,0xD5,0xFF,Read,NAK
0.52156725,310,0x52,0x02,Write,ACK
0.5216875,311,0x53,0x00,Read,ACK
0.5217355,311,0x53,0x00,Read,ACK
0.521783625,311,0x53,0x4F,Read,ACK
0.5218315,311,0x53,0xC0,Read,ACK
0.521879875,311,0x53,0xBE,Read,ACK
0.521927875,311,0x53,0x00,Read,ACK
0.5219835,311,0x53,0xAB,Read,NAK
0.530768125,312,0xD4,0xA6,Write,ACK
0.5308895,313,0xD5,0x13,Read,ACK
0.5309375,313,0xD5,0x0F,Read,NAK
0.531068375,314,0xD4,0xA8,Write,ACK
0.53118875,315,0xD5,0xCA,Read,ACK
0.53123675,315,0xD5,0xFF,Read,ACK
0.53128475,315,0xD5,0x62,Read,ACK
0.53133275,315,0xD5,0xFF,Read,ACK
0.53138075,315,0xD5,0xE0,Read,ACK
0.531436375,315,0xD5,0xFF,Read,NAK
0.531566375,316,0x52,0x02,Write,ACK
0.53168675,317,0x53,0x00,Read,ACK
0.53173475,317,0x53,0x00,Read,ACK
0.531782875,317,0x53,0x4F,Read,ACK
0.531831,317,0x53,0xC0,Read,ACK
0.531879375,317,0x53,0xBE,Read,ACK
0.531927375,317,0x53,0x00,Read,ACK
0.531983,317,0x53,0xAB,Read,NAK
0.540768,318,0xD4,0xA6,Write,ACK
0.54088925,319,0xD5,0x13,Read,ACK
0.54093725,319,0xD5,0x0F,Read,NAK
0.54106825,320,0xD4,0xA8,Write,ACK
0.541188625,321,0xD5,0xCD,Read,ACK
0.541236625,321,0xD5,0xFF,Read,ACK
0.541284625,321,0xD5,0x64,Read,ACK
0.541332625,321,0xD5,0xFF,Read,ACK
0.541380625,321,0xD5,0xE3,Read,ACK
0.54143625,321,0xD5,0xFF,Read,NAK
0.54156625,322,0x52,0x02,Write,ACK
0.541686625,323,0x53,0x00,Read,ACK
0.541734625,323,0x53,0x00,Read,ACK
0.541782875,323,0x53,0x4F,Read,ACK
0.541830875,323,0x53,0xC0,Read,ACK
0.54187925,323,0x53,0xBE,Read,ACK
0.54192725,323,0x53,0x00,Read,ACK
0.541982875,323,0x53,0xAB,Read,NAK
0.5507675,324,0xD4,0xA6,Write,ACK
0.550888875,325,0xD5,0x13,Read,ACK
0.550936875,325,0xD5,0x0F,Read,NAK
0.551067875,326,0xD4,0xA8,Write,ACK
0.551188125,327,0xD5,0xD3,Read,ACK
0.551236125,327,0xD5,0xFF,Read,ACK
0.551284125,327,0xD5,0x6B,Read,ACK
0.551332125,327,0xD5,0xFF,Read,ACK
0.551380125,327,0xD5,0xE5,Read,ACK
0.55143575,327,0xD5,0xFF,Read,NAK
0.55156575,328,0x52,0x02,Write,ACK
0.551686125,329,0x53,0x00,Read,ACK
0.551734125,329,0x53,0x00,Read,ACK
0.55178225,329,0x53,0x4F,Read,ACK
0.551830125,329,0x53,0xC0,Read,ACK
0.551878375,329,0x53,0xBE,Read,ACK
0.5519265,329,0x53,0x00,Read,ACK
0.551982125,329,0x53,0xAB,Read,NAK
0.560767,330,0xD4,0xA6,Write,ACK
0.560888375,331,0xD5,0x13,Read,ACK
0.560936375,331,0xD5,0x0F,Read,NAK
0.561067375,332,0xD4,0xA8,Write,ACK
0.561187625,333,0xD5,0xDA,Read,ACK
0.561235625,333,0xD5,0xFF,Read,ACK
0.561283625,333,0xD5,0x74,Read,ACK
0.561331625,333,0xD5,0xFF,Read,ACK
0.561379625,333,0xD5,0xE8,Read,ACK
0.561435375,333,0xD5,0xFF,Read,NAK
0.561565375,334,0x52,0x02,Write,ACK
0.561685625,335,0x53,0x00,Read,ACK
0.561733625,335,0x53,0x00,Read,ACK
0.56178175,335,0x53,0x4F,Read,ACK
0.56183,335,0x53,0xC0,Read,ACK
0.56187825,335,0x53,0xBE,Read,ACK
0.56192625,335,0x53,0x00,Read,ACK
0.561982,335,0x53,0xAB,Read,NAK
0.570766875,336,0xD4,0xA6,Write,ACK
0.57088825,337,0xD5,0x13,Read,ACK
0.57093625,337,0xD5,0x0F,Read,NAK
0.57106725,338,0xD4,0xA8,Write,ACK
0.5711875,339,0xD5,0xE0,Read,ACK
0.5712355,339,0xD5,0xFF,Read,ACK
0.5712835,339,0xD5,0x78,Read,ACK
0.5713315,339,0xD5,0xFF,Read,ACK
0.5713795,339,0xD5,0xEC,Read,ACK
0.57143525,339,0xD5,0xFF,Read,NAK
0.57156525,340,0x52,0x02,Write,ACK
0.5716855,341,0x53,0x00,Read,ACK
0.5717335,341,0x53,0x00,Read,ACK
0.57178175,341,0x53,0x4F,Read,ACK
0.571829875,341,0x53,0xC0,Read,ACK
0.571878125,341,0x53,0xBE,Read,ACK
0.571926125,341,0x53,0x00,Read,ACK
0.571981875,341,0x53,0xAB,Read,NAK
0.580766125,342,0xD4,0xA6,Write,ACK
0.580887375,343,0xD5,0x13,Read,ACK
0.580935375,343,0xD5,0x0F,Read,NAK
0.581066375,344,0xD4,0xA8,Write,ACK
0.58118675,345,0xD5,0xDF,Read,ACK
0.58123475,345,0xD5,0xFF,Read,ACK
0.58128275,345,0xD5,0x75,Read,ACK
0.58133075,345,0xD5,0xFF,Read,ACK
0.58137875,345,0xD5,0xF0,Read,ACK
0.581434375,345,0xD5,0xFF,Read,NAK
0.581564375,346,0x52,0x02,Write,ACK
0.58168475,347,0x53,0x00,Read,ACK
0.58173275,347,0x53,0x00,Read,ACK
0.581780875,347,0x53,0x4F,Read,ACK
0.58182875,347,0x53,0xC0,Read,ACK
0.581877,347,0x53,0xBE,Read,ACK
0.581925,347,0x53,0x00,Read,ACK
0.58198075,347,0x53,0xAB,Read,NAK
0.590765625,348,0xD4,0xA6,Write,ACK
0.590887,349,0xD5,0x13,Read,ACK
0.590935,349,0xD5,0x0F,Read,NAK
0.591065875,350,0xD4,0xA8,Write,ACK
0.59118625,351,0xD5,0xD7,Read,ACK
0.59123425,351,0xD5,0xFF,Read,ACK
0.59128225,351,0xD5,0x70,Read,ACK
0.59133025,351,0xD5,0xFF,Read,ACK
0.59137825,351,0xD5,0xF3,Read,ACK
0.591433875,351,0xD5,0xFF,Read,NAK
0.591563875,352,0x52,0x02,Write,ACK
0.59168425,353,0x53,0x00,Read,ACK
0.59173225,353,0x53,0x00,Read,ACK
0.5917805,353,0x53,0x4F,Read,ACK
0.5918285,353,0x53,0xC0,Read,ACK
0.591877,353,0x53,0xBE,Read,ACK
0.591924875,353,0x53,0x00,Read,ACK
0.5919805,353,0x53,0xAB,Read,NAK
0.600765125,354,0xD4,0xA6,Write,ACK
0.6008865,355,0xD5,0x13,Read,ACK
0.6009345,355,0xD5,0x0F,Read,NAK
0.6010655,356,0xD4,0xA8,Write,ACK
0.60118575,357,0xD5,0xCD,Read,ACK
0.60123375,357,0xD5,0xFF,Read,ACK
0.60128175,357,0xD5,0x6F,Read,ACK
0.60132975,357,0xD5,0xFF,Read,ACK
0.60137775,357,0xD5,0xF3,Read,ACK
0.6014335,357,0xD5,0xFF,Read,NAK
0.6015635,358,0x52,0x02,Write,ACK
0.60168375,359,0x53,0x00,Read,ACK
0.60173175,359,0x53,0x00,Read,ACK
0.601779875,359,0x53,0x4F,Read,ACK
0.60182775,359,0x53,0xC0,Read,ACK
0.601876,359,0x53,0xBE,Read,ACK
0.601924125,359,0x53,0x00,Read,ACK
0.60197975,359,0x53,0xAB,Read,NAK
0.610764625,360,0xD4,0xA6,Write,ACK
0.610886,361,0xD5,0x13,Read,ACK
0.610934,361,0xD5,0x0F,Read,NAK
0.611065,362,0xD4,0xA8,Write,ACK
0.61118525,363,0xD5,0xCA,Read,ACK
0.61123325,363,0xD5,0xFF,Read,ACK
0.61128125,363,0xD5,0x71,Read,ACK
0.61132925,363,0xD5,0xFF,Read,ACK
0.61137725,363,0xD5,0xEE,Read,ACK
0.611433,363,0xD5,0xFF,Read,NAK
0.611563,364,0x52,0x02,Write,ACK
0.61168325,365,0x53,0x00,Read,ACK
0.61173125,365,0x53,0x00,Read,ACK
0.611779375,365,0x53,0x4F,Read,ACK
0.61182725,365,0x53,0xC0,Read,ACK
0.6118755,365,0x53,0xBE,Read,ACK
0.611923625,365,0x53,0x00,Read,ACK
0.61197925,365,0x53,0xAB,Read,NAK
0.62076425,366,0xD4,0xA6,Write,ACK
0.6208855,367,0xD5,0x13,Read,ACK
0.6209335,367,0xD5,0x0F,Read,NAK
0.6210645,368,0xD4,0xA8,Write,ACK
0.621184875,369,0xD5,0xD1,Read,ACK
0.621232875,369,0xD5,0xFF,Read,ACK
0.621280875,369,0xD5,0x73,Read,ACK
0.621328875,369,0xD5,0xFF,Read,ACK
0.621376875,369,0xD5,0xE9,Read,ACK
0.6214325,369,0xD5,0xFF,Read,NAK
0.6215625,370,0x52,0x02,Write,ACK
0.621682875,371,0x53,0x00,Read,ACK
0.621730875,371,0x53,0x00,Read,ACK
0.621779,371,0x53,0x4F,Read,ACK
0.621827125,371,0x53,0xC0,Read,ACK
0.621875375,371,0x53,0xBE,Read,ACK
0.6219235,371,0x53,0x00,Read,ACK
0.621979125,371,0x53,0xAB,Read,NAK
0.630763375,372,0xD4,0xA6,Write,ACK
0.63088475,373,0xD5,0x13,Read,ACK
0.63093275,373,0xD5,0x0F,Read,NAK
0.63106375,374,0xD4,0xA8,Write,ACK
0.631184,375,0xD5,0xDB,Read,ACK
0.631232,375,0xD5,0xFF,Read,ACK
0.63128,375,0xD5,0x72,Read,ACK
0.631328,375,0xD5,0xFF,Read,ACK
0.631376,375,0xD5,0xE7,Read,ACK
0.63143175,375,0xD5,0xFF,Read,NAK
0.63156175,376,0x52,0x02,Write,ACK
0.631682,377,0x53,0x00,Read,ACK
0.63173,377,0x53,0x00,Read,ACK
0.631778125,377,0x53,0x4F,Read,ACK
0.631826375,377,0x53,0xC0,Read,ACK
0.63187475,377,0x53,0xBE,Read,ACK
0.631922625,377,0x53,0x00,Read,ACK
0.631978375,377,0x53,0xAB,Read,NAK
0.64076325,378,0xD4,0xA6,Write,ACK
0.640884625,379,0xD5,0x13,Read,ACK
0.640932625,379,0xD5,0x0F,Read,NAK
0.641063625,380,0xD4,0xA8,Write,ACK
0.641183875,381,0xD5,0xE5,Read,ACK
0.641231875,381,0xD5,0xFF,Read,ACK
0.641279875,381,0xD5,0x72,Read,ACK
0.641327875,381,0xD5,0xFF,Read,ACK
0.641375875,381,0xD5,0xE9,Read,ACK
0.6414315,381,0xD5,0xFF,Read,NAK
0.6415615,382,0x52,0x02,Write,ACK
0.641681875,383,0x53,0x00,Read,ACK
0.641729875,383,0x53,0x00,Read,ACK
0.641778125,383,0x53,0x4F,Read,ACK
0.64182625,383,0x53,0xC0,Read,ACK
0.641874625,383,0x53,0xBE,Read,ACK
0.6419225,383,0x53,0x00,Read,ACK
0.64197825,383,0x53,0xAB,Read,NAK
0.65076275,384,0xD4,0xA6,Write,ACK
0.650884125,385,0xD5,0x13,Read,ACK
0.650932125,385,0xD5,0x0F,Read,NAK
0.651063125,386,0xD4,0xA8,Write,ACK
0.651183375,387,0xD5,0xEC,Read,ACK
0.651231375,387,0xD5,0xFF,Read,ACK
0.651279375,387,0xD5,0x74,Read,ACK
0.651327375,387,0xD5,0xFF,Read,ACK
0.651375375,387,0xD5,0xEE,Read,ACK
0.651431125,387,0xD5,0xFF,Read,NAK
0.651561125,388,0x52,0x02,Write,ACK
0.651681375,389,0x53,0x00,Read,ACK
0.651729375,389,0x53,0x00,Read,ACK
0.651777625,389,0x53,0x4F,Read,ACK
0.65182575,389,0x53,0xC0,Read,ACK
0.651874,389,0x53,0xBE,Read,ACK
0.651922,389,0x53,0x00,Read,ACK
0.65197775,389,0x53,0xAB,Read,NAK
0.660760625,390,0xD4,0xA6,Write,ACK
0.660882,391,0xD5,0x13,Read,ACK
0.66093,391,0xD5,0x0F,Read,NAK
0.661061,392,0xD4,0xA8,Write,ACK
0.66118125,393,0xD5,0xED,Read,ACK
0.66122925,393,0xD5,0xFF,Read,ACK
0.66127725,393,0xD5,0x7A,Read,ACK
0.66132525,393,0xD5,0xFF,Read,ACK
0.66137325,393,0xD5,0xF1,Read,ACK
0.661429,393,0xD5,0xFF,Read,NAK
0.661559,394,0x52,0x02,Write,ACK
0.66167925,395,0x53,0x00,Read,ACK
0.66172725,395,0x53,0x00,Read,ACK
0.661775375,395,0x53,0x4F,Read,ACK
0.661823625,395,0x53,0xC0,Read,ACK
0.661872,395,0x53,0xBE,Read,ACK
0.661919875,395,0x53,0x00,Read,ACK
0.661975625,395,0x53,0xAB,Read,NAK
0.670762125,396,0xD4,0xA6,Write,ACK
0.6708835,397,0xD5,0x13,Read,ACK
0.6709315,397,0xD5,0x00,Read,NAK
0.6710655,398,0x52,0x02,Write,ACK
0.671185875,399,0x53,0x00,Read,ACK
0.671233875,399,0x53,0x00,Read,ACK
0.671282,399,0x53,0x4F,Read,ACK
0.671330125,399,0x53,0xC0,Read,ACK
0.671378375,399,0x53,0xBE,Read,ACK
0.6714265,399,0x53,0x00,Read,ACK
0.671482125,399,0x53,0xAB,Read,NAK
0.68076175,400,0xD4,0xA6,Write,ACK
0.680883,401,0xD5,0x13,Read,ACK
0.680931,401,0xD5,0x0F,Read,NAK
0.681062,402,0xD4,0xA8,Write,ACK
0.681182375,403,0xD5,0xE4,Read,ACK
0.681230375,403,0xD5,0xFF,Read,ACK
0.681278375,403,0xD5,0x80,Read,ACK
0.681326375,403,0xD5,0xFF,Read,ACK
0.681374375,403,0xD5,0xEF,Read,ACK
0.68143,403,0xD5,0xFF,Read,NAK
0.68156,404,0x52,0x02,Write,ACK
0.681680375,405,0x53,0x00,Read,ACK
0.681728375,405,0x53,0x00,Read,ACK
0.6817765,405,0x53,0x4F,Read,ACK
0.681824625,405,0x53,0xC0,Read,ACK
0.681873,405,0x53,0xBE,Read,ACK
0.681921,405,0x53,0x00,Read,ACK
0.681976625,405,0x53,0xAB,Read,NAK
0.690760875,406,0xD4,0xA6,Write,ACK
0.69088225,407,0xD5,0x13,Read,ACK
0.69093025,407,0xD5,0x0F,Read,NAK
0.69106125,408,0xD4,0xA8,Write,ACK
0.6911815,409,0xD5,0xD3,Read,ACK
0.6912295,409,0xD5,0xFF,Read,ACK
0.6912775,409,0xD5,0x86,Read,ACK
0.6913255,409,0xD5,0xFF,Read,ACK
0.6913735,409,0xD5,0xE6,Read,ACK
0.69142925,409,0xD5,0xFF,Read,NAK
0.691559125,410,0x52,0x02,Write,ACK
0.6916795,411,0x53,0x00,Read,ACK
0.6917275,411,0x53,0x00,Read,ACK
0.69177575,411,0x53,0x4F,Read,ACK
0.691823875,411,0x53,0xC0,Read,ACK
0.691872125,411,0x53,0xBE,Read,ACK
0.691920125,411,0x53,0x00,Read,ACK
0.691975875,411,0x53,0xAB,Read,NAK
0.70076075,412,0xD4,0xA6,Write,ACK
0.700882125,413,0xD5,0x13,Read,ACK
0.700930125,413,0xD5,0x0F,Read,NAK
0.701061125,414,0xD4,0xA8,Write,ACK
0.701181375,415,0xD5,0xC2,Read,ACK
0.701229375,415,0xD5,0xFF,Read,ACK
0.701277375,415,0xD5,0x89,Read,ACK
0.701325375,415,0xD5,0xFF,Read,ACK
0.701373375,415,0xD5,0xDF,Read,ACK
0.701429,415,0xD5,0xFF,Read,NAK
0.701559,416,0x52,0x02,Write,ACK
0.701679375,417,0x53,0x00,Read,ACK
0.701727375,417,0x53,0x00,Read,ACK
0.7017755,417,0x53,0x4F,Read,ACK
0.70182375,417,0x53,0xC0,Read,ACK
0.701872,417,0x53,0xBE,Read,ACK
0.70192,417,0x53,0x00,Read,ACK
0.70197575,417,0x53,0xAB,Read,NAK
0.71076025,418,0xD4,0xA6,Write,ACK
0.710881625,419,0xD5,0x13,Read,ACK
0.710929625,419,0xD5,0x0F,Read,NAK
0.711060625,420,0xD4,0xA8,Write,ACK
0.711180875,421,0xD5,0xBC,Read,ACK
0.711228875,421,0xD5,0xFF,Read,ACK
0.711276875,421,0xD5,0x8C,Read,ACK
0.711324875,421,0xD5,0xFF,Read,ACK
0.711372875,421,0xD5,0xDF,Read,ACK
0.711428625,421,0xD5,0xFF,Read,NAK
0.711558625,422,0x52,0x02,Write,ACK
0.711678875,423,0x53,0x00,Read,ACK
0.711726875,423,0x53,0x00,Read,ACK
0.711775125,423,0x53,0x4F,Read,ACK
0.71182325,423,0x53,0xC0,Read,ACK
0.711871625,423,0x53,0xBE,Read,ACK
0.7119195,423,0x53,0x00,Read,ACK
0.71197525,423,0x53,0xAB,Read,NAK
0.7207595,424,0xD4,0xA6,Write,ACK
0.72088075,425,0xD5,0x13,Read,ACK
0.72092875,425,0xD5,0x0F,Read,NAK
0.72105975,426,0xD4,0xA8,Write,ACK
0.721180125,427,0xD5,0xC3,Read,ACK
0.721228125,427,0xD5,0xFF,Read,ACK
0.721276125,427,0xD5,0x8C,Read,ACK
0.721324125,427,0xD5,0xFF,Read,ACK
0.721372125,427,0xD5,0xE7,Read,ACK
0.72142775,427,0xD5,0xFF,Read,NAK
0.72155775,428,0x52,0x02,Write,ACK
0.721678125,429,0x53,0x00,Read,ACK
0.721726125,429,0x53,0x00,Read,ACK
0.72177425,429,0x53,0x4F,Read,ACK
0.721822375,429,0x53,0xC0,Read,ACK
0.72187075,429,0x53,0xBE,Read,ACK
0.72191875,429,0x53,0x00,Read,ACK
0.721974375,429,0x53,0xAB,Read,NAK
0.730759375,430,0xD4,0xA6,Write,ACK
0.730880625,431,0xD5,0x13,Read,ACK
0.730928625,431,0xD5,0x0F,Read,NAK
0.731059625,432,0xD4,0xA8,Write,ACK
0.73118,433,0xD5,0xCF,Read,ACK
0.731228,433,0xD5,0xFF,Read,ACK
0.731276,433,0xD5,0x87,Read,ACK
0.731324,433,0xD5,0xFF,Read,ACK
0.731372,433,0xD5,0xED,Read,ACK
0.731427625,433,0xD5,0xFF,Read,NAK
0.731557625,434,0x52,0x02,Write,ACK
0.731678,435,0x53,0x00,Read,ACK
0.731726,435,0x53,0x00,Read,ACK
0.731774125,435,0x53,0x4F,Read,ACK
0.731822,435,0x53,0xC0,Read,ACK
0.73187025,435,0x53,0xBE,Read,ACK
0.73191825,435,0x53,0x00,Read,ACK
0.731974,435,0x53,0xAB,Read,NAK
0.740758875,436,0xD4,0xA6,Write,ACK
0.74088025,437,0xD5,0x13,Read,ACK
0.740928125,437,0xD5,0x0F,Read,NAK
0.741059125,438,0xD4,0xA8,Write,ACK
0.7411795,439,0xD5,0xD5,Read,ACK
0.7412275,439,0xD5,0xFF,Read,ACK
0.7412755,439,0xD5,0x7E,Read,ACK
0.7413235,439,0xD5,0xFF,Read,ACK
0.7413715,439,0xD5,0xED,Read,ACK
0.741427125,439,0xD5,0xFF,Read,NAK
0.741557125,440,0x52,0x02,Write,ACK
0.7416775,441,0x53,0x00,Read,ACK
0.7417255,441,0x53,0x00,Read,ACK
0.741773625,441,0x53,0x4F,Read,ACK
0.74182175,441,0x53,0xC0,Read,ACK
0.74187,441,0x53,0xBE,Read,ACK
0.741918125,441,0x53,0x00,Read,ACK
0.74197375,441,0x53,0xAB,Read,NAK
0.750758,442,0xD4,0xA6,Write,ACK
0.750879375,443,0xD5,0x13,Read,ACK
0.750927375,443,0xD5,0x0F,Read,NAK
0.751058375,444,0xD4,0xA8,Write,ACK
0.75117875,445,0xD5,0xD4,Read,ACK
0.75122675,445,0xD5,0xFF,Read,ACK
0.75127475,445,0xD5,0x75,Read,ACK
0.75132275,445,0xD5,0xFF,Read,ACK
0.75137075,445,0xD5,0xE6,Read,ACK
0.751426375,445,0xD5,0xFF,Read,NAK
0.751556375,446,0x52,0x02,Write,ACK
0.751676625,447,0x53,0x00,Read,ACK
0.751724625,447,0x53,0x00,Read,ACK
0.751772875,447,0x53,0x4F,Read,ACK
0.751821,447,0x53,0xC0,Read,ACK
0.751869375,447,0x53,0xBE,Read,ACK
0.751917375,447,0x53,0x00,Read,ACK
0.751973,447,0x53,0xAB,Read,NAK
0.760757625,448,0xD4,0xA6,Write,ACK
0.760878875,449,0xD5,0x13,Read,ACK
0.760926875,449,0xD5,0x0F,Read,NAK
0.761057875,450,0xD4,0xA8,Write,ACK
0.76117825,451,0xD5,0xD2,Read,ACK
0.76122625,451,0xD5,0xFF,Read,ACK
0.76127425,451,0xD5,0x74,Read,ACK
0.76132225,451,0xD5,0xFF,Read,ACK
0.76137025,451,0xD5,0xDF,Read,ACK
0.761425875,451,0xD5,0xFF,Read,NAK
0.761555875,452,0x52,0x02,Write,ACK
0.76167625,453,0x53,0x00,Read,ACK
0.76172425,453,0x53,0x00,Read,ACK
0.761772375,453,0x53,0x4F,Read,ACK
0.7618205,453,0x53,0xC0,Read,ACK
0.761868875,453,0x53,0xBE,Read,ACK
0.761916875,453,0x53,0x00,Read,ACK
0.7619725,453,0x53,0xAB,Read,NAK
0.7707575,454,0xD4,0xA6,Write,ACK
0.77087875,455,0xD5,0x13,Read,ACK
0.77092675,455,0xD5,0x0F,Read,NAK
0.77105775,456,0xD4,0xA8,Write,ACK
0.771178125,457,0xD5,0xD5,Read,ACK
0.771226125,457,0xD5,0xFF,Read,ACK
0.771274125,457,0xD5,0x76,Read,ACK
0.771322125,457,0xD5,0xFF,Read,ACK
0.771370125,457,0xD5,0xD9,Read,ACK
0.77142575,457,0xD5,0xFF,Read,NAK
0.77155575,458,0x52,0x02,Write,ACK
0.771676125,459,0x53,0x00,Read,ACK
0.771724125,459,0x53,0x00,Read,ACK
0.77177225,459,0x53,0x4F,Read,ACK
0.77182,459,0x53,0xC0,Read,ACK
0.771868375,459,0x53,0xBE,Read,ACK
0.771916375,459,0x53,0x00,Read,ACK
0.771972,459,0x53,0xAB,Read,NAK
0.780757,460,0xD4,0xA6,Write,ACK
0.78087825,461,0xD5,0x13,Read,ACK
0.78092625,461,0xD5,0x0F,Read,NAK
0.78105725,462,0xD4,0xA8,Write,ACK
0.781177625,463,0xD5,0xDC,Read,ACK
0.781225625,463,0xD5,0xFF,Read,ACK
0.781273625,463,0xD5,0x74,Read,ACK
0.781321625,463,0xD5,0xFF,Read,ACK
0.781369625,463,0xD5,0xD9,Read,ACK
0.78142525,463,0xD5,0xFF,Read,NAK
0.78155525,464,0x52,0x02,Write,ACK
0.781675625,465,0x53,0x00,Read,ACK
0.781723625,465,0x53,0x00,Read,ACK
0.78177175,465,0x53,0x4F,Read,ACK
0.781819875,465,0x53,0xC0,Read,ACK
0.781868125,465,0x53,0xBE,Read,ACK
0.78191625,465,0x53,0x00,Read,ACK
0.781971875,465,0x53,0xAB,Read,NAK
0.7907565,466,0xD4,0xA6,Write,ACK
0.790877875,467,0xD5,0x13,Read,ACK
0.790925875,467,0xD5,0x0F,Read,NAK
0.791056875,468,0xD4,0xA8,Write,ACK
0.791177125,469,0xD5,0xDF,Read,ACK
0.791225125,469,0xD5,0xFF,Read,ACK
0.791273125,469,0xD5,0x6E,Read,ACK
0.791321125,469,0xD5,0xFF,Read,ACK
0.791369125,469,0xD5,0xDE,Read,ACK
0.79142475,469,0xD5,0xFF,Read,NAK
0.79155475,470,0x52,0x02,Write,ACK
0.791675125,471,0x53,0x00,Read,ACK
0.791723125,471,0x53,0x00,Read,ACK
0.79177125,471,0x53,0x4F,Read,ACK
0.791819125,471,0x53,0xC0,Read,ACK
0.7918675,471,0x53,0xBE,Read,ACK
0.7919155,471,0x53,0x00,Read,ACK
0.791971125,471,0x53,0xAB,Read,NAK
0.80075575,472,0xD4,0xA6,Write,ACK
0.800877,473,0xD5,0x13,Read,ACK
0.800925,473,0xD5,0x0F,Read,NAK
0.801056,474,0xD4,0xA8,Write,ACK
0.801176375,475,0xD5,0xD9,Read,ACK
0.801224375,475,0xD5,0xFF,Read,ACK
0.801272375,475,0xD5,0x66,Read,ACK
0.801320375,475,0xD5,0xFF,Read,ACK
0.801368375,475,0xD5,0xE6,Read,ACK
0.801424,475,0xD5,0xFF,Read,NAK
0.801554,476,0x52,0x02,Write,ACK
0.801674375,477,0x53,0x00,Read,ACK
0.801722375,477,0x53,0x00,Read,ACK
0.8017705,477,0x53,0x4F,Read,ACK
0.801818625,477,0x53,0xC0,Read,ACK
0.801867,477,0x53,0xBE,Read,ACK
0.801915,477,0x53,0x00,Read,ACK
0.801970625,477,0x53,0xAB,Read,NAK
0.81075625,478,0xD4,0xA6,Write,ACK
0.8108775,479,0xD5,0x13,Read,ACK
0.8109255,479,0xD5,0x0F,Read,NAK
0.8110565,480,0xD4,0xA8,Write,ACK
0.811176875,481,0xD5,0xCF,Read,ACK
0.811224875,481,0xD5,0xFF,Read,ACK
0.811272875,481,0xD5,0x5F,Read,ACK
0.811320875,481,0xD5,0xFF,Read,ACK
0.811368875,481,0xD5,0xED,Read,ACK
0.8114245,481,0xD5,0xFF,Read,NAK
0.8115545,482,0x52,0x02,Write,ACK
0.811674875,483,0x53,0x00,Read,ACK
0.811722875,483,0x53,0x00,Read,ACK
0.811771,483,0x53,0x4F,Read,ACK
0.811819125,483,0x53,0xC0,Read,ACK
0.8118675,483,0x53,0xBE,Read,ACK
0.8119155,483,0x53,0x00,Read,ACK
0.811971125,483,0x53,0xAB,Read,NAK
0.82075575,484,0xD4,0xA6,Write,ACK
0.820877125,485,0xD5,0x13,Read,ACK
0.820925125,485,0xD5,0x0F,Read,NAK
0.821056125,486,0xD4,0xA8,Write,ACK
0.821176375,487,0xD5,0xC5,Read,ACK
0.821224375,487,0xD5,0xFF,Read,ACK
0.821272375,487,0xD5,0x5D,Read,ACK
0.821320375,487,0xD5,0xFF,Read,ACK
0.821368375,487,0xD5,0xF1,Read,ACK
0.821424,487,0xD5,0xFF,Read,NAK
0.821554,488,0x52,0x02,Write,ACK
0.821674375,489,0x53,0x00,Read,ACK
0.821722375,489,0x53,0x00,Read,ACK
0.821770625,489,0x53,0x4F,Read,ACK
0.82181875,489,0x53,0xC0,Read,ACK
0.821867125,489,0x53,0xBE,Read,ACK
0.821915,489,0x53,0x00,Read,ACK
0.821970625,489,0x53,0xAB,Read,NAK
0.830755,490,0xD4,0xA6,Write,ACK
0.83087625,491,0xD5,0x13,Read,ACK
0.83092425,491,0xD5,0x0F,Read,NAK
0.83105525,492,0xD4,0xA8,Write,ACK
0.831175625,493,0xD5,0xBD,Read,ACK
0.831223625,493,0xD5,0xFF,Read,ACK
0.831271625,493,0xD5,0x65,Read,ACK
0.831319625,493,0xD5,0xFF,Read,ACK
0.831367625,493,0xD5,0xF2,Read,ACK
0.83142325,493,0xD5,0xFF,Read,NAK
0.83155325,494,0x52,0x02,Write,ACK
0.831673625,495,0x53,0x00,Read,ACK
0.831721625,495,0x53,0x00,Read,ACK
0.831769625,495,0x53,0x4F,Read,ACK
0.8318175,495,0x53,0xC0,Read,ACK
0.83186575,495,0x53,0xBE,Read,ACK
0.831913875,495,0x53,0x00,Read,ACK
0.8319695,495,0x53,0xAB,Read,NAK
0.840754125,496,0xD4,0xA6,Write,ACK
0.8408755,497,0xD5,0x13,Read,ACK
0.8409235,497,0xD5,0x0F,Read,NAK
0.8410545,498,0xD4,0xA8,Write,ACK
0.84117475,499,0xD5,0xBB,Read,ACK
0.84122275,499,0xD5,0xFF,Read,ACK
0.84127075,499,0xD5,0x76,Read,ACK
0.84131875,499,0xD5,0xFF,Read,ACK
0.84136675,499,0xD5,0xF0,Read,ACK
0.841422375,499,0xD5,0xFF,Read,NAK
0.841552375,500,0x52,0x02,Write,ACK
0.84167275,501,0x53,0x00,Read,ACK
0.84172075,501,0x53,0x00,Read,ACK
0.841769,501,0x53,0x4F,Read,ACK
0.841817125,501,0x53,0xC0,Read,ACK
0.841865375,501,0x53,0xBE,Read,ACK
0.841913375,501,0x53,0x00,Read,ACK
0.841969125,501,0x53,0xAB,Read,NAK
0.850754,502,0xD4,0xA6,Write,ACK
0.850875375,503,0xD5,0x13,Read,ACK
0.850923375,503,0xD5,0x00,Read,NAK
0.851057375,504,0x52,0x02,Write,ACK
0.851177625,505,0x53,0x00,Read,ACK
0.851225625,505,0x53,0x00,Read,ACK
0.851273875,505,0x53,0x4F,Read,ACK
0.851322,505,0x53,0xC0,Read,ACK
0.85137025,505,0x53,0xBE,Read,ACK
0.85141825,505,0x53,0x00,Read,ACK
0.851474,505,0x53,0xAB,Read,NAK
0.8607535,506,0xD4,0xA6,Write,ACK
0.860874875,507,0xD5,0x13,Read,ACK
0.860922875,507,0xD5,0x0F,Read,NAK
0.861053875,508,0xD4,0xA8,Write,ACK
0.861174125,509,0xD5,0xC2,Read,ACK
0.861222125,509,0xD5,0xFF,Read,ACK
0.861270125,509,0xD5,0x89,Read,ACK
0.861318125,509,0xD5,0xFF,Read,ACK
0.861366125,509,0xD5,0xEC,Read,ACK
0.861421875,509,0xD5,0xFF,Read,NAK
0.861551875,510,0x52,0x02,Write,ACK
0.861672125,511,0x53,0x00,Read,ACK
0.861720125,511,0x53,0x00,Read,ACK
0.861768375,511,0x53,0x4F,Read,ACK
0.8618165,511,0x53,0xC0,Read,ACK
0.861864875,511,0x53,0xBE,Read,ACK
0.86191275,511,0x53,0x00,Read,ACK
0.8619685,511,0x53,0xAB,Read,NAK
0.870753,512,0xD4,0xA6,Write,ACK
0.870874375,513,0xD5,0x13,Read,ACK
0.870922375,513,0xD5,0x0F,Read,NAK
0.871053375,514,0xD4,0xA8,Write,ACK
0.87117375,515,0xD5,0xCF,Read,ACK
0.87122175,515,0xD5,0xFF,Read,ACK
0.87126975,515,0xD5,0x8E,Read,ACK
0.87131775,515,0xD5,0xFF,Read,ACK
0.871365625,515,0xD5,0xEA,Read,ACK
0.871421375,515,0xD5,0xFF,Read,NAK
0.871551375,516,0x52,0x02,Write,ACK
0.871671625,517,0x53,0x00,Read,ACK
0.871719625,517,0x53,0x00,Read,ACK
0.871767875,517,0x53,0x4F,Read,ACK
0.871816,517,0x53,0xC0,Read,ACK
0.87186425,517,0x53,0xBE,Read,ACK
0.871912375,517,0x53,0x00,Read,ACK
0.871968,517,0x53,0xAB,Read,NAK
0.880752875,518,0xD4,0xA6,Write,ACK
0.88087425,519,0xD5,0x13,Read,ACK
0.88092225,519,0xD5,0x0F,Read,NAK
0.88105325,520,0xD4,0xA8,Write,ACK
0.8811735,521,0xD5,0xD7,Read,ACK
0.8812215,521,0xD5,0xFF,Read,ACK
0.8812695,521,0xD5,0x81,Read,ACK
0.8813175,521,0xD5,0xFF,Read,ACK
0.8813655,521,0xD5,0xEE,Read,ACK
0.88142125,521,0xD5,0xFF,Read,NAK
0.88155125,522,0x52,0x02,Write,ACK
0.8816715,523,0x53,0x00,Read,ACK
0.8817195,523,0x53,0x00,Read,ACK
0.881767625,523,0x53,0x4F,Read,ACK
0.8818155,523,0x53,0xC0,Read,ACK
0.88186375,523,0x53,0xBE,Read,ACK
0.881911875,523,0x53,0x00,Read,ACK
0.8819675,523,0x53,0xAB,Read,NAK
0.890752125,524,0xD4,0xA6,Write,ACK
0.890873375,525,0xD5,0x13,Read,ACK
0.890921375,525,0xD5,0x0F,Read,NAK
0.891052375,526,0xD4,0xA8,Write,ACK
0.89117275,527,0xD5,0xD4,Read,ACK
0.89122075,527,0xD5,0xFF,Read,ACK
0.89126875,527,0xD5,0x71,Read,ACK
0.89131675,527,0xD5,0xFF,Read,ACK
0.89136475,527,0xD5,0xF5,Read,ACK
0.891420375,527,0xD5,0xFF,Read,NAK
0.891550375,528,0x52,0x02,Write,ACK
0.89167075,529,0x53,0x00,Read,ACK
0.89171875,529,0x53,0x00,Read,ACK
0.891766875,529,0x53,0x4F,Read,ACK
0.891815,529,0x53,0xC0,Read,ACK
0.891863375,529,0x53,0xBE,Read,ACK
0.891911375,529,0x53,0x00,Read,ACK
0.891967,529,0x53,0xAB,Read,NAK
0.900751625,530,0xD4,0xA6,Write,ACK
0.900873,531,0xD5,0x13,Read,ACK
0.900921,531,0xD5,0x0F,Read,NAK
0.901052,532,0xD4,0xA8,Write,ACK
0.90117225,533,0xD5,0xCB,Read,ACK
0.90122025,533,0xD5,0xFF,Read,ACK
0.90126825,533,0xD5,0x6C,Read,ACK
0.90131625,533,0xD5,0xFF,Read,ACK
0.90136425,533,0xD5,0xF7,Read,ACK
0.901419875,533,0xD5,0xFF,Read,NAK
0.901549875,534,0x52,0x02,Write,ACK
0.90167025,535,0x53,0x00,Read,ACK
0.90171825,535,0x53,0x00,Read,ACK
0.901766375,535,0x53,0x4F,Read,ACK
0.90181425,535,0x53,0xC0,Read,ACK
0.9018625,535,0x53,0xBE,Read,ACK
0.901910625,535,0x53,0x00,Read,ACK
0.90196625,535,0x53,0xAB,Read,NAK
0.910751125,536,0xD4,0xA6,Write,ACK
0.9108725,537,0xD5,0x13,Read,ACK
0.9109205,537,0xD5,0x0F,Read,NAK
0.9110515,538,0xD4,0xA8,Write,ACK
0.91117175,539,0xD5,0xC7,Read,ACK
0.91121975,539,0xD5,0xFF,Read,ACK
0.91126775,539,0xD5,0x6F,Read,ACK
0.91131575,539,0xD5,0xFF,Read,ACK
0.91136375,539,0xD5,0xF0,Read,ACK
0.9114195,539,0xD5,0xFF,Read,NAK
0.9115495,540,0x52,0x02,Write,ACK
0.91166975,541,0x53,0x00,Read,ACK
0.91171775,541,0x53,0x00,Read,ACK
0.911765875,541,0x53,0x4F,Read,ACK
0.911814125,541,0x53,0xC0,Read,ACK
0.911862375,541,0x53,0xBE,Read,ACK
0.9119105,541,0x53,0x00,Read,ACK
0.911966125,541,0x53,0xAB,Read,NAK
0.920750375,542,0xD4,0xA6,Write,ACK
0.920871625,543,0xD5,0x13,Read,ACK
0.920919625,543,0xD5,0x0F,Read,NAK
0.921050625,544,0xD4,0xA8,Write,ACK
0.921171,545,0xD5,0xC9,Read,ACK
0.921219,545,0xD5,0xFF,Read,ACK
0.921267,545,0xD5,0x72,Read,ACK
0.921315,545,0xD5,0xFF,Read,ACK
0.921363,545,0xD5,0xE9,Read,ACK
0.921418625,545,0xD5,0xFF,Read,NAK
0.921548625,546,0x52,0x02,Write,ACK
0.921669,547,0x53,0x00,Read,ACK
0.921717,547,0x53,0x00,Read,ACK
0.921765125,547,0x53,0x4F,Read,ACK
0.92181325,547,0x53,0xC0,Read,ACK
0.921861625,547,0x53,0xBE,Read,ACK
0.921909625,547,0x53,0x00,Read,ACK
0.92196525,547,0x53,0xAB,Read,NAK
0.930749875,548,0xD4,0xA6,Write,ACK
0.93087125,549,0xD5,0x13,Read,ACK
0.93091925,549,0xD5,0x0F,Read,NAK
0.93105025,550,0xD4,0xA8,Write,ACK
0.9311705,551,0xD5,0xCA,Read,ACK
0.9312185,551,0xD5,0xFF,Read,ACK
0.9312665,551,0xD5,0x6F,Read,ACK
0.9313145,551,0xD5,0xFF,Read,ACK
0.9313625,551,0xD5,0xE8,Read,ACK
0.931418125,551,0xD5,0xFF,Read,NAK
0.931548125,552,0x52,0x02,Write,ACK
0.9316685,553,0x53,0x00,Read,ACK
0.9317165,553,0x53,0x00,Read,ACK
0.931764625,553,0x53,0x4F,Read,ACK
0.9318125,553,0x53,0xC0,Read,ACK
0.931860875,553,0x53,0xBE,Read,ACK
0.931908875,553,0x53,0x00,Read,ACK
0.9319645,553,0x53,0xAB,Read,NAK
0.94074975,554,0xD4,0xA6,Write,ACK
0.940871125,555,0xD5,0x13,Read,ACK
0.940919125,555,0xD5,0x0F,Read,NAK
0.94105,556,0xD4,0xA8,Write,ACK
0.941170375,557,0xD5,0xC7,Read,ACK
0.941218375,557,0xD5,0xFF,Read,ACK
0.941266375,557,0xD5,0x6B,Read,ACK
0.941314375,557,0xD5,0xFF,Read,ACK
0.941362375,557,0xD5,0xED,Read,ACK
0.941418,557,0xD5,0xFF,Read,NAK
0.941548,558,0x52,0x02,Write,ACK
0.941668375,559,0x53,0x00,Read,ACK
0.941716375,559,0x53,0x00,Read,ACK
0.9417645,559,0x53,0x4F,Read,ACK
0.941812375,559,0x53,0xC0,Read,ACK
0.941860625,559,0x53,0xBE,Read,ACK
0.94190875,559,0x53,0x00,Read,ACK
0.941964375,559,0x53,0xAB,Read,NAK
0.95074825,560,0xD4,0xA6,Write,ACK
0.950869625,561,0xD5,0x13,Read,ACK
0.950917625,561,0xD5,0x0F,Read,NAK
0.951048625,562,0xD4,0xA8,Write,ACK
0.951168875,563,0xD5,0xC7,Read,ACK
0.951216875,563,0xD5,0xFF,Read,ACK
0.951264875,563,0xD5,0x6A,Read,ACK
0.951312875,563,0xD5,0xFF,Read,ACK
0.951360875,563,0xD5,0xF0,Read,ACK
0.951416625,563,0xD5,0xFF,Read,NAK
0.951546625,564,0x52,0x02,Write,ACK
0.951666875,565,0x53,0x00,Read,ACK
0.951714875,565,0x53,0x00,Read,ACK
0.951763,565,0x53,0x4F,Read,ACK
0.95181125,565,0x53,0xC0,Read,ACK
0.9518595,565,0x53,0xBE,Read,ACK
0.9519075,565,0x53,0x00,Read,ACK
0.95196325,565,0x53,0xAB,Read,NAK
0.960747125,566,0xD4,0xA6,Write,ACK
0.9608685,567,0xD5,0x13,Read,ACK
0.9609165,567,0xD5,0x0F,Read,NAK
0.9610475,568,0xD4,0xA8,Write,ACK
0.96116775,569,0xD5,0xD0,Read,ACK
0.96121575,569,0xD5,0xFF,Read,ACK
0.96126375,569,0xD5,0x6E,Read,ACK
0.96131175,569,0xD5,0xFF,Read,ACK
0.96135975,569,0xD5,0xED,Read,ACK
0.961415375,569,0xD5,0xFF,Read,NAK
0.961545375,570,0x52,0x02,Write,ACK
0.96166575,571,0x53,0x00,Read,ACK
0.96171375,571,0x53,0x00,Read,ACK
0.961761875,571,0x53,0x4F,Read,ACK
0.961810125,571,0x53,0xC0,Read,ACK
0.961858375,571,0x53,0xBE,Read,ACK
0.961906375,571,0x53,0x00,Read,ACK
0.961962125,571,0x53,0xAB,Read,NAK
0.970748,572,0xD4,0xA6,Write,ACK
0.970869375,573,0xD5,0x13,Read,ACK
0.970917375,573,0xD5,0x0F,Read,NAK
0.97104825,574,0xD4,0xA8,Write,ACK
0.971168625,575,0xD5,0xDA,Read,ACK
0.971216625,575,0xD5,0xFF,Read,ACK
0.971264625,575,0xD5,0x76,Read,ACK
0.971312625,575,0xD5,0xFF,Read,ACK
0.971360625,575,0xD5,0xE9,Read,ACK
0.97141625,575,0xD5,0xFF,Read,NAK
0.97154625,576,0x52,0x02,Write,ACK
0.971666625,577,0x53,0x00,Read,ACK
0.971714625,577,0x53,0x00,Read,ACK
0.97176275,577,0x53,0x4F,Read,ACK
0.971811,577,0x53,0xC0,Read,ACK
0.97185925,577,0x53,0xBE,Read,ACK
0.97190725,577,0x53,0x00,Read,ACK
0.971962875,577,0x53,0xAB,Read,NAK
0.980746875,578,0xD4,0xA6,Write,ACK
0.980868125,579,0xD5,0x13,Read,ACK
0.980916125,579,0xD5,0x0F,Read,NAK
0.981047125,580,0xD4,0xA8,Write,ACK
0.9811675,581,0xD5,0xDB,Read,ACK
0.9812155,581,0xD5,0xFF,Read,ACK
0.9812635,581,0xD5,0x7D,Read,ACK
0.9813115,581,0xD5,0xFF,Read,ACK
0.9813595,581,0xD5,0xEA,Read,ACK
0.981415125,581,0xD5,0xFF,Read,NAK
0.981545125,582,0x52,0x02,Write,ACK
0.9816655,583,0x53,0x00,Read,ACK
0.9817135,583,0x53,0x00,Read,ACK
0.981761625,583,0x53,0x4F,Read,ACK
0.98180975,583,0x53,0xC0,Read,ACK
0.981858125,583,0x53,0xBE,Read,ACK
0.981906125,583,0x53,0x00,Read,ACK
0.98196175,583,0x53,0xAB,Read,NAK
0.990747,584,0xD4,0xA6,Write,ACK
0.990868375,585,0xD5,0x13,Read,ACK
0.990916375,585,0xD5,0x0F,Read,NAK
0.991047375,586,0xD4,0xA8,Write,ACK
0.99116775,587,0xD5,0xD3,Read,ACK
0.99121575,587,0xD5,0xFF,Read,ACK
0.99126375,587,0xD5,0x7E,Read,ACK
0.991311625,587,0xD5,0xFF,Read,ACK
0.991359625,587,0xD5,0xF0,Read,ACK
0.991415375,587,0xD5,0xFF,Read,NAK
0.991545375,588,0x52,0x02,Write,ACK
0.991665625,589,0x53,0x00,Read,ACK
0.991713625,589,0x53,0x00,Read,ACK
0.991761875,589,0x53,0x4F,Read,ACK
0.99181,589,0x53,0xC0,Read,ACK
0.99185825,589,0x53,0xBE,Read,ACK
0.991906375,589,0x53,0x00,Read,ACK
0.991962,589,0x53,0xAB,Read,NAK
1.000745875,590,0xD4,0xA6,Write,ACK
1.00086725,591,0xD5,0x13,Read,ACK
1.00091525,591,0xD5,0x0F,Read,NAK
1.00104625,592,0xD4,0xA8,Write,ACK
1.0011665,593,0xD5,0xCB,Read,ACK
1.0012145,593,0xD5,0xFF,Read,ACK
1.0012625,593,0xD5,0x7A,Read,ACK
1.0013105,593,0xD5,0xFF,Read,ACK
1.0013585,593,0xD5,0xF3,Read,ACK
1.00141425,593,0xD5,0xFF,Read,NAK
1.00154425,594,0x52,0x02,Write,ACK
1.0016645,595,0x53,0x00,Read,ACK
1.0017125,595,0x53,0x00,Read,ACK
1.001760625,595,0x53,0x4F,Read,ACK
1.0018085,595,0x53,0xC0,Read,ACK
1.00185675,595,0x53,0xBE,Read,ACK
1.001904875,595,0x53,0x00,Read,ACK
1.0019605,595,0x53,0xAB,Read,NAK
1.010746375,596,0xD4,0xA6,Write,ACK
1.01086775,597,0xD5,0x13,Read,ACK
1.01091575,597,0xD5,0x0F,Read,NAK
1.01104675,598,0xD4,0xA8,Write,ACK
1.011167125,599,0xD5,0xCB,Read,ACK
1.011215125,599,0xD5,0xFF,Read,ACK
1.011263125,599,0xD5,0x78,Read,ACK
1.011311125,599,0xD5,0xFF,Read,ACK
1.011359125,599,0xD5,0xF2,Read,ACK
1.01141475,599,0xD5,0xFF,Read,NAK
1.01154475,600,0x52,0x02,Write,ACK
1.011665,601,0x53,0x00,Read,ACK
1.011713,601,0x53,0x00,Read,ACK
1.01176125,601,0x53,0x4F,Read,ACK
1.011809375,601,0x53,0xC0,Read,ACK
1.01185775,601,0x53,0xBE,Read,ACK
1.01190575,601,0x53,0x00,Read,ACK
1.011961375,601,0x53,0xAB,Read,NAK
1.02074525,602,0xD4,0xA6,Write,ACK
1.020866625,603,0xD5,0x13,Read,ACK
1.020914625,603,0xD5,0x0F,Read,NAK
1.021045625,604,0xD4,0xA8,Write,ACK
1.021166,605,0xD5,0xCE,Read,ACK
1.021214,605,0xD5,0xFF,Read,ACK
1.021262,605,0xD5,0x76,Read,ACK
1.021309875,605,0xD5,0xFF,Read,ACK
1.021357875,605,0xD5,0xF0,Read,ACK
1.021413625,605,0xD5,0xFF,Read,NAK
1.021543625,606,0x52,0x02,Write,ACK
1.021663875,607,0x53,0x00,Read,ACK
1.021711875,607,0x53,0x00,Read,ACK
1.02176,607,0x53,0x4F,Read,ACK
1.02180825,607,0x53,0xC0,Read,ACK
1.0218565,607,0x53,0xBE,Read,ACK
1.021904625,607,0x53,0x00,Read,ACK
1.02196025,607,0x53,0xAB,Read,NAK
1.030744875,608,0xD4,0xA6,Write,ACK
1.030866125,609,0xD5,0x13,Read,ACK
1.030914125,609,0xD5,0x00,Read,NAK
1.031048125,610,0x52,0x02,Write,ACK
1.0311685,611,0x53,0x00,Read,ACK
1.0312165,611,0x53,0x00,Read,ACK
1.031264875,611,0x53,0x4F,Read,ACK
1.03131275,611,0x53,0xC0,Read,ACK
1.031361125,611,0x53,0xBE,Read,ACK
1.031409125,611,0x53,0x00,Read,ACK
1.03146475,611,0x53,0xAB,Read,NAK
1.040743625,612,0xD4,0xA6,Write,ACK
1.040865,613,0xD5,0x13,Read,ACK
1.040913,613,0xD5,0x0F,Read,NAK
1.041044,614,0xD4,0xA8,Write,ACK
1.041164375,615,0xD5,0xD1,Read,ACK
1.041212375,615,0xD5,0xFF,Read,ACK
1.041260375,615,0xD5,0x74,Read,ACK
1.041308375,615,0xD5,0xFF,Read,ACK
1.041356375,615,0xD5,0xEE,Read,ACK
1.041412,615,0xD5,0xFF,Read,NAK
1.041542,616,0x52,0x02,Write,ACK
1.04166225,617,0x53,0x00,Read,ACK
1.04171025,617,0x53,0x00,Read,ACK
1.0417585,617,0x53,0x4F,Read,ACK
1.041806625,617,0x53,0xC0,Read,ACK
1.041854875,617,0x53,0xBE,Read,ACK
1.041903,617,0x53,0x00,Read,ACK
1.041958625,617,0x53,0xAB,Read,NAK
1.050743875,618,0xD4,0xA6,Write,ACK
1.05086525,619,0xD5,0x13,Read,ACK
1.05091325,619,0xD5,0x0F,Read,NAK
1.05104425,620,0xD4,0xA8,Write,ACK
1.0511645,621,0xD5,0xD6,Read,ACK
1.0512125,621,0xD5,0xFF,Read,ACK
1.0512605,621,0xD5,0x72,Read,ACK
1.0513085,621,0xD5,0xFF,Read,ACK
1.0513565,621,0xD5,0xEA,Read,ACK
1.051412125,621,0xD5,0xFF,Read,NAK
1.051542125,622,0x52,0x02,Write,ACK
1.0516625,623,0x53,0x00,Read,ACK
1.0517105,623,0x53,0x00,Read,ACK
1.051758625,623,0x53,0x4F,Read,ACK
1.0518065,623,0x53,0xC0,Read,ACK
1.051854875,623,0x53,0xBE,Read,ACK
1.051902875,623,0x53,0x00,Read,ACK
1.0519585,623,0x53,0xAB,Read,NAK
1.060743375,624,0xD4,0xA6,Write,ACK
1.06086475,625,0xD5,0x13,Read,ACK
1.06091275,625,0xD5,0x0F,Read,NAK
1.06104375,626,0xD4,0xA8,Write,ACK
1.06116475,627,0xD5,0xDC,Read,ACK
1.06121275,627,0xD5,0xFF,Read,ACK
1.06126075,627,0xD5,0x72,Read,ACK
1.06130875,627,0xD5,0xFF,Read,ACK
1.06135675,627,0xD5,0xE4,Read,ACK
1.061412375,627,0xD5,0xFF,Read,NAK
1.061542375,628,0x52,0x02,Write,ACK
1.06166275,629,0x53,0x00,Read,ACK
1.06171075,629,0x53,0x00,Read,ACK
1.061758875,629,0x53,0x4F,Read,ACK
1.061807,629,0x53,0xC0,Read,ACK
1.06185525,629,0x53,0xBE,Read,ACK
1.061903375,629,0x53,0x00,Read,ACK
1.061959,629,0x53,0xAB,Read,NAK
1.07074325,630,0xD4,0xA6,Write,ACK
1.070864625,631,0xD5,0x13,Read,ACK
1.070912625,631,0xD5,0x0F,Read,NAK
1.071043625,632,0xD4,0xA8,Write,ACK
1.071163875,633,0xD5,0xDD,Read,ACK
1.071211875,633,0xD5,0xFF,Read,ACK
1.071259875,633,0xD5,0x71,Read,ACK
1.071307875,633,0xD5,0xFF,Read,ACK
1.071355875,633,0xD5,0xDF,Read,ACK
1.071411625,633,0xD5,0xFF,Read,NAK
1.071541625,634,0x52,0x02,Write,ACK
1.071661875,635,0x53,0x00,Read,ACK
1.071709875,635,0x53,0x00,Read,ACK
1.071758125,635,0x53,0x4F,Read,ACK
1.07180625,635,0x53,0xC0,Read,ACK
1.0718545,635,0x53,0xBE,Read,ACK
1.0719025,635,0x53,0x00,Read,ACK
1.07195825,635,0x53,0xAB,Read,NAK
1.080742125,636,0xD4,0xA6,Write,ACK
1.0808635,637,0xD5,0x13,Read,ACK
1.0809115,637,0xD5,0x0F,Read,NAK
1.0810425,638,0xD4,0xA8,Write,ACK
1.08116275,639,0xD5,0xD8,Read,ACK
1.08121075,639,0xD5,0xFF,Read,ACK
1.08125875,639,0xD5,0x6C,Read,ACK
1.08130675,639,0xD5,0xFF,Read,ACK
1.08135475,639,0xD5,0xDD,Read,ACK
1.081410375,639,0xD5,0xFF,Read,NAK
1.081540375,640,0x52,0x02,Write,ACK
1.08166075,641,0x53,0x00,Read,ACK
1.08170875,641,0x53,0x00,Read,ACK
1.081756875,641,0x53,0x4F,Read,ACK
1.081805125,641,0x53,0xC0,Read,ACK
1.081853375,641,0x53,0xBE,Read,ACK
1.081901375,641,0x53,0x00,Read,ACK
1.081957125,641,0x53,0xAB,Read,NAK
1.090741625,642,0xD4,0xA6,Write,ACK
1.090863,643,0xD5,0x13,Read,ACK
1.090911,643,0xD5,0x0F,Read,NAK
1.091042,644,0xD4,0xA8,Write,ACK
1.09116225,645,0xD5,0xD3,Read,ACK
1.09121025,645,0xD5,0xFF,Read,ACK
1.09125825,645,0xD5,0x67,Read,ACK
1.09130625,645,0xD5,0xFF,Read,ACK
1.09135425,645,0xD5,0xE2,Read,ACK
1.09141,645,0xD5,0xFF,Read,NAK
1.09154,646,0x52,0x02,Write,ACK
1.09166025,647,0x53,0x00,Read,ACK
1.09170825,647,0x53,0x00,Read,ACK
1.0917565,647,0x53,0x4F,Read,ACK
1.091804625,647,0x53,0xC0,Read,ACK
1.091852875,647,0x53,0xBE,Read,ACK
1.091900875,647,0x53,0x00,Read,ACK
1.091956625,647,0x53,0xAB,Read,NAK
1.100741125,648,0xD4,0xA6,Write,ACK
1.1008625,649,0xD5,0x13,Read,ACK
1.1009105,649,0xD5,0x0F,Read,NAK
1.1010415,650,0xD4,0xA8,Write,ACK
1.101161875,651,0xD5,0xCF,Read,ACK
1.101209875,651,0xD5,0xFF,Read,ACK
1.101257875,651,0xD5,0x65,Read,ACK
1.101305875,651,0xD5,0xFF,Read,ACK
1.101353875,651,0xD5,0xEA,Read,ACK
1.1014095,651,0xD5,0xFF,Read,NAK
1.1015395,652,0x52,0x02,Write,ACK
1.10165975,653,0x53,0x00,Read,ACK
1.10170775,653,0x53,0x00,Read,ACK
1.101756,653,0x53,0x4F,Read,ACK
1.101804125,653,0x53,0xC0,Read,ACK
1.1018525,653,0x53,0xBE,Read,ACK
1.1019005,653,0x53,0x00,Read,ACK
1.101956125,653,0x53,0xAB,Read,NAK
1.11074075,654,0xD4,0xA6,Write,ACK
1.110862,655,0xD5,0x13,Read,ACK
1.11091,655,0xD5,0x0F,Read,NAK
1.111041,656,0xD4,0xA8,Write,ACK
1.111161375,657,0xD5,0xCA,Read,ACK
1.111209375,657,0xD5,0xFF,Read,ACK
1.111257375,657,0xD5,0x65,Read,ACK
1.111305375,657,0xD5,0xFF,Read,ACK
1.111353375,657,0xD5,0xF1,Read,ACK
1.111409,657,0xD5,0xFF,Read,NAK
1.111539,658,0x52,0x02,Write,ACK
1.111659375,659,0x53,0x00,Read,ACK
1.111707375,659,0x53,0x00,Read,ACK
1.1117555,659,0x53,0x4F,Read,ACK
1.111803375,659,0x53,0xC0,Read,ACK
1.111851625,659,0x53,0xBE,Read,ACK
1.111899625,659,0x53,0x00,Read,ACK
1.111955375,659,0x53,0xAB,Read,NAK
1.12074025,660,0xD4,0xA6,Write,ACK
1.120861625,661,0xD5,0x13,Read,ACK
1.120909625,661,0xD5,0x0F,Read,NAK
1.1210405,662,0xD4,0xA8,Write,ACK
1.121160875,663,0xD5,0xC4,Read,ACK
1.121208875,663,0xD5,0xFF,Read,ACK
1.121256875,663,0xD5,0x67,Read,ACK
1.121304875,663,0xD5,0xFF,Read,ACK
1.121352875,663,0xD5,0xF3,Read,ACK
1.1214085,663,0xD5,0xFF,Read,NAK
1.1215385,664,0x52,0x02,Write,ACK
1.121658875,665,0x53,0x00,Read,ACK
1.121706875,665,0x53,0x00,Read,ACK
1.121755,665,0x53,0x4F,Read,ACK
1.121803125,665,0x53,0xC0,Read,ACK
1.121851375,665,0x53,0xBE,Read,ACK
1.1218995,665,0x53,0x00,Read,ACK
1.121955125,665,0x53,0xAB,Read,NAK
1.130739375,666,0xD4,0xA6,Write,ACK
1.13086075,667,0xD5,0x13,Read,ACK
1.13090875,667,0xD5,0x0F,Read,NAK
1.13103975,668,0xD4,0xA8,Write,ACK
1.131160125,669,0xD5,0xC0,Read,ACK
1.131208125,669,0xD5,0xFF,Read,ACK
1.131256125,669,0xD5,0x6B,Read,ACK
1.131304125,669,0xD5,0xFF,Read,ACK
1.131352125,669,0xD5,0xF0,Read,ACK
1.13140775,669,0xD5,0xFF,Read,NAK
1.13153775,670,0x52,0x02,Write,ACK
1.131658,671,0x53,0x00,Read,ACK
1.131706,671,0x53,0x00,Read,ACK
1.131754375,671,0x53,0x4F,Read,ACK
1.131802375,671,0x53,0xC0,Read,ACK
1.131850625,671,0x53,0xBE,Read,ACK
1.13189875,671,0x53,0x00,Read,ACK
1.131954375,671,0x53,0xAB,Read,NAK
1.14073925,672,0xD4,0xA6,Write,ACK
1.140860625,673,0xD5,0x13,Read,ACK
1.140908625,673,0xD5,0x0F,Read,NAK
1.141039625,674,0xD4,0xA8,Write,ACK
1.14116,675,0xD5,0xBF,Read,ACK
1.141207875,675,0xD5,0xFF,Read,ACK
1.141256,675,0xD5,0x73,Read,ACK
1.141303875,675,0xD5,0xFF,Read,ACK
1.141351875,675,0xD5,0xEC,Read,ACK
1.141407625,675,0xD5,0xFF,Read,NAK
1.141537625,676,0x52,0x02,Write,ACK
1.141657875,677,0x53,0x00,Read,ACK
1.141705875,677,0x53,0x00,Read,ACK
1.141754,677,0x53,0x4F,Read,ACK
1.141801875,677,0x53,0xC0,Read,ACK
1.14185025,677,0x53,0xBE,Read,ACK
1.14189825,677,0x53,0x00,Read,ACK
1.141953875,677,0x53,0xAB,Read,NAK
1.150739125,678,0xD4,0xA6,Write,ACK
1.1508605,679,0xD5,0x13,Read,ACK
1.1509085,679,0xD5,0x0F,Read,NAK
1.1510395,680,0xD4,0xA8,Write,ACK
1.15115975,681,0xD5,0xBF,Read,ACK
1.15120775,681,0xD5,0xFF,Read,ACK
1.15125575,681,0xD5,0x7A,Read,ACK
1.15130375,681,0xD5,0xFF,Read,ACK
1.15135175,681,0xD5,0xE9,Read,ACK
1.1514075,681,0xD5,0xFF,Read,NAK
1.1515375,682,0x52,0x02,Write,ACK
1.15165775,683,0x53,0x00,Read,ACK
1.15170575,683,0x53,0x00,Read,ACK
1.151754,683,0x53,0x4F,Read,ACK
1.151802125,683,0x53,0xC0,Read,ACK
1.151850375,683,0x53,0xBE,Read,ACK
1.151898375,683,0x53,0x00,Read,ACK
1.151954125,683,0x53,0xAB,Read,NAK
1.160739375,684,0xD4,0xA6,Write,ACK
1.160860625,685,0xD5,0x13,Read,ACK
1.160908625,685,0xD5,0x0F,Read,NAK
1.161039625,686,0xD4,0xA8,Write,ACK
1.16116,687,0xD5,0xC1,Read,ACK
1.161208,687,0xD5,0xFF,Read,ACK
1.161256,687,0xD5,0x7B,Read,ACK
1.161304,687,0xD5,0xFF,Read,ACK
1.161352,687,0xD5,0xE8,Read,ACK
1.161407625,687,0xD5,0xFF,Read,NAK
1.161537625,688,0x52,0x02,Write,ACK
1.161658,689,0x53,0x00,Read,ACK
1.161706,689,0x53,0x00,Read,ACK
1.16175425,689,0x53,0x4F,Read,ACK
1.16180225,689,0x53,0xC0,Read,ACK
1.161850625,689,0x53,0xBE,Read,ACK
1.161898625,689,0x53,0x00,Read,ACK
1.16195425,689,0x53,0xAB,Read,NAK
1.170738875,690,0xD4,0xA6,Write,ACK
1.17086025,691,0xD5,0x13,Read,ACK
1.17090825,691,0xD5,0x0F,Read,NAK
1.17103925,692,0xD4,0xA8,Write,ACK
1.1711595,693,0xD5,0xC8,Read,ACK
1.1712075,693,0xD5,0xFF,Read,ACK
1.1712555,693,0xD5,0x78,Read,ACK
1.1713035,693,0xD5,0xFF,Read,ACK
1.1713515,693,0xD5,0xEA,Read,ACK
1.171407125,693,0xD5,0xFF,Read,NAK
1.171537125,694,0x52,0x02,Write,ACK
1.1716575,695,0x53,0x00,Read,ACK
1.1717055,695,0x53,0x00,Read,ACK
1.17175375,695,0x53,0x4F,Read,ACK
1.171801875,695,0x53,0xC0,Read,ACK
1.171850125,695,0x53,0xBE,Read,ACK
1.171898125,695,0x53,0x00,Read,ACK
1.171953875,695,0x53,0xAB,Read,NAK
1.180738375,696,0xD4,0xA6,Write,ACK
1.18085975,697,0xD5,0x12,Read,ACK
1.18090775,697,0xD5,0x0F,Read,NAK
1.18103875,698,0xD4,0xA8,Write,ACK
1.181159,699,0xD5,0xD6,Read,ACK
1.181207,699,0xD5,0xFF,Read,ACK
1.181255,699,0xD5,0x77,Read,ACK
1.181303,699,0xD5,0xFF,Read,ACK
1.181351,699,0xD5,0xED,Read,ACK
1.18140675,699,0xD5,0xFF,Read,NAK
1.18153675,700,0x52,0x02,Write,ACK
1.181657,701,0x53,0x00,Read,ACK
1.181705,701,0x53,0x00,Read,ACK
1.181753125,701,0x53,0x4F,Read,ACK
1.181801,701,0x53,0xC0,Read,ACK
1.18184925,701,0x53,0xBE,Read,ACK
1.181897375,701,0x53,0x00,Read,ACK
1.181953,701,0x53,0xAB,Read,NAK
1.190737625,702,0xD4,0xA6,Write,ACK
1.190858875,703,0xD5,0x12,Read,ACK
1.190906875,703,0xD5,0x0F,Read,NAK
1.191037875,704,0xD4,0xA8,Write,ACK
1.19115825,705,0xD5,0xE3,Read,ACK
1.19120625,705,0xD5,0xFF,Read,ACK
1.19125425,705,0xD5,0x79,Read,ACK
1.19130225,705,0xD5,0xFF,Read,ACK
1.19135025,705,0xD5,0xEB,Read,ACK
1.191405875,705,0xD5,0xFF,Read,NAK
1.191535875,706,0x52,0x02,Write,ACK
1.19165625,707,0x53,0x00,Read,ACK
1.19170425,707,0x53,0x00,Read,ACK
1.191752375,707,0x53,0x4F,Read,ACK
1.19180025,707,0x53,0xC0,Read,ACK
1.1918485,707,0x53,0xBE,Read,ACK
1.1918965,707,0x53,0x00,Read,ACK
1.19195225,707,0x53,0xAB,Read,NAK
1.20073675,708,0xD4,0xA6,Write,ACK
1.200858125,709,0xD5,0x12,Read,ACK
1.200906125,709,0xD5,0x0F,Read,NAK
1.201037125,710,0xD4,0xA8,Write,ACK
1.201157375,711,0xD5,0xE4,Read,ACK
1.201205375,711,0xD5,0xFF,Read,ACK
1.201253375,711,0xD5,0x79,Read,ACK
1.201301375,711,0xD5,0xFF,Read,ACK
1.201349375,711,0xD5,0xE9,Read,ACK
1.201405125,711,0xD5,0xFF,Read,NAK
1.201535125,712,0x52,0x02,Write,ACK
1.201655375,713,0x53,0x00,Read,ACK
1.201703375,713,0x53,0x00,Read,ACK
1.2017515,713,0x53,0x4F,Read,ACK
1.20179975,713,0x53,0xC0,Read,ACK
1.201848125,713,0x53,0xBE,Read,ACK
1.201896125,713,0x53,0x00,Read,ACK
1.20195175,713,0x53,0xAB,Read,NAK
1.210736375,714,0xD4,0xA6,Write,ACK
1.210857625,715,0xD5,0x12,Read,ACK
1.210905625,715,0xD5,0x00,Read,NAK
1.211039625,716,0x52,0x02,Write,ACK
1.21116,717,0x53,0x00,Read,ACK
1.211208,717,0x53,0x00,Read,ACK
1.211256125,717,0x53,0x4F,Read,ACK
1.21130425,717,0x53,0xC0,Read,ACK
1.2113525,717,0x53,0xBE,Read,ACK
1.211400625,717,0x53,0x00,Read,ACK
1.21145625,717,0x53,0xAB,Read,NAK
1.220735875,718,0xD4,0xA6,Write,ACK
1.220857125,719,0xD5,0x12,Read,ACK
1.220905125,719,0xD5,0x0F,Read,NAK
1.221036125,720,0xD4,0xA8,Write,ACK
1.2211565,721,0xD5,0xD8,Read,ACK
1.2212045,721,0xD5,0xFF,Read,ACK
1.2212525,721,0xD5,0x75,Read,ACK
1.2213005,721,0xD5,0xFF,Read,ACK
1.2213485,721,0xD5,0xEB,Read,ACK
1.221404125,721,0xD5,0xFF,Read,NAK
1.221534125,722,0x52,0x02,Write,ACK
1.2216545,723,0x53,0x00,Read,ACK
1.2217025,723,0x53,0x00,Read,ACK
1.221750625,723,0x53,0x4F,Read,ACK
1.2217985,723,0x53,0xC0,Read,ACK
1.22184675,723,0x53,0xBE,Read,ACK
1.22189475,723,0x53,0x00,Read,ACK
1.2219505,723,0x53,0xAB,Read,NAK
1.230735,724,0xD4,0xA6,Write,ACK
1.230856375,725,0xD5,0x12,Read,ACK
1.230904375,725,0xD5,0x0F,Read,NAK
1.231035375,726,0xD4,0xA8,Write,ACK
1.231155625,727,0xD5,0xC7,Read,ACK
1.231203625,727,0xD5,0xFF,Read,ACK
1.231251625,727,0xD5,0x71,Read,ACK
1.231299625,727,0xD5,0xFF,Read,ACK
1.231347625,727,0xD5,0xF0,Read,ACK
1.231403375,727,0xD5,0xFF,Read,NAK
1.231533375,728,0x52,0x02,Write,ACK
1.231653625,729,0x53,0x00,Read,ACK
1.231701625,729,0x53,0x00,Read,ACK
1.231749875,729,0x53,0x4F,Read,ACK
1.231798,729,0x53,0xC0,Read,ACK
1.23184625,729,0x53,0xBE,Read,ACK
1.231894375,729,0x53,0x00,Read,ACK
1.23195,729,0x53,0xAB,Read,NAK
1.24073525,730,0xD4,0xA6,Write,ACK
1.240856625,731,0xD5,0x12,Read,ACK
1.240904625,731,0xD5,0x0F,Read,NAK
1.2410355,732,0xD4,0xA8,Write,ACK
1.241155875,733,0xD5,0xBD,Read,ACK
1.241203875,733,0xD5,0xFF,Read,ACK
1.241251875,733,0xD5,0x73,Read,ACK
1.241299875,733,0xD5,0xFF,Read,ACK
1.241347875,733,0xD5,0xF3,Read,ACK
1.2414035,733,0xD5,0xFF,Read,NAK
1.2415335,734,0x52,0x02,Write,ACK
1.241653875,735,0x53,0x00,Read,ACK
1.241701875,735,0x53,0x00,Read,ACK
1.24175,735,0x53,0x4F,Read,ACK
1.241797875,735,0x53,0xC0,Read,ACK
1.241846125,735,0x53,0xBE,Read,ACK
1.241894125,735,0x53,0x00,Read,ACK
1.241949875,735,0x53,0xAB,Read,NAK
1.250734375,736,0xD4,0xA6,Write,ACK
1.25085575,737,0xD5,0x12,Read,ACK
1.25090375,737,0xD5,0x0F,Read,NAK
1.25103475,738,0xD4,0xA8,Write,ACK
1.251155125,739,0xD5,0xBA,Read,ACK
1.251203125,739,0xD5,0xFF,Read,ACK
1.251251125,739,0xD5,0x7A,Read,ACK
1.251299125,739,0xD5,0xFF,Read,ACK
1.251347125,739,0xD5,0xF1,Read,ACK
1.25140275,739,0xD5,0xFF,Read,NAK
1.25153275,740,0x52,0x02,Write,ACK
1.251653,741,0x53,0x00,Read,ACK
1.251701,741,0x53,0x00,Read,ACK
1.251749125,741,0x53,0x4F,Read,ACK
1.251797,741,0x53,0xC0,Read,ACK
1.2518455,741,0x53,0xBE,Read,ACK
1.251893375,741,0x53,0x00,Read,ACK
1.251949,741,0x53,0xAB,Read,NAK
1.260734,742,0xD4,0xA6,Write,ACK
1.26085525,743,0xD5,0x12,Read,ACK
1.26090325,743,0xD5,0x0F,Read,NAK
1.26103425,744,0xD4,0xA8,Write,ACK
1.261154625,745,0xD5,0xBE,Read,ACK
1.261202625,745,0xD5,0xFF,Read,ACK
1.261250625,745,0xD5,0x7F,Read,ACK
1.261298625,745,0xD5,0xFF,Read,ACK
1.261346625,745,0xD5,0xEA,Read,ACK
1.26140225,745,0xD5,0xFF,Read,NAK
1.26153225,746,0x52,0x02,Write,ACK
1.261652625,747,0x53,0x00,Read,ACK
1.261700625,747,0x53,0x00,Read,ACK
1.26174875,747,0x53,0x4F,Read,ACK
1.261796625,747,0x53,0xC0,Read,ACK
1.261844875,747,0x53,0xBE,Read,ACK
1.261892875,747,0x53,0x00,Read,ACK
1.261948625,747,0x53,0xAB,Read,NAK
1.270733875,748,0xD4,0xA6,Write,ACK
1.270855125,749,0xD5,0x12,Read,ACK
1.270903125,749,0xD5,0x0F,Read,NAK
1.271034125,750,0xD4,0xA8,Write,ACK
1.2711545,751,0xD5,0xC6,Read,ACK
1.2712025,751,0xD5,0xFF,Read,ACK
1.2712505,751,0xD5,0x7F,Read,ACK
1.2712985,751,0xD5,0xFF,Read,ACK
1.2713465,751,0xD5,0xE3,Read,ACK
1.271402125,751,0xD5,0xFF,Read,NAK
1.271532125,752,0x52,0x02,Write,ACK
1.2716525,753,0x53,0x00,Read,ACK
1.2717005,753,0x53,0x00,Read,ACK
1.271748625,753,0x53,0x4F,Read,ACK
1.27179675,753,0x53,0xC0,Read,ACK
1.271845125,753,0x53,0xBE,Read,ACK
1.271893125,753,0x53,0x00,Read,ACK
1.27194875,753,0x53,0xAB,Read,NAK
1.280733375,754,0xD4,0xA6,Write,ACK
1.280854625,755,0xD5,0x12,Read,ACK
1.280902625,755,0xD5,0x0F,Read,NAK
1.281033625,756,0xD4,0xA8,Write,ACK
1.281154,757,0xD5,0xCF,Read,ACK
1.281202,757,0xD5,0xFF,Read,ACK
1.28125,757,0xD5,0x7E,Read,ACK
1.281298,757,0xD5,0xFF,Read,ACK
1.281346,757,0xD5,0xDC,Read,ACK
1.281401625,757,0xD5,0xFF,Read,NAK
1.281531625,758,0x52,0x02,Write,ACK
1.281652,759,0x53,0x00,Read,ACK
1.2817,759,0x53,0x00,Read,ACK
1.281748125,759,0x53,0x4F,Read,ACK
1.28179625,759,0x53,0xC0,Read,ACK
1.281844625,759,0x53,0xBE,Read,ACK
1.281892625,759,0x53,0x00,Read,ACK
1.28194825,759,0x53,0xAB,Read,NAK
1.290732875,760,0xD4,0xA6,Write,ACK
1.29085425,761,0xD5,0x12,Read,ACK
1.29090225,761,0xD5,0x0F,Read,NAK
1.29103325,762,0xD4,0xA8,Write,ACK
1.2911535,763,0xD5,0xD7,Read,ACK
1.2912015,763,0xD5,0xFF,Read,ACK
1.2912495,763,0xD5,0x80,Read,ACK
1.2912975,763,0xD5,0xFF,Read,ACK
1.2913455,763,0xD5,0xD6,Read,ACK
1.291401125,763,0xD5,0xFF,Read,NAK
1.291531125,764,0x52,0x02,Write,ACK
1.2916515,765,0x53,0x00,Read,ACK
1.2916995,765,0x53,0x00,Read,ACK
1.291747625,765,0x53,0x4F,Read,ACK
1.291795875,765,0x53,0xC0,Read,ACK
1.291844125,765,0x53,0xBE,Read,ACK
1.291892125,765,0x53,0x00,Read,ACK
1.291947875,765,0x53,0xAB,Read,NAK
1.300732375,766,0xD4,0xA6,Write,ACK
1.30085375,767,0xD5,0x12,Read,ACK
1.30090175,767,0xD5,0x0F,Read,NAK
1.30103275,768,0xD4,0xA8,Write,ACK
1.301153,769,0xD5,0xDF,Read,ACK
1.301201,769,0xD5,0xFF,Read,ACK
1.301249,769,0xD5,0x82,Read,ACK
1.301297,769,0xD5,0xFF,Read,ACK
1.301345,769,0xD5,0xD5,Read,ACK
1.30140075,769,0xD5,0xFF,Read,NAK
1.30153075,770,0x52,0x02,Write,ACK
1.301651,771,0x53,0x00,Read,ACK
1.301699,771,0x53,0x00,Read,ACK
1.301747125,771,0x53,0x4F,Read,ACK
1.301795375,771,0x53,0xC0,Read,ACK
1.301843625,771,0x53,0xBE,Read,ACK
1.301891625,771,0x53,0x00,Read,ACK
1.301947375,771,0x53,0xAB,Read,NAK
1.310731875,772,0xD4,0xA6,Write,ACK
1.31085325,773,0xD5,0x12,Read,ACK
1.31090125,773,0xD5,0x0F,Read,NAK
1.31103225,774,0xD4,0xA8,Write,ACK
1.311152625,775,0xD5,0xE8,Read,ACK
1.311200625,775,0xD5,0xFF,Read,ACK
1.311248625,775,0xD5,0x80,Read,ACK
1.311296625,775,0xD5,0xFF,Read,ACK
1.311344625,775,0xD5,0xDC,Read,ACK
1.31140025,775,0xD5,0xFF,Read,NAK
1.31153025,776,0x52,0x02,Write,ACK
1.3116505,777,0x53,0x00,Read,ACK
1.3116985,777,0x53,0x00,Read,ACK
1.311746625,777,0x53,0x4F,Read,ACK
1.3117945,777,0x53,0xC0,Read,ACK
1.31184275,777,0x53,0xBE,Read,ACK
1.311890875,777,0x53,0x00,Read,ACK
1.3119465,777,0x53,0xAB,Read,NAK
1.3207315,778,0xD4,0xA6,Write,ACK
1.32085275,779,0xD5,0x12,Read,ACK
1.32090075,779,0xD5,0x0F,Read,NAK
1.32103175,780,0xD4,0xA8,Write,ACK
1.321152125,781,0xD5,0xED,Read,ACK
1.321200125,781,0xD5,0xFF,Read,ACK
1.321248125,781,0xD5,0x7A,Read,ACK
1.321296125,781,0xD5,0xFF,Read,ACK
1.321344125,781,0xD5,0xE8,Read,ACK
1.32139975,781,0xD5,0xFF,Read,NAK
1.32152975,782,0x52,0x02,Write,ACK
1.321650125,783,0x53,0x00,Read,ACK
1.321698125,783,0x53,0x00,Read,ACK
1.32174625,783,0x53,0x4F,Read,ACK
1.321794125,783,0x53,0xC0,Read,ACK
1.321842375,783,0x53,0xBE,Read,ACK
1.321890375,783,0x53,0x00,Read,ACK
1.321946125,783,0x53,0xAB,Read,NAK
1.330730375,784,0xD4,0xA6,Write,ACK
1.330851625,785,0xD5,0x12,Read,ACK
1.330899625,785,0xD5,0x0F,Read,NAK
1.331030625,786,0xD4,0xA8,Write,ACK
1.331151,787,0xD5,0xEB,Read,ACK
1.331199,787,0xD5,0xFF,Read,ACK
1.331247,787,0xD5,0x78,Read,ACK
1.331295,787,0xD5,0xFF,Read,ACK
1.331343,787,0xD5,0xF1,Read,ACK
1.331398625,787,0xD5,0xFF,Read,NAK
1.331528625,788,0x52,0x02,Write,ACK
1.331649,789,0x53,0x00,Read,ACK
1.331697,789,0x53,0x00,Read,ACK
1.331745125,789,0x53,0x4F,Read,ACK
1.331792875,789,0x53,0xC0,Read,ACK
1.331841125,789,0x53,0xBE,Read,ACK
1.33188925,789,0x53,0x00,Read,ACK
1.331944875,789,0x53,0xAB,Read,NAK
1.3407305,790,0xD4,0xA6,Write,ACK
1.340851875,791,0xD5,0x12,Read,ACK
1.340899875,791,0xD5,0x0F,Read,NAK
1.341030875,792,0xD4,0xA8,Write,ACK
1.341151125,793,0xD5,0xE5,Read,ACK
1.341199125,793,0xD5,0xFF,Read,ACK
1.341247125,793,0xD5,0x77,Read,ACK
1.341295125,793,0xD5,0xFF,Read,ACK
1.341343125,793,0xD5,0xF2,Read,ACK
1.34139875,793,0xD5,0xFF,Read,NAK
1.34152875,794,0x52,0x02,Write,ACK
1.341649125,795,0x53,0x00,Read,ACK
1.341697125,795,0x53,0x00,Read,ACK
1.34174525,795,0x53,0x4F,Read,ACK
1.341793125,795,0x53,0xC0,Read,ACK
1.341841375,795,0x53,0xBE,Read,ACK
1.3418895,795,0x53,0x00,Read,ACK
1.341945125,795,0x53,0xAB,Read,NAK
1.35072975,796,0xD4,0xA6,Write,ACK
1.350851,797,0xD5,0x12,Read,ACK
1.350899,797,0xD5,0x0F,Read,NAK
1.35103,798,0xD4,0xA8,Write,ACK
1.351150375,799,0xD5,0xDF,Read,ACK
1.351198375,799,0xD5,0xFF,Read,ACK
1.351246375,799,0xD5,0x75,Read,ACK
1.351294375,799,0xD5,0xFF,Read,ACK
1.351342375,799,0xD5,0xED,Read,ACK
1.351398,799,0xD5,0xFF,Read,NAK
1.351528,800,0x52,0x02,Write,ACK
1.351648375,801,0x53,0x00,Read,ACK
1.351696375,801,0x53,0x00,Read,ACK
1.3517445,801,0x53,0x4F,Read,ACK
1.351792375,801,0x53,0xC0,Read,ACK
1.351840625,801,0x53,0xBE,Read,ACK
1.351888625,801,0x53,0x00,Read,ACK
1.351944375,801,0x53,0xAB,Read,NAK
1.360729625,802,0xD4,0xA6,Write,ACK
1.360850875,803,0xD5,0x12,Read,ACK
1.360898875,803,0xD5,0x0F,Read,NAK
1.361029875,804,0xD4,0xA8,Write,ACK
1.36115025,805,0xD5,0xDD,Read,ACK
1.36119825,805,0xD5,0xFF,Read,ACK
1.36124625,805,0xD5,0x70,Read,ACK
1.36129425,805,0xD5,0xFF,Read,ACK
1.36134225,805,0xD5,0xE8,Read,ACK
1.361397875,805,0xD5,0xFF,Read,NAK
1.361527875,806,0x52,0x02,Write,ACK
1.36164825,807,0x53,0x00,Read,ACK
1.36169625,807,0x53,0x00,Read,ACK
1.361744375,807,0x53,0x4F,Read,ACK
1.3617925,807,0x53,0xC0,Read,ACK
1.361840875,807,0x53,0xBE,Read,ACK
1.361888875,807,0x53,0x00,Read,ACK
1.3619445,807,0x53,0xAB,Read,NAK
1.370728125,808,0xD4,0xA6,Write,ACK
1.370849375,809,0xD5,0x12,Read,ACK
1.370897375,809,0xD5,0x0F,Read,NAK
1.371028375,810,0xD4,0xA8,Write,ACK
1.37114875,811,0xD5,0xDC,Read,ACK
1.37119675,811,0xD5,0xFF,Read,ACK
1.37124475,811,0xD5,0x71,Read,ACK
1.37129275,811,0xD5,0xFF,Read,ACK
1.37134075,811,0xD5,0xE9,Read,ACK
1.371396375,811,0xD5,0xFF,Read,NAK
1.371526375,812,0x52,0x02,Write,ACK
1.37164675,813,0x53,0x00,Read,ACK
1.37169475,813,0x53,0x00,Read,ACK
1.371742875,813,0x53,0x4F,Read,ACK
1.371791,813,0x53,0xC0,Read,ACK
1.37183925,813,0x53,0xBE,Read,ACK
1.371887375,813,0x53,0x00,Read,ACK
1.371943,813,0x53,0xAB,Read,NAK
1.380728625,814,0xD4,0xA6,Write,ACK
1.38085,815,0xD5,0x12,Read,ACK
1.380898,815,0xD5,0x0F,Read,NAK
1.381029,816,0xD4,0xA8,Write,ACK
1.38114925,817,0xD5,0xDC,Read,ACK
1.38119725,817,0xD5,0xFF,Read,ACK
1.38124525,817,0xD5,0x79,Read,ACK
1.38129325,817,0xD5,0xFF,Read,ACK
1.38134125,817,0xD5,0xEB,Read,ACK
1.381396875,817,0xD5,0xFF,Read,NAK
1.381526875,818,0x52,0x02,Write,ACK
1.38164725,819,0x53,0x00,Read,ACK
1.38169525,819,0x53,0x00,Read,ACK
1.381743375,819,0x53,0x4F,Read,ACK
1.38179125,819,0x53,0xC0,Read,ACK
1.3818395,819,0x53,0xBE,Read,ACK
1.381887625,819,0x53,0x00,Read,ACK
1.38194325,819,0x53,0xAB,Read,NAK
1.3907285,820,0xD4,0xA6,Write,ACK
1.390849875,821,0xD5,0x12,Read,ACK
1.39089775,821,0xD5,0x0F,Read,NAK
1.39102875,822,0xD4,0xA8,Write,ACK
1.391149125,823,0xD5,0xDD,Read,ACK
1.391197125,823,0xD5,0xFF,Read,ACK
1.391245125,823,0xD5,0x83,Read,ACK
1.391293125,823,0xD5,0xFF,Read,ACK
1.391341125,823,0xD5,0xE9,Read,ACK
1.39139675,823,0xD5,0xFF,Read,NAK
1.39152675,824,0x52,0x02,Write,ACK
1.391647125,825,0x53,0x00,Read,ACK
1.391695125,825,0x53,0x00,Read,ACK
1.39174325,825,0x53,0x4F,Read,ACK
1.391791375,825,0x53,0xC0,Read,ACK
1.39183975,825,0x53,0xBD,Read,ACK
1.39188775,825,0x53,0x80,Read,ACK
1.391943375,825,0x53,0xAB,Read,NAK
1.400728,826,0xD4,0xA6,Write,ACK
1.400849375,827,0xD5,0x12,Read,ACK
1.400897375,827,0xD5,0x00,Read,NAK
1.401031375,828,0x52,0x02,Write,ACK
1.401151625,829,0x53,0x00,Read,ACK
1.401199625,829,0x53,0x00,Read,ACK
1.40124775,829,0x53,0x4F,Read,ACK
1.401295625,829,0x53,0xC0,Read,ACK
1.401344,829,0x53,0xBD,Read,ACK
1.401392,829,0x53,0x80,Read,ACK
1.401447625,829,0x53,0xAB,Read,NAK
1.410725875,830,0xD4,0xA6,Write,ACK
1.41084725,831,0xD5,0x12,Read,ACK
1.41089525,831,0xD5,0x0F,Read,NAK
1.41102625,832,0xD4,0xA8,Write,ACK
1.4111465,833,0xD5,0xDF,Read,ACK
1.4111945,833,0xD5,0xFF,Read,ACK
1.4112425,833,0xD5,0x8A,Read,ACK
1.4112905,833,0xD5,0xFF,Read,ACK
1.4113385,833,0xD5,0xE3,Read,ACK
1.411394125,833,0xD5,0xFF,Read,NAK
1.411524125,834,0x52,0x02,Write,ACK
1.4116445,835,0x53,0x00,Read,ACK
1.4116925,835,0x53,0x00,Read,ACK
1.411740625,835,0x53,0x4F,Read,ACK
1.4117885,835,0x53,0xC0,Read,ACK
1.41183675,835,0x53,0xBD,Read,ACK
1.411884875,835,0x53,0x80,Read,ACK
1.4119405,835,0x53,0xAB,Read,NAK
1.42072675,836,0xD4,0xA6,Write,ACK
1.420848,837,0xD5,0x12,Read,ACK
1.420896,837,0xD5,0x0F,Read,NAK
1.421027,838,0xD4,0xA8,Write,ACK
1.421147375,839,0xD5,0xDF,Read,ACK
1.421195375,839,0xD5,0xFF,Read,ACK
1.421243375,839,0xD5,0x8F,Read,ACK
1.421291375,839,0xD5,0xFF,Read,ACK
1.421339375,839,0xD5,0xE0,Read,ACK
1.421395,839,0xD5,0xFF,Read,NAK
1.421525,840,0x52,0x02,Write,ACK
1.421645375,841,0x53,0x00,Read,ACK
1.421693375,841,0x53,0x00,Read,ACK
1.4217415,841,0x53,0x4F,Read,ACK
1.421789625,841,0x53,0xC0,Read,ACK
1.421838,841,0x53,0xBD,Read,ACK
1.421886,841,0x53,0x80,Read,ACK
1.421941625,841,0x53,0xAB,Read,NAK
1.43072625,842,0xD4,0xA6,Write,ACK
1.430847625,843,0xD5,0x12,Read,ACK
1.430895625,843,0xD5,0x0F,Read,NAK
1.431026625,844,0xD4,0xA8,Write,ACK
1.431146875,845,0xD5,0xDD,Read,ACK
1.431194875,845,0xD5,0xFF,Read,ACK
1.431242875,845,0xD5,0x93,Read,ACK
1.431290875,845,0xD5,0xFF,Read,ACK
1.431338875,845,0xD5,0xE3,Read,ACK
1.4313945,845,0xD5,0xFF,Read,NAK
1.4315245,846,0x52,0x02,Write,ACK
1.431644875,847,0x53,0x00,Read,ACK
1.431692875,847,0x53,0x00,Read,ACK
1.431741125,847,0x53,0x4F,Read,ACK
1.43178925,847,0x53,0xC0,Read,ACK
1.431837625,847,0x53,0xBD,Read,ACK
1.4318855,847,0x53,0x80,Read,ACK
1.43194125,847,0x53,0xAB,Read,NAK
1.44072475,848,0xD4,0xA6,Write,ACK
1.440846125,849,0xD5,0x12,Read,ACK
1.440894125,849,0xD5,0x0F,Read,NAK
1.441025125,850,0xD4,0xA8,Write,ACK
1.441145375,851,0xD5,0xD7,Read,ACK
1.441193375,851,0xD5,0xFF,Read,ACK
1.441241375,851,0xD5,0x90,Read,ACK
1.441289375,851,0xD5,0xFF,Read,ACK
1.441337375,851,0xD5,0xEA,Read,ACK
1.441393125,851,0xD5,0xFF,Read,NAK
1.441523125,852,0x52,0x02,Write,ACK
1.441643375,853,0x53,0x00,Read,ACK
1.441691375,853,0x53,0x00,Read,ACK
1.4417395,853,0x53,0x4F,Read,ACK
1.441787375,853,0x53,0xC0,Read,ACK
1.441835625,853,0x53,0xBD,Read,ACK
1.44188375,853,0x53,0x80,Read,ACK
1.441939375,853,0x53,0xAB,Read,NAK
1.450725,854,0xD4,0xA6,Write,ACK
1.45084625,855,0xD5,0x12,Read,ACK
1.45089425,855,0xD5,0x0F,Read,NAK
1.45102525,856,0xD4,0xA8,Write,ACK
1.451145625,857,0xD5,0xD3,Read,ACK
1.451193625,857,0xD5,0xFF,Read,ACK
1.451241625,857,0xD5,0x84,Read,ACK
1.451289625,857,0xD5,0xFF,Read,ACK
1.451337625,857,0xD5,0xF0,Read,ACK
1.45139325,857,0xD5,0xFF,Read,NAK
1.45152325,858,0x52,0x02,Write,ACK
1.451643625,859,0x53,0x00,Read,ACK
1.451691625,859,0x53,0x00,Read,ACK
1.45173975,859,0x53,0x4F,Read,ACK
1.451787625,859,0x53,0xC0,Read,ACK
1.451835875,859,0x53,0xBD,Read,ACK
1.451883875,859,0x53,0x80,Read,ACK
1.451939625,859,0x53,0xAB,Read,NAK
1.460724125,860,0xD4,0xA6,Write,ACK
1.4608455,861,0xD5,0x12,Read,ACK
1.4608935,861,0xD5,0x0F,Read,NAK
1.4610245,862,0xD4,0xA8,Write,ACK
1.461144875,863,0xD5,0xD3,Read,ACK
1.461192875,863,0xD5,0xFF,Read,ACK
1.461240875,863,0xD5,0x75,Read,ACK
1.461288875,863,0xD5,0xFF,Read,ACK
1.46133675,863,0xD5,0xF3,Read,ACK
1.4613925,863,0xD5,0xFF,Read,NAK
1.4615225,864,0x52,0x02,Write,ACK
1.46164275,865,0x53,0x00,Read,ACK
1.46169075,865,0x53,0x00,Read,ACK
1.461739,865,0x53,0x4F,Read,ACK
1.461787125,865,0x53,0xC0,Read,ACK
1.461835375,865,0x53,0xBD,Read,ACK
1.4618835,865,0x53,0x80,Read,ACK
1.461939125,865,0x53,0xAB,Read,NAK
1.470724,866,0xD4,0xA6,Write,ACK
1.470845375,867,0xD5,0x12,Read,ACK
1.470893375,867,0xD5,0x0F,Read,NAK
1.471024375,868,0xD4,0xA8,Write,ACK
1.471144625,869,0xD5,0xD6,Read,ACK
1.471192625,869,0xD5,0xFF,Read,ACK
1.471240625,869,0xD5,0x6B,Read,ACK
1.471288625,869,0xD5,0xFF,Read,ACK
1.471336625,869,0xD5,0xF8,Read,ACK
1.471392375,869,0xD5,0xFF,Read,NAK
1.471522375,870,0x52,0x02,Write,ACK
1.471642625,871,0x53,0x00,Read,ACK
1.471690625,871,0x53,0x00,Read,ACK
1.47173875,871,0x53,0x4F,Read,ACK
1.471786625,871,0x53,0xC0,Read,ACK
1.471835,871,0x53,0xBD,Read,ACK
1.471883,871,0x53,0x80,Read,ACK
1.471938625,871,0x53,0xAB,Read,NAK
1.480723625,872,0xD4,0xA6,Write,ACK
1.480844875,873,0xD5,0x12,Read,ACK
1.480892875,873,0xD5,0x0F,Read,NAK
1.481023875,874,0xD4,0xA8,Write,ACK
1.48114425,875,0xD5,0xD7,Read,ACK
1.48119225,875,0xD5,0xFF,Read,ACK
1.48124025,875,0xD5,0x69,Read,ACK
1.48128825,875,0xD5,0xFF,Read,ACK
1.48133625,875,0xD5,0xFE,Read,ACK
1.481391875,875,0xD5,0xFF,Read,NAK
1.481521875,876,0x52,0x02,Write,ACK
1.48164225,877,0x53,0x00,Read,ACK
1.48169025,877,0x53,0x00,Read,ACK
1.481738375,877,0x53,0x4F,Read,ACK
1.4817865,877,0x53,0xC0,Read,ACK
1.48183475,877,0x53,0xBD,Read,ACK
1.481882875,877,0x53,0x80,Read,ACK
1.4819385,877,0x53,0xAB,Read,NAK
1.490722375,878,0xD4,0xA6,Write,ACK
1.49084375,879,0xD5,0x12,Read,ACK
1.49089175,879,0xD5,0x0F,Read,NAK
1.49102275,880,0xD4,0xA8,Write,ACK
1.491143125,881,0xD5,0xD2,Read,ACK
1.491191125,881,0xD5,0xFF,Read,ACK
1.491239125,881,0xD5,0x69,Read,ACK
1.491287125,881,0xD5,0xFF,Read,ACK
1.491335125,881,0xD5,0x02,Read,ACK
1.49139075,881,0xD5,0x00,Read,NAK
1.49152075,882,0x52,0x02,Write,ACK
1.491641,883,0x53,0x00,Read,ACK
1.491689,883,0x53,0x00,Read,ACK
1.49173725,883,0x53,0x4F,Read,ACK
1.491785375,883,0x53,0xC0,Read,ACK
1.491833625,883,0x53,0xBD,Read,ACK
1.49188175,883,0x53,0x80,Read,ACK
1.491937375,883,0x53,0xAB,Read,NAK
1.500723,884,0xD4,0xA6,Write,ACK
1.50084425,885,0xD5,0x12,Read,ACK
1.50089225,885,0xD5,0x0F,Read,NAK
1.50102325,886,0xD4,0xA8,Write,ACK
1.501143625,887,0xD5,0xCB,Read,ACK
1.501191625,887,0xD5,0xFF,Read,ACK
1.501239625,887,0xD5,0x65,Read,ACK
1.501287625,887,0xD5,0xFF,Read,ACK
1.501335625,887,0xD5,0x03,Read,ACK
1.50139125,887,0xD5,0x00,Read,NAK
1.50152125,888,0x52,0x02,Write,ACK
1.501641625,889,0x53,0x00,Read,ACK
1.501689625,889,0x53,0x00,Read,ACK
1.50173775,889,0x53,0x4F,Read,ACK
1.501785875,889,0x53,0xC0,Read,ACK
1.50183425,889,0x53,0xBD,Read,ACK
1.50188225,889,0x53,0x80,Read,ACK
1.501937875,889,0x53,0xAB,Read,NAK
1.5107225,890,0xD4,0xA6,Write,ACK
1.51084375,891,0xD5,0x12,Read,ACK
1.51089175,891,0xD5,0x0F,Read,NAK
1.51102275,892,0xD4,0xA8,Write,ACK
1.511143125,893,0xD5,0xC5,Read,ACK
1.511191125,893,0xD5,0xFF,Read,ACK
1.511239125,893,0xD5,0x60,Read,ACK
1.511287125,893,0xD5,0xFF,Read,ACK
1.511335125,893,0xD5,0x03,Read,ACK
1.51139075,893,0xD5,0x00,Read,NAK
1.51152075,894,0x52,0x02,Write,ACK
1.511641125,895,0x53,0x00,Read,ACK
1.511689125,895,0x53,0x00,Read,ACK
1.51173725,895,0x53,0x4F,Read,ACK
1.511785125,895,0x53,0xC0,Read,ACK
1.511833375,895,0x53,0xBD,Read,ACK
1.511881375,895,0x53,0x80,Read,ACK
1.511937125,895,0x53,0xAB,Read,NAK
1.520722,896,0xD4,0xA6,Write,ACK
1.520843375,897,0xD5,0x12,Read,ACK
1.520891375,897,0xD5,0x0F,Read,NAK
1.521022375,898,0xD4,0xA8,Write,ACK
1.521142625,899,0xD5,0xC0,Read,ACK
1.521190625,899,0xD5,0xFF,Read,ACK
1.521238625,899,0xD5,0x5E,Read,ACK
1.521286625,899,0xD5,0xFF,Read,ACK
1.521334625,899,0xD5,0x00,Read,ACK
1.521390375,899,0xD5,0x00,Read,NAK
1.52152025,900,0x52,0x02,Write,ACK
1.521640625,901,0x53,0x00,Read,ACK
1.521688625,901,0x53,0x00,Read,ACK
1.52173675,901,0x53,0x4F,Read,ACK
1.521784625,901,0x53,0xC0,Read,ACK
1.521832875,901,0x53,0xBD,Read,ACK
1.521881,901,0x53,0x80,Read,ACK
1.521936625,901,0x53,0xAB,Read,NAK
1.53070625,902,0xD4,0xA6,Write,ACK
1.5308275,903,0xD5,0x12,Read,ACK
1.5308755,903,0xD5,0x0F,Read,NAK
1.5310065,904,0xD4,0xA8,Write,ACK
1.531126875,905,0xD5,0xBD,Read,ACK
1.531174875,905,0xD5,0xFF,Read,ACK
1.531222875,905,0xD5,0x64,Read,ACK
1.531270875,905,0xD5,0xFF,Read,ACK
1.531318875,905,0xD5,0xF8,Read,ACK
1.5313745,905,0xD5,0xFF,Read,NAK
1.5315045,906,0x52,0x02,Write,ACK
1.531624875,907,0x53,0x00,Read,ACK
1.531672875,907,0x53,0x00,Read,ACK
1.531721125,907,0x53,0x4F,Read,ACK
1.531769125,907,0x53,0xC0,Read,ACK
1.531817375,907,0x53,0xBD,Read,ACK
1.5318655,907,0x53,0x80,Read,ACK
1.531921125,907,0x53,0xAB,Read,NAK
1.54072,908,0xD4,0xA6,Write,ACK
1.540841375,909,0xD5,0x12,Read,ACK
1.540889375,909,0xD5,0x0F,Read,NAK
1.541020375,910,0xD4,0xA8,Write,ACK
1.54114075,911,0xD5,0xBF,Read,ACK
1.54118875,911,0xD5,0xFF,Read,ACK
1.54123675,911,0xD5,0x71,Read,ACK
1.54128475,911,0xD5,0xFF,Read,ACK
1.54133275,911,0xD5,0xEA,Read,ACK
1.541388375,911,0xD5,0xFF,Read,NAK
1.541518375,912,0x52,0x02,Write,ACK
1.54163875,913,0x53,0x00,Read,ACK
1.541686625,913,0x53,0x00,Read,ACK
1.541734875,913,0x53,0x4F,Read,ACK
1.541783,913,0x53,0xC0,Read,ACK
1.54183125,913,0x53,0xBD,Read,ACK
1.541879375,913,0x53,0x80,Read,ACK
1.541935,913,0x53,0xAB,Read,NAK
1.55071925,914,0xD4,0xA6,Write,ACK
1.550840625,915,0xD5,0x12,Read,ACK
1.550888625,915,0xD5,0x0F,Read,NAK
1.551019625,916,0xD4,0xA8,Write,ACK
1.551139875,917,0xD5,0xCA,Read,ACK
1.551187875,917,0xD5,0xFF,Read,ACK
1.551235875,917,0xD5,0x83,Read,ACK
1.551283875,917,0xD5,0xFF,Read,ACK
1.551331875,917,0xD5,0xDC,Read,ACK
1.5513875,917,0xD5,0xFF,Read,NAK
1.5515175,918,0x52,0x02,Write,ACK
1.551637875,919,0x53,0x00,Read,ACK
1.551685875,919,0x53,0x00,Read,ACK
1.551734,919,0x53,0x4F,Read,ACK
1.551781875,919,0x53,0xC0,Read,ACK
1.551830125,919,0x53,0xBD,Read,ACK
1.55187825,919,0x53,0x80,Read,ACK
1.551933875,919,0x53,0xAB,Read,NAK
1.56071875,920,0xD4,0xA6,Write,ACK
1.560840125,921,0xD5,0x12,Read,ACK
1.560888125,921,0xD5,0x0F,Read,NAK
1.561019125,922,0xD4,0xA8,Write,ACK
1.561139375,923,0xD5,0xD8,Read,ACK
1.561187375,923,0xD5,0xFF,Read,ACK
1.561235375,923,0xD5,0x91,Read,ACK
1.561283375,923,0xD5,0xFF,Read,ACK
1.561331375,923,0xD5,0xD4,Read,ACK
1.561387125,923,0xD5,0xFF,Read,NAK
1.561517125,924,0x52,0x02,Write,ACK
1.561637375,925,0x53,0x00,Read,ACK
1.561685375,925,0x53,0x00,Read,ACK
1.5617335,925,0x53,0x4F,Read,ACK
1.56178175,925,0x53,0xC0,Read,ACK
1.56183,925,0x53,0xBD,Read,ACK
1.561878,925,0x53,0x80,Read,ACK
1.56193375,925,0x53,0xAB,Read,NAK
1.570718,926,0xD4,0xA6,Write,ACK
1.57083925,927,0xD5,0x12,Read,ACK
1.57088725,927,0xD5,0x0F,Read,NAK
1.57101825,928,0xD4,0xA8,Write,ACK
1.571138625,929,0xD5,0xE0,Read,ACK
1.571186625,929,0xD5,0xFF,Read,ACK
1.571234625,929,0xD5,0x96,Read,ACK
1.571282625,929,0xD5,0xFF,Read,ACK
1.571330625,929,0xD5,0xD5,Read,ACK
1.57138625,929,0xD5,0xFF,Read,NAK
1.57151625,930,0x52,0x02,Write,ACK
1.571636625,931,0x53,0x00,Read,ACK
1.571684625,931,0x53,0x00,Read,ACK
1.57173275,931,0x53,0x4F,Read,ACK
1.571780625,931,0x53,0xC0,Read,ACK
1.571828875,931,0x53,0xBD,Read,ACK
1.571876875,931,0x53,0x80,Read,ACK
1.571932625,931,0x53,0xAB,Read,NAK
1.5807185,932,0xD4,0xA6,Write,ACK
1.580839875,933,0xD5,0x12,Read,ACK
1.580887875,933,0xD5,0x00,Read,NAK
1.581021875,934,0x52,0x02,Write,ACK
1.581142125,935,0x53,0x00,Read,ACK
1.581190125,935,0x53,0x00,Read,ACK
1.58123825,935,0x53,0x4F,Read,ACK
1.581286125,935,0x53,0xC0,Read,ACK
1.581334375,935,0x53,0xBD,Read,ACK
1.5813825,935,0x53,0x80,Read,ACK
1.581438125,935,0x53,0xAB,Read,NAK
1.59071875,936,0xD4,0xA6,Write,ACK
1.59084,937,0xD5,0x12,Read,ACK
1.590888,937,0xD5,0x0F,Read,NAK
1.591019,938,0xD4,0xA8,Write,ACK
1.591139375,939,0xD5,0xDF,Read,ACK
1.591187375,939,0xD5,0xFF,Read,ACK
1.591235375,939,0xD5,0x94,Read,ACK
1.591283375,939,0xD5,0xFF,Read,ACK
1.591331375,939,0xD5,0xDA,Read,ACK
1.591387,939,0xD5,0xFF,Read,NAK
1.591517,940,0x52,0x02,Write,ACK
1.591637375,941,0x53,0x00,Read,ACK
1.591685375,941,0x53,0x00,Read,ACK
1.591733375,941,0x53,0x4F,Read,ACK
1.591781375,941,0x53,0xC0,Read,ACK
1.591829625,941,0x53,0xBD,Read,ACK
1.591877625,941,0x53,0x80,Read,ACK
1.59193325,941,0x53,0xAB,Read,NAK
1.6007185,942,0xD4,0xA6,Write,ACK
1.600839875,943,0xD5,0x12,Read,ACK
1.600887875,943,0xD5,0x0F,Read,NAK
1.601018875,944,0xD4,0xA8,Write,ACK
1.60113925,945,0xD5,0xD7,Read,ACK
1.60118725,945,0xD5,0xFF,Read,ACK
1.60123525,945,0xD5,0x8E,Read,ACK
1.60128325,945,0xD5,0xFF,Read,ACK
1.60133125,945,0xD5,0xDC,Read,ACK
1.601386875,945,0xD5,0xFF,Read,NAK
1.601516875,946,0x52,0x02,Write,ACK
1.60163725,947,0x53,0x00,Read,ACK
1.601685125,947,0x53,0x00,Read,ACK
1.601733375,947,0x53,0x4F,Read,ACK
1.6017815,947,0x53,0xC0,Read,ACK
1.601829875,947,0x53,0xBD,Read,ACK
1.601877875,947,0x53,0x80,Read,ACK
1.6019335,947,0x53,0xAB,Read,NAK
1.610718125,948,0xD4,0xA6,Write,ACK
1.610839375,949,0xD5,0x12,Read,ACK
1.610887375,949,0xD5,0x0F,Read,NAK
1.611018375,950,0xD4,0xA8,Write,ACK
1.61113875,951,0xD5,0xD2,Read,ACK
1.61118675,951,0xD5,0xFF,Read,ACK
1.61123475,951,0xD5,0x86,Read,ACK
1.61128275,951,0xD5,0xFF,Read,ACK
1.61133075,951,0xD5,0xDC,Read,ACK
1.611386375,951,0xD5,0xFF,Read,NAK
1.611516375,952,0x52,0x02,Write,ACK
1.61163675,953,0x53,0x00,Read,ACK
1.61168475,953,0x53,0x00,Read,ACK
1.611732875,953,0x53,0x4F,Read,ACK
1.611781,953,0x53,0xC0,Read,ACK
1.611829375,953,0x53,0xBD,Read,ACK
1.611877375,953,0x53,0x80,Read,ACK
1.611933,953,0x53,0xAB,Read,NAK
1.620717625,954,0xD4,0xA6,Write,ACK
1.620839,955,0xD5,0x12,Read,ACK
1.620887,955,0xD5,0x0F,Read,NAK
1.621017875,956,0xD4,0xA8,Write,ACK
1.62113825,957,0xD5,0xD4,Read,ACK
1.62118625,957,0xD5,0xFF,Read,ACK
1.62123425,957,0xD5,0x7F,Read,ACK
1.62128225,957,0xD5,0xFF,Read,ACK
1.62133025,957,0xD5,0xDD,Read,ACK
1.621385875,957,0xD5,0xFF,Read,NAK
1.621515875,958,0x52,0x02,Write,ACK
1.62163625,959,0x53,0x00,Read,ACK
1.62168425,959,0x53,0x00,Read,ACK
1.621732375,959,0x53,0x4F,Read,ACK
1.621780625,959,0x53,0xC0,Read,ACK
1.621828875,959,0x53,0xBD,Read,ACK
1.621876875,959,0x53,0x80,Read,ACK
1.6219325,959,0x53,0xAB,Read,NAK
1.6307175,960,0xD4,0xA6,Write,ACK
1.63083875,961,0xD5,0x12,Read,ACK
1.63088675,961,0xD5,0x0F,Read,NAK
1.63101775,962,0xD4,0xA8,Write,ACK
1.631138125,963,0xD5,0xD9,Read,ACK
1.631186125,963,0xD5,0xFF,Read,ACK
1.631234125,963,0xD5,0x7D,Read,ACK
1.631282125,963,0xD5,0xFF,Read,ACK
1.631330125,963,0xD5,0xE3,Read,ACK
1.63138575,963,0xD5,0xFF,Read,NAK
1.63151575,964,0x52,0x02,Write,ACK
1.631636125,965,0x53,0x00,Read,ACK
1.631684125,965,0x53,0x00,Read,ACK
1.63173225,965,0x53,0x4F,Read,ACK
1.631780125,965,0x53,0xC0,Read,ACK
1.631828375,965,0x53,0xBD,Read,ACK
1.631876375,965,0x53,0x80,Read,ACK
1.631932125,965,0x53,0xAB,Read,NAK
1.640716375,966,0xD4,0xA6,Write,ACK
1.640837625,967,0xD5,0x12,Read,ACK
1.640885625,967,0xD5,0x0F,Read,NAK
1.641016625,968,0xD4,0xA8,Write,ACK
1.641137,969,0xD5,0xDE,Read,ACK
1.641185,969,0xD5,0xFF,Read,ACK
1.641233,969,0xD5,0x7E,Read,ACK
1.641281,969,0xD5,0xFF,Read,ACK
1.641329,969,0xD5,0xEB,Read,ACK
1.641384625,969,0xD5,0xFF,Read,NAK
1.641514625,970,0x52,0x02,Write,ACK
1.641635,971,0x53,0x00,Read,ACK
1.641683,971,0x53,0x00,Read,ACK
1.641731125,971,0x53,0x4F,Read,ACK
1.64177925,971,0x53,0xC0,Read,ACK
1.6418275,971,0x53,0xBD,Read,ACK
1.641875625,971,0x53,0x80,Read,ACK
1.64193125,971,0x53,0xAB,Read,NAK
1.6507155,972,0xD4,0xA6,Write,ACK
1.650836875,973,0xD5,0x12,Read,ACK
1.650884875,973,0xD5,0x0F,Read,NAK
1.651015875,974,0xD4,0xA8,Write,ACK
1.651136125,975,0xD5,0xDF,Read,ACK
1.651184125,975,0xD5,0xFF,Read,ACK
1.651232125,975,0xD5,0x7D,Read,ACK
1.651280125,975,0xD5,0xFF,Read,ACK
1.651328125,975,0xD5,0xF2,Read,ACK
1.651383875,975,0xD5,0xFF,Read,NAK
1.651513875,976,0x52,0x02,Write,ACK
1.651634125,977,0x53,0x00,Read,ACK
1.651682125,977,0x53,0x00,Read,ACK
1.651730375,977,0x53,0x4F,Read,ACK
1.6517785,977,0x53,0xC0,Read,ACK
1.65182675,977,0x53,0xBD,Read,ACK
1.65187475,977,0x53,0x80,Read,ACK
1.6519305,977,0x53,0xAB,Read,NAK
1.66071475,978,0xD4,0xA6,Write,ACK
1.660836,979,0xD5,0x12,Read,ACK
1.660884,979,0xD5,0x0F,Read,NAK
1.661015,980,0xD4,0xA8,Write,ACK
1.661135375,981,0xD5,0xDF,Read,ACK
1.661183375,981,0xD5,0xFF,Read,ACK
1.661231375,981,0xD5,0x7B,Read,ACK
1.661279375,981,0xD5,0xFF,Read,ACK
1.661327375,981,0xD5,0xF7,Read,ACK
1.661383,981,0xD5,0xFF,Read,NAK
1.661513,982,0x52,0x02,Write,ACK
1.661633375,983,0x53,0x00,Read,ACK
1.661681375,983,0x53,0x00,Read,ACK
1.6617295,983,0x53,0x4F,Read,ACK
1.661777625,983,0x53,0xC0,Read,ACK
1.661826,983,0x53,0xBD,Read,ACK
1.661874,983,0x53,0x80,Read,ACK
1.661929625,983,0x53,0xAB,Read,NAK
1.670713625,984,0xD4,0xA6,Write,ACK
1.670834875,985,0xD5,0x12,Read,ACK
1.670882875,985,0xD5,0x0F,Read,NAK
1.671013875,986,0xD4,0xA8,Write,ACK
1.67113425,987,0xD5,0xDE,Read,ACK
1.67118225,987,0xD5,0xFF,Read,ACK
1.67123025,987,0xD5,0x7B,Read,ACK
1.67127825,987,0xD5,0xFF,Read,ACK
1.67132625,987,0xD5,0xF9,Read,ACK
1.671381875,987,0xD5,0xFF,Read,NAK
1.671511875,988,0x52,0x02,Write,ACK
1.67163225,989,0x53,0x00,Read,ACK
1.67168025,989,0x53,0x00,Read,ACK
1.671728375,989,0x53,0x4F,Read,ACK
1.6717765,989,0x53,0xC0,Read,ACK
1.67182475,989,0x53,0xBD,Read,ACK
1.671872875,989,0x53,0x80,Read,ACK
1.6719285,989,0x53,0xAB,Read,NAK
1.6807145,990,0xD4,0xA6,Write,ACK
1.68083575,991,0xD5,0x12,Read,ACK
1.68088375,991,0xD5,0x0F,Read,NAK
1.68101475,992,0xD4,0xA8,Write,ACK
1.681135125,993,0xD5,0xDB,Read,ACK
1.681183125,993,0xD5,0xFF,Read,ACK
1.681231125,993,0xD5,0x7B,Read,ACK
1.681279125,993,0xD5,0xFF,Read,ACK
1.681327125,993,0xD5,0xFA,Read,ACK
1.68138275,993,0xD5,0xFF,Read,NAK
1.68151275,994,0x52,0x02,Write,ACK
1.681633125,995,0x53,0x00,Read,ACK
1.681681125,995,0x53,0x00,Read,ACK
1.681729125,995,0x53,0x4F,Read,ACK
1.681777125,995,0x53,0xC0,Read,ACK
1.681825375,995,0x53,0xBD,Read,ACK
1.681873375,995,0x53,0x80,Read,ACK
1.681929,995,0x53,0xAB,Read,NAK
1.690713625,996,0xD4,0xA6,Write,ACK
1.690835,997,0xD5,0x12,Read,ACK
1.690883,997,0xD5,0x0F,Read,NAK
1.691014,998,0xD4,0xA8,Write,ACK
1.69113425,999,0xD5,0xD7,Read,ACK
1.69118225,999,0xD5,0xFF,Read,ACK
1.69123025,999,0xD5,0x78,Read,ACK
1.69127825,999,0xD5,0xFF,Read,ACK
1.69132625,999,0xD5,0xFB,Read,ACK
1.691382,999,0xD5,0xFF,Read,NAK
1.691512,1000,0x52,0x02,Write,ACK
1.69163225,1001,0x53,0x00,Read,ACK
1.69168025,1001,0x53,0x00,Read,ACK
1.691728375,1001,0x53,0x4F,Read,ACK
1.69177625,1001,0x53,0xC0,Read,ACK
1.691824625,1001,0x53,0xBD,Read,ACK
1.691872625,1001,0x53,0x80,Read,ACK
1.69192825,1001,0x53,0xAB,Read,NAK
1.700712875,1002,0xD4,0xA6,Write,ACK
1.700834125,1003,0xD5,0x12,Read,ACK
1.700882125,1003,0xD5,0x0F,Read,NAK
1.701013125,1004,0xD4,0xA8,Write,ACK
1.7011335,1005,0xD5,0xD7,Read,ACK
1.7011815,1005,0xD5,0xFF,Read,ACK
1.7012295,1005,0xD5,0x74,Read,ACK
1.7012775,1005,0xD5,0xFF,Read,ACK
1.7013255,1005,0xD5,0xFA,Read,ACK
1.701381125,1005,0xD5,0xFF,Read,NAK
1.701511125,1006,0x52,0x02,Write,ACK
1.7016315,1007,0x53,0x00,Read,ACK
1.7016795,1007,0x53,0x00,Read,ACK
1.701727625,1007,0x53,0x4F,Read,ACK
1.7017755,1007,0x53,0xC0,Read,ACK
1.701823625,1007,0x53,0xBD,Read,ACK
1.70187175,1007,0x53,0x80,Read,ACK
1.7019275,1007,0x53,0xAB,Read,NAK
1.710713,1008,0xD4,0xA6,Write,ACK
1.710834375,1009,0xD5,0x12,Read,ACK
1.710882375,1009,0xD5,0x0F,Read,NAK
1.711013375,1010,0xD4,0xA8,Write,ACK
1.711133625,1011,0xD5,0xD8,Read,ACK
1.711181625,1011,0xD5,0xFF,Read,ACK
1.711229625,1011,0xD5,0x73,Read,ACK
1.711277625,1011,0xD5,0xFF,Read,ACK
1.711325625,1011,0xD5,0xF4,Read,ACK
1.711381375,1011,0xD5,0xFF,Read,NAK
1.711511375,1012,0x52,0x02,Write,ACK
1.711631625,1013,0x53,0x00,Read,ACK
1.711679625,1013,0x53,0x00,Read,ACK
1.711727875,1013,0x53,0x4F,Read,ACK
1.711776,1013,0x53,0xC0,Read,ACK
1.711824375,1013,0x53,0xBD,Read,ACK
1.71187225,1013,0x53,0x80,Read,ACK
1.711928,1013,0x53,0xAB,Read,NAK
1.72071225,1014,0xD4,0xA6,Write,ACK
1.7208335,1015,0xD5,0x12,Read,ACK
1.7208815,1015,0xD5,0x0F,Read,NAK
1.7210125,1016,0xD4,0xA8,Write,ACK
1.721132875,1017,0xD5,0xD8,Read,ACK
1.721180875,1017,0xD5,0xFF,Read,ACK
1.721228875,1017,0xD5,0x75,Read,ACK
1.721276875,1017,0xD5,0xFF,Read,ACK
1.721324875,1017,0xD5,0xEA,Read,ACK
1.7213805,1017,0xD5,0xFF,Read,NAK
1.7215105,1018,0x52,0x02,Write,ACK
1.721630875,1019,0x53,0x00,Read,ACK
1.721678875,1019,0x53,0x00,Read,ACK
1.721727,1019,0x53,0x4F,Read,ACK
1.721774875,1019,0x53,0xC0,Read,ACK
1.721823125,1019,0x53,0xBD,Read,ACK
1.721871125,1019,0x53,0x80,Read,ACK
1.721926875,1019,0x53,0xAB,Read,NAK
1.73071275,1020,0xD4,0xA6,Write,ACK
1.730834125,1021,0xD5,0x12,Read,ACK
1.730882125,1021,0xD5,0x0F,Read,NAK
1.731013125,1022,0xD4,0xA8,Write,ACK
1.731133375,1023,0xD5,0xD4,Read,ACK
1.731181375,1023,0xD5,0xFF,Read,ACK
1.731229375,1023,0xD5,0x78,Read,ACK
1.731277375,1023,0xD5,0xFF,Read,ACK
1.731325375,1023,0xD5,0xDF,Read,ACK
1.731381,1023,0xD5,0xFF,Read,NAK
1.731511,1024,0x52,0x02,Write,ACK
1.731631375,1025,0x53,0x00,Read,ACK
1.731679375,1025,0x53,0x00,Read,ACK
1.7317275,1025,0x53,0x4F,Read,ACK
1.731775375,1025,0x53,0xC0,Read,ACK
1.731823625,1025,0x53,0xBD,Read,ACK
1.73187175,1025,0x53,0x80,Read,ACK
1.731927375,1025,0x53,0xAB,Read,NAK
1.74071125,1026,0xD4,0xA6,Write,ACK
1.740832625,1027,0xD5,0x12,Read,ACK
1.740880625,1027,0xD5,0x0F,Read,NAK
1.741011625,1028,0xD4,0xA8,Write,ACK
1.741131875,1029,0xD5,0xCD,Read,ACK
1.741179875,1029,0xD5,0xFF,Read,ACK
1.741227875,1029,0xD5,0x7B,Read,ACK
1.741275875,1029,0xD5,0xFF,Read,ACK
1.741323875,1029,0xD5,0xDB,Read,ACK
1.741379625,1029,0xD5,0xFF,Read,NAK
1.741509625,1030,0x52,0x02,Write,ACK
1.741629875,1031,0x53,0x00,Read,ACK
1.741677875,1031,0x53,0x00,Read,ACK
1.741726,1031,0x53,0x4F,Read,ACK
1.74177425,1031,0x53,0xC0,Read,ACK
1.7418225,1031,0x53,0xBD,Read,ACK
1.7418705,1031,0x53,0x80,Read,ACK
1.74192625,1031,0x53,0xAB,Read,NAK
1.7507115,1032,0xD4,0xA6,Write,ACK
1.75083275,1033,0xD5,0x12,Read,ACK
1.75088075,1033,0xD5,0x0F,Read,NAK
1.75101175,1034,0xD4,0xA8,Write,ACK
1.751132125,1035,0xD5,0xC5,Read,ACK
1.751180125,1035,0xD5,0xFF,Read,ACK
1.751228125,1035,0xD5,0x80,Read,ACK
1.751276125,1035,0xD5,0xFF,Read,ACK
1.751324125,1035,0xD5,0xDF,Read,ACK
1.75137975,1035,0xD5,0xFF,Read,NAK
1.75150975,1036,0x52,0x02,Write,ACK
1.751630125,1037,0x53,0x00,Read,ACK
1.751678125,1037,0x53,0x00,Read,ACK
1.75172625,1037,0x53,0x4F,Read,ACK
1.751774125,1037,0x53,0xC0,Read,ACK
1.751822375,1037,0x53,0xBD,Read,ACK
1.751870375,1037,0x53,0x80,Read,ACK
1.751926125,1037,0x53,0xAB,Read,NAK
1.760711,1038,0xD4,0xA6,Write,ACK
1.760832375,1039,0xD5,0x12,Read,ACK
1.760880375,1039,0xD5,0x00,Read,NAK
1.761014375,1040,0x52,0x02,Write,ACK
1.761134625,1041,0x53,0x00,Read,ACK
1.761182625,1041,0x53,0x00,Read,ACK
1.761230875,1041,0x53,0x4F,Read,ACK
1.761279,1041,0x53,0xC0,Read,ACK
1.76132725,1041,0x53,0xBD,Read,ACK
1.76137525,1041,0x53,0x80,Read,ACK
1.761431,1041,0x53,0xAB,Read,NAK
1.770708875,1042,0xD4,0xA6,Write,ACK
1.77083025,1043,0xD5,0x12,Read,ACK
1.77087825,1043,0xD5,0x0F,Read,NAK
1.771009125,1044,0xD4,0xA8,Write,ACK
1.7711295,1045,0xD5,0xBE,Read,ACK
1.7711775,1045,0xD5,0xFF,Read,ACK
1.7712255,1045,0xD5,0x88,Read,ACK
1.7712735,1045,0xD5,0xFF,Read,ACK
1.7713215,1045,0xD5,0xE5,Read,ACK
1.771377125,1045,0xD5,0xFF,Read,NAK
1.771507125,1046,0x52,0x02,Write,ACK
1.7716275,1047,0x53,0x00,Read,ACK
1.7716755,1047,0x53,0x00,Read,ACK
1.771723625,1047,0x53,0x4F,Read,ACK
1.771771875,1047,0x53,0xC0,Read,ACK
1.771820125,1047,0x53,0xBD,Read,ACK
1.771868125,1047,0x53,0x80,Read,ACK
1.77192375,1047,0x53,0xAB,Read,NAK
1.78070975,1048,0xD4,0xA6,Write,ACK
1.780831,1049,0xD5,0x12,Read,ACK
1.780879,1049,0xD5,0x0F,Read,NAK
1.78101,1050,0xD4,0xA8,Write,ACK
1.781130375,1051,0xD5,0xBB,Read,ACK
1.781178375,1051,0xD5,0xFF,Read,ACK
1.781226375,1051,0xD5,0x8D,Read,ACK
1.781274375,1051,0xD5,0xFF,Read,ACK
1.781322375,1051,0xD5,0xE7,Read,ACK
1.781378,1051,0xD5,0xFF,Read,NAK
1.781508,1052,0x52,0x02,Write,ACK
1.781628375,1053,0x53,0x00,Read,ACK
1.781676375,1053,0x53,0x00,Read,ACK
1.7817245,1053,0x53,0x4F,Read,ACK
1.781772625,1053,0x53,0xC0,Read,ACK
1.781821,1053,0x53,0xBD,Read,ACK
1.781869,1053,0x53,0x80,Read,ACK
1.781924625,1053,0x53,0xAB,Read,NAK
1.79070925,1054,0xD4,0xA6,Write,ACK
1.790830625,1055,0xD5,0x12,Read,ACK
1.790878625,1055,0xD5,0x0F,Read,NAK
1.791009625,1056,0xD4,0xA8,Write,ACK
1.791129875,1057,0xD5,0xBC,Read,ACK
1.791177875,1057,0xD5,0xFF,Read,ACK
1.791225875,1057,0xD5,0x8E,Read,ACK
1.791273875,1057,0xD5,0xFF,Read,ACK
1.791321875,1057,0xD5,0xE6,Read,ACK
1.7913775,1057,0xD5,0xFF,Read,NAK
1.7915075,1058,0x52,0x02,Write,ACK
1.791627875,1059,0x53,0x00,Read,ACK
1.791675875,1059,0x53,0x00,Read,ACK
1.791724,1059,0x53,0x4F,Read,ACK
1.791771875,1059,0x53,0xC0,Read,ACK
1.791820125,1059,0x53,0xBD,Read,ACK
1.79186825,1059,0x53,0x80,Read,ACK
1.791923875,1059,0x53,0xAB,Read,NAK
1.8007095,1060,0xD4,0xA6,Write,ACK
1.80083075,1061,0xD5,0x12,Read,ACK
1.80087875,1061,0xD5,0x0F,Read,NAK
1.80100975,1062,0xD4,0xA8,Write,ACK
1.801130125,1063,0xD5,0xC0,Read,ACK
1.801178125,1063,0xD5,0xFF,Read,ACK
1.801226125,1063,0xD5,0x8B,Read,ACK
1.801274125,1063,0xD5,0xFF,Read,ACK
1.801322125,1063,0xD5,0xE7,Read,ACK
1.80137775,1063,0xD5,0xFF,Read,NAK
1.80150775,1064,0x52,0x02,Write,ACK
1.801628125,1065,0x53,0x00,Read,ACK
1.801676125,1065,0x53,0x00,Read,ACK
1.801724375,1065,0x53,0x4F,Read,ACK
1.801772375,1065,0x53,0xC0,Read,ACK
1.80182075,1065,0x53,0xBD,Read,ACK
1.80186875,1065,0x53,0x80,Read,ACK
1.801924375,1065,0x53,0xAB,Read,NAK
1.810708625,1066,0xD4,0xA6,Write,ACK
1.81083,1067,0xD5,0x12,Read,ACK
1.810878,1067,0xD5,0x0F,Read,NAK
1.811009,1068,0xD4,0xA8,Write,ACK
1.81112925,1069,0xD5,0xC7,Read,ACK
1.81117725,1069,0xD5,0xFF,Read,ACK
1.81122525,1069,0xD5,0x89,Read,ACK
1.81127325,1069,0xD5,0xFF,Read,ACK
1.81132125,1069,0xD5,0xEC,Read,ACK
1.811377,1069,0xD5,0xFF,Read,NAK
1.811507,1070,0x52,0x02,Write,ACK
1.81162725,1071,0x53,0x00,Read,ACK
1.81167525,1071,0x53,0x00,Read,ACK
1.811723375,1071,0x53,0x4F,Read,ACK
1.81177125,1071,0x53,0xC0,Read,ACK
1.8118195,1071,0x53,0xBD,Read,ACK
1.811867625,1071,0x53,0x80,Read,ACK
1.81192325,1071,0x53,0xAB,Read,NAK
1.820707875,1072,0xD4,0xA6,Write,ACK
1.820829125,1073,0xD5,0x12,Read,ACK
1.820877125,1073,0xD5,0x0F,Read,NAK
1.821008125,1074,0xD4,0xA8,Write,ACK
1.8211285,1075,0xD5,0xCE,Read,ACK
1.8211765,1075,0xD5,0xFF,Read,ACK
1.8212245,1075,0xD5,0x8E,Read,ACK
1.8212725,1075,0xD5,0xFF,Read,ACK
1.8213205,1075,0xD5,0xF3,Read,ACK
1.821376125,1075,0xD5,0xFF,Read,NAK
1.821506125,1076,0x52,0x02,Write,ACK
1.8216265,1077,0x53,0x00,Read,ACK
1.8216745,1077,0x53,0x00,Read,ACK
1.821722625,1077,0x53,0x4F,Read,ACK
1.82177075,1077,0x53,0xC0,Read,ACK
1.821819125,1077,0x53,0xBD,Read,ACK
1.821867125,1077,0x53,0x80,Read,ACK
1.82192275,1077,0x53,0xAB,Read,NAK
1.830708,1078,0xD4,0xA6,Write,ACK
1.830829375,1079,0xD5,0x12,Read,ACK
1.830877375,1079,0xD5,0x0F,Read,NAK
1.831008375,1080,0xD4,0xA8,Write,ACK
1.831128625,1081,0xD5,0xD1,Read,ACK
1.831176625,1081,0xD5,0xFF,Read,ACK
1.831224625,1081,0xD5,0x94,Read,ACK
1.831272625,1081,0xD5,0xFF,Read,ACK
1.831320625,1081,0xD5,0xF7,Read,ACK
1.831376375,1081,0xD5,0xFF,Read,NAK
1.831506375,1082,0x52,0x02,Write,ACK
1.831626625,1083,0x53,0x00,Read,ACK
1.831674625,1083,0x53,0x00,Read,ACK
1.83172275,1083,0x53,0x4F,Read,ACK
1.831770625,1083,0x53,0xC0,Read,ACK
1.831819,1083,0x53,0xBD,Read,ACK
1.831867,1083,0x53,0x80,Read,ACK
1.831922625,1083,0x53,0xAB,Read,NAK
1.84070725,1084,0xD4,0xA6,Write,ACK
1.8408285,1085,0xD5,0x12,Read,ACK
1.8408765,1085,0xD5,0x0F,Read,NAK
1.8410075,1086,0xD4,0xA8,Write,ACK
1.841127875,1087,0xD5,0xCD,Read,ACK
1.841175875,1087,0xD5,0xFF,Read,ACK
1.841223875,1087,0xD5,0x92,Read,ACK
1.841271875,1087,0xD5,0xFF,Read,ACK
1.841319875,1087,0xD5,0xF6,Read,ACK
1.8413755,1087,0xD5,0xFF,Read,NAK
1.8415055,1088,0x52,0x02,Write,ACK
1.841625875,1089,0x53,0x00,Read,ACK
1.841673875,1089,0x53,0x00,Read,ACK
1.841722,1089,0x53,0x4F,Read,ACK
1.841770125,1089,0x53,0xC0,Read,ACK
1.8418185,1089,0x53,0xBD,Read,ACK
1.8418665,1089,0x53,0x80,Read,ACK
1.841922125,1089,0x53,0xAB,Read,NAK
1.85070675,1090,0xD4,0xA6,Write,ACK
1.850828125,1091,0xD5,0x12,Read,ACK
1.850876125,1091,0xD5,0x0F,Read,NAK
1.851007125,1092,0xD4,0xA8,Write,ACK
1.851127375,1093,0xD5,0xC6,Read,ACK
1.851175375,1093,0xD5,0xFF,Read,ACK
1.851223375,1093,0xD5,0x8A,Read,ACK
1.851271375,1093,0xD5,0xFF,Read,ACK
1.851319375,1093,0xD5,0xF2,Read,ACK
1.851375,1093,0xD5,0xFF,Read,NAK
1.851505,1094,0x52,0x02,Write,ACK
1.851625375,1095,0x53,0x00,Read,ACK
1.851673375,1095,0x53,0x00,Read,ACK
1.8517215,1095,0x53,0x4F,Read,ACK
1.85176975,1095,0x53,0xC0,Read,ACK
1.851818,1095,0x53,0xBD,Read,ACK
1.851866,1095,0x53,0x80,Read,ACK
1.85192175,1095,0x53,0xAB,Read,NAK
1.860706625,1096,0xD4,0xA6,Write,ACK
1.860828,1097,0xD5,0x12,Read,ACK
1.860876,1097,0xD5,0x0F,Read,NAK
1.861006875,1098,0xD4,0xA8,Write,ACK
1.86112725,1099,0xD5,0xC2,Read,ACK
1.86117525,1099,0xD5,0xFF,Read,ACK
1.86122325,1099,0xD5,0x87,Read,ACK
1.86127125,1099,0xD5,0xFF,Read,ACK
1.86131925,1099,0xD5,0xED,Read,ACK
1.861374875,1099,0xD5,0xFF,Read,NAK
1.861504875,1100,0x52,0x02,Write,ACK
1.86162525,1101,0x53,0x00,Read,ACK
1.86167325,1101,0x53,0x00,Read,ACK
1.861721375,1101,0x53,0x4F,Read,ACK
1.8617695,1101,0x53,0xC0,Read,ACK
1.861817875,1101,0x53,0xBD,Read,ACK
1.861865875,1101,0x53,0x80,Read,ACK
1.8619215,1101,0x53,0xAB,Read,NAK
1.8707055,1102,0xD4,0xA6,Write,ACK
1.87082675,1103,0xD5,0x12,Read,ACK
1.87087475,1103,0xD5,0x0F,Read,NAK
1.87100575,1104,0xD4,0xA8,Write,ACK
1.871126125,1105,0xD5,0xC6,Read,ACK
1.871174125,1105,0xD5,0xFF,Read,ACK
1.871222125,1105,0xD5,0x8C,Read,ACK
1.871270125,1105,0xD5,0xFF,Read,ACK
1.871318125,1105,0xD5,0xE7,Read,ACK
1.87137375,1105,0xD5,0xFF,Read,NAK
1.87150375,1106,0x52,0x02,Write,ACK
1.871624125,1107,0x53,0x00,Read,ACK
1.871672125,1107,0x53,0x00,Read,ACK
1.87172025,1107,0x53,0x4F,Read,ACK
1.871768375,1107,0x53,0xC0,Read,ACK
1.871816625,1107,0x53,0xBD,Read,ACK
1.87186475,1107,0x53,0x80,Read,ACK
1.871920375,1107,0x53,0xAB,Read,NAK
1.880705625,1108,0xD4,0xA6,Write,ACK
1.880827,1109,0xD5,0x12,Read,ACK
1.880875,1109,0xD5,0x0F,Read,NAK
1.881006,1110,0xD4,0xA8,Write,ACK
1.881126375,1111,0xD5,0xCE,Read,ACK
1.88117425,1111,0xD5,0xFF,Read,ACK
1.88122225,1111,0xD5,0x90,Read,ACK
1.88127025,1111,0xD5,0xFF,Read,ACK
1.88131825,1111,0xD5,0xE2,Read,ACK
1.881374,1111,0xD5,0xFF,Read,NAK
1.881504,1112,0x52,0x02,Write,ACK
1.88162425,1113,0x53,0x00,Read,ACK
1.88167225,1113,0x53,0x00,Read,ACK
1.8817205,1113,0x53,0x4F,Read,ACK
1.881768625,1113,0x53,0xC0,Read,ACK
1.881816875,1113,0x53,0xBD,Read,ACK
1.881865,1113,0x53,0x80,Read,ACK
1.881920625,1113,0x53,0xAB,Read,NAK
1.89070425,1114,0xD4,0xA6,Write,ACK
1.8908255,1115,0xD5,0x12,Read,ACK
1.8908735,1115,0xD5,0x0F,Read,NAK
1.8910045,1116,0xD4,0xA8,Write,ACK
1.891124875,1117,0xD5,0xD4,Read,ACK
1.891172875,1117,0xD5,0xFF,Read,ACK
1.891220875,1117,0xD5,0x89,Read,ACK
1.891268875,1117,0xD5,0xFF,Read,ACK
1.891316875,1117,0xD5,0xE0,Read,ACK
1.8913725,1117,0xD5,0xFF,Read,NAK
1.8915025,1118,0x52,0x02,Write,ACK
1.891622875,1119,0x53,0x00,Read,ACK
1.891670875,1119,0x53,0x00,Read,ACK
1.891719,1119,0x53,0x4F,Read,ACK
1.891767125,1119,0x53,0xC0,Read,ACK
1.8918155,1119,0x53,0xBD,Read,ACK
1.8918635,1119,0x53,0x80,Read,ACK
1.891919125,1119,0x53,0xAB,Read,NAK
1.900704,1120,0xD4,0xA6,Write,ACK
1.900825375,1121,0xD5,0x12,Read,ACK
1.900873375,1121,0xD5,0x0F,Read,NAK
1.901004375,1122,0xD4,0xA8,Write,ACK
1.90112475,1123,0xD5,0xD6,Read,ACK
1.90117275,1123,0xD5,0xFF,Read,ACK
1.90122075,1123,0xD5,0x7C,Read,ACK
1.90126875,1123,0xD5,0xFF,Read,ACK
1.90131675,1123,0xD5,0xE0,Read,ACK
1.901372375,1123,0xD5,0xFF,Read,NAK
1.901502375,1124,0x52,0x02,Write,ACK
1.901622625,1125,0x53,0x00,Read,ACK
1.901670625,1125,0x53,0x00,Read,ACK
1.90171875,1125,0x53,0x4F,Read,ACK
1.901766625,1125,0x53,0xC0,Read,ACK
1.901815,1125,0x53,0xBD,Read,ACK
1.901863,1125,0x53,0x80,Read,ACK
1.901918625,1125,0x53,0xAB,Read,NAK
1.91070325,1126,0xD4,0xA6,Write,ACK
1.910824625,1127,0xD5,0x12,Read,ACK
1.910872625,1127,0xD5,0x0F,Read,NAK
1.911003625,1128,0xD4,0xA8,Write,ACK
1.911123875,1129,0xD5,0xD5,Read,ACK
1.911171875,1129,0xD5,0xFF,Read,ACK
1.911219875,1129,0xD5,0x74,Read,ACK
1.911267875,1129,0xD5,0xFF,Read,ACK
1.911315875,1129,0xD5,0xE2,Read,ACK
1.9113715,1129,0xD5,0xFF,Read,NAK
1.9115015,1130,0x52,0x02,Write,ACK
1.911621875,1131,0x53,0x00,Read,ACK
1.911669875,1131,0x53,0x00,Read,ACK
1.911718,1131,0x53,0x4F,Read,ACK
1.91176625,1131,0x53,0xC0,Read,ACK
1.9118145,1131,0x53,0xBD,Read,ACK
1.9118625,1131,0x53,0x80,Read,ACK
1.91191825,1131,0x53,0xAB,Read,NAK
1.920703125,1132,0xD4,0xA6,Write,ACK
1.9208245,1133,0xD5,0x12,Read,ACK
1.9208725,1133,0xD5,0x0F,Read,NAK
1.921003375,1134,0xD4,0xA8,Write,ACK
1.92112375,1135,0xD5,0xD5,Read,ACK
1.92117175,1135,0xD5,0xFF,Read,ACK
1.92121975,1135,0xD5,0x70,Read,ACK
1.92126775,1135,0xD5,0xFF,Read,ACK
1.92131575,1135,0xD5,0xE4,Read,ACK
1.921371375,1135,0xD5,0xFF,Read,NAK
1.921501375,1136,0x52,0x02,Write,ACK
1.92162175,1137,0x53,0x00,Read,ACK
1.92166975,1137,0x53,0x00,Read,ACK
1.921717875,1137,0x53,0x4F,Read,ACK
1.921766,1137,0x53,0xC0,Read,ACK
1.921814375,1137,0x53,0xBD,Read,ACK
1.921862375,1137,0x53,0x80,Read,ACK
1.921918,1137,0x53,0xAB,Read,NAK
1.930703,1138,0xD4,0xA6,Write,ACK
1.93082425,1139,0xD5,0x12,Read,ACK
1.93087225,1139,0xD5,0x0F,Read,NAK
1.93100325,1140,0xD4,0xA8,Write,ACK
1.931123625,1141,0xD5,0xD7,Read,ACK
1.931171625,1141,0xD5,0xFF,Read,ACK
1.931219625,1141,0xD5,0x6D,Read,ACK
1.931267625,1141,0xD5,0xFF,Read,ACK
1.931315625,1141,0xD5,0xE5,Read,ACK
1.93137125,1141,0xD5,0xFF,Read,NAK
1.93150125,1142,0x52,0x02,Write,ACK
1.931621625,1143,0x53,0x00,Read,ACK
1.931669625,1143,0x53,0x00,Read,ACK
1.93171775,1143,0x53,0x4F,Read,ACK
1.931765875,1143,0x53,0xC0,Read,ACK
1.931814125,1143,0x53,0xBD,Read,ACK
1.93186225,1143,0x53,0x80,Read,ACK
1.931917875,1143,0x53,0xAB,Read,NAK
1.940702125,1144,0xD4,0xA6,Write,ACK
1.9408235,1145,0xD5,0x12,Read,ACK
1.9408715,1145,0xD5,0x00,Read,NAK
1.9410055,1146,0x52,0x02,Write,ACK
1.941125875,1147,0x53,0x00,Read,ACK
1.941173875,1147,0x53,0x00,Read,ACK
1.941221875,1147,0x53,0x4F,Read,ACK
1.94126975,1147,0x53,0xC0,Read,ACK
1.941318125,1147,0x53,0xBD,Read,ACK
1.941366125,1147,0x53,0x80,Read,ACK
1.94142175,1147,0x53,0xAB,Read,NAK
1.95070175,1148,0xD4,0xA6,Write,ACK
1.950823,1149,0xD5,0x12,Read,ACK
1.950871,1149,0xD5,0x0F,Read,NAK
1.951002,1150,0xD4,0xA8,Write,ACK
1.951122375,1151,0xD5,0xD9,Read,ACK
1.951170375,1151,0xD5,0xFF,Read,ACK
1.951218375,1151,0xD5,0x6E,Read,ACK
1.951266375,1151,0xD5,0xFF,Read,ACK
1.951314375,1151,0xD5,0xE6,Read,ACK
1.95137,1151,0xD5,0xFF,Read,NAK
1.9515,1152,0x52,0x02,Write,ACK
1.951620375,1153,0x53,0x00,Read,ACK
1.951668375,1153,0x53,0x00,Read,ACK
1.9517165,1153,0x53,0x4F,Read,ACK
1.95176425,1153,0x53,0xC0,Read,ACK
1.9518125,1153,0x53,0xBD,Read,ACK
1.951860625,1153,0x53,0x80,Read,ACK
1.95191625,1153,0x53,0xAB,Read,NAK
1.96070125,1154,0xD4,0xA6,Write,ACK
1.9608225,1155,0xD5,0x12,Read,ACK
1.9608705,1155,0xD5,0x0F,Read,NAK
1.9610015,1156,0xD4,0xA8,Write,ACK
1.961121875,1157,0xD5,0xD9,Read,ACK
1.961169875,1157,0xD5,0xFF,Read,ACK
1.961217875,1157,0xD5,0x76,Read,ACK
1.961265875,1157,0xD5,0xFF,Read,ACK
1.961313875,1157,0xD5,0xE7,Read,ACK
1.9613695,1157,0xD5,0xFF,Read,NAK
1.9614995,1158,0x52,0x02,Write,ACK
1.961619875,1159,0x53,0x00,Read,ACK
1.961667875,1159,0x53,0x00,Read,ACK
1.961716,1159,0x53,0x4F,Read,ACK
1.961764125,1159,0x53,0xC0,Read,ACK
1.9618125,1159,0x53,0xBD,Read,ACK
1.9618605,1159,0x53,0x80,Read,ACK
1.961916125,1159,0x53,0xAB,Read,NAK
1.97070075,1160,0xD4,0xA6,Write,ACK
1.970822125,1161,0xD5,0x12,Read,ACK
1.970870125,1161,0xD5,0x0F,Read,NAK
1.971001125,1162,0xD4,0xA8,Write,ACK
1.971121375,1163,0xD5,0xD8,Read,ACK
1.971169375,1163,0xD5,0xFF,Read,ACK
1.971217375,1163,0xD5,0x7D,Read,ACK
1.971265375,1163,0xD5,0xFF,Read,ACK
1.971313375,1163,0xD5,0xEA,Read,ACK
1.971369,1163,0xD5,0xFF,Read,NAK
1.971499,1164,0x52,0x02,Write,ACK
1.971619375,1165,0x53,0x00,Read,ACK
1.971667375,1165,0x53,0x00,Read,ACK
1.9717155,1165,0x53,0x4F,Read,ACK
1.97176375,1165,0x53,0xC0,Read,ACK
1.971812,1165,0x53,0xBD,Read,ACK
1.97186,1165,0x53,0x80,Read,ACK
1.97191575,1165,0x53,0xAB,Read,NAK
1.980700625,1166,0xD4,0xA6,Write,ACK
1.980822,1167,0xD5,0x12,Read,ACK
1.98087,1167,0xD5,0x0F,Read,NAK
1.981000875,1168,0xD4,0xA8,Write,ACK
1.98112125,1169,0xD5,0xDB,Read,ACK
1.98116925,1169,0xD5,0xFF,Read,ACK
1.98121725,1169,0xD5,0x7F,Read,ACK
1.98126525,1169,0xD5,0xFF,Read,ACK
1.98131325,1169,0xD5,0xEF,Read,ACK
1.981368875,1169,0xD5,0xFF,Read,NAK
1.981498875,1170,0x52,0x02,Write,ACK
1.98161925,1171,0x53,0x00,Read,ACK
1.98166725,1171,0x53,0x00,Read,ACK
1.981715375,1171,0x53,0x4F,Read,ACK
1.9817635,1171,0x53,0xC0,Read,ACK
1.981811875,1171,0x53,0xBD,Read,ACK
1.981859875,1171,0x53,0x80,Read,ACK
1.9819155,1171,0x53,0xAB,Read,NAK
1.990700125,1172,0xD4,0xA6,Write,ACK
1.9908215,1173,0xD5,0x12,Read,ACK
1.9908695,1173,0xD5,0x0F,Read,NAK
1.9910005,1174,0xD4,0xA8,Write,ACK
1.99112075,1175,0xD5,0xE3,Read,ACK
1.99116875,1175,0xD5,0xFF,Read,ACK
1.99121675,1175,0xD5,0x7F,Read,ACK
1.99126475,1175,0xD5,0xFF,Read,ACK
1.99131275,1175,0xD5,0xEF,Read,ACK
1.9913685,1175,0xD5,0xFF,Read,NAK
1.9914985,1176,0x52,0x02,Write,ACK
1.99161875,1177,0x53,0x00,Read,ACK
1.99166675,1177,0x53,0x00,Read,ACK
1.991714875,1177,0x53,0x4F,Read,ACK
1.991763125,1177,0x53,0xC0,Read,ACK
1.991811375,1177,0x53,0xBD,Read,ACK
1.991859375,1177,0x53,0x80,Read,ACK
1.991915125,1177,0x53,0xAB,Read,NAK
2.000699375,1178,0xD4,0xA6,Write,ACK
2.000820625,1179,0xD5,0x12,Read,ACK
2.000868625,1179,0xD5,0x0F,Read,NAK
2.000999625,1180,0xD4,0xA8,Write,ACK
2.00112,1181,0xD5,0xE8,Read,ACK
2.001168,1181,0xD5,0xFF,Read,ACK
2.001216,1181,0xD5,0x85,Read,ACK
2.001264,1181,0xD5,0xFF,Read,ACK
2.001312,1181,0xD5,0xE8,Read,ACK
2.001367625,1181,0xD5,0xFF,Read,NAK
2.001497625,1182,0x52,0x02,Write,ACK
2.001618,1183,0x53,0x00,Read,ACK
2.001666,1183,0x53,0x00,Read,ACK
2.00171425,1183,0x53,0x4F,Read,ACK
2.00176225,1183,0x53,0xC0,Read,ACK
2.00181075,1183,0x53,0xBD,Read,ACK
2.001858625,1183,0x53,0x80,Read,ACK
2.00191425,1183,0x53,0xAB,Read,NAK
2.01069925,1184,0xD4,0xA6,Write,ACK
2.0108205,1185,0xD5,0x12,Read,ACK
2.0108685,1185,0xD5,0x0F,Read,NAK
2.0109995,1186,0xD4,0xA8,Write,ACK
2.011119875,1187,0xD5,0xE7,Read,ACK
2.011167875,1187,0xD5,0xFF,Read,ACK
2.011215875,1187,0xD5,0x8D,Read,ACK
2.011263875,1187,0xD5,0xFF,Read,ACK
2.011311875,1187,0xD5,0xDE,Read,ACK
2.0113675,1187,0xD5,0xFF,Read,NAK
2.0114975,1188,0x52,0x02,Write,ACK
2.011617875,1189,0x53,0x00,Read,ACK
2.011665875,1189,0x53,0x00,Read,ACK
2.011714,1189,0x53,0x4F,Read,ACK
2.011762125,1189,0x53,0xC0,Read,ACK
2.011810375,1189,0x53,0xBD,Read,ACK
2.0118585,1189,0x53,0x80,Read,ACK
2.011914125,1189,0x53,0xAB,Read,NAK
2.02069875,1190,0xD4,0xA6,Write,ACK
2.02082,1191,0xD5,0x12,Read,ACK
2.020868,1191,0xD5,0x0F,Read,NAK
2.020999,1192,0xD4,0xA8,Write,ACK
2.021119375,1193,0xD5,0xE5,Read,ACK
2.021167375,1193,0xD5,0xFF,Read,ACK
2.021215375,1193,0xD5,0x8F,Read,ACK
2.021263375,1193,0xD5,0xFF,Read,ACK
2.021311375,1193,0xD5,0xDB,Read,ACK
2.021367,1193,0xD5,0xFF,Read,NAK
2.021497,1194,0x52,0x02,Write,ACK
2.021617375,1195,0x53,0x00,Read,ACK
2.021665375,1195,0x53,0x00,Read,ACK
2.0217135,1195,0x53,0x4F,Read,ACK
2.021761375,1195,0x53,0xC0,Read,ACK
2.021809625,1195,0x53,0xBD,Read,ACK
2.021857625,1195,0x53,0x80,Read,ACK
2.021913375,1195,0x53,0xAB,Read,NAK
2.030697875,1196,0xD4,0xA6,Write,ACK
2.03081925,1197,0xD5,0x12,Read,ACK
2.03086725,1197,0xD5,0x0F,Read,NAK
2.03099825,1198,0xD4,0xA8,Write,ACK
2.0311185,1199,0xD5,0xE4,Read,ACK
2.0311665,1199,0xD5,0xFF,Read,ACK
2.0312145,1199,0xD5,0x8A,Read,ACK
2.0312625,1199,0xD5,0xFF,Read,ACK
2.0313105,1199,0xD5,0xE1,Read,ACK
2.03136625,1199,0xD5,0xFF,Read,NAK
2.03149625,1200,0x52,0x02,Write,ACK
2.0316165,1201,0x53,0x00,Read,ACK
2.0316645,1201,0x53,0x00,Read,ACK
2.03171275,1201,0x53,0x4F,Read,ACK
2.031760875,1201,0x53,0xC0,Read,ACK
2.031809125,1201,0x53,0xBD,Read,ACK
2.03185725,1201,0x53,0x80,Read,ACK
2.031912875,1201,0x53,0xAB,Read,NAK
2.040697125,1202,0xD4,0xA6,Write,ACK
2.0408185,1203,0xD5,0x12,Read,ACK
2.0408665,1203,0xD5,0x0F,Read,NAK
2.040997375,1204,0xD4,0xA8,Write,ACK
2.04111775,1205,0xD5,0xE4,Read,ACK
2.04116575,1205,0xD5,0xFF,Read,ACK
2.04121375,1205,0xD5,0x85,Read,ACK
2.04126175,1205,0xD5,0xFF,Read,ACK
2.04130975,1205,0xD5,0xE7,Read,ACK
2.041365375,1205,0xD5,0xFF,Read,NAK
2.041495375,1206,0x52,0x02,Write,ACK
2.04161575,1207,0x53,0x00,Read,ACK
2.04166375,1207,0x53,0x00,Read,ACK
2.041711875,1207,0x53,0x4F,Read,ACK
2.04175975,1207,0x53,0xC0,Read,ACK
2.041808,1207,0x53,0xBD,Read,ACK
2.041856,1207,0x53,0x80,Read,ACK
2.04191175,1207,0x53,0xAB,Read,NAK
2.050696,1208,0xD4,0xA6,Write,ACK
2.05081725,1209,0xD5,0x12,Read,ACK
2.05086525,1209,0xD5,0x0F,Read,NAK
2.05099625,1210,0xD4,0xA8,Write,ACK
2.051116625,1211,0xD5,0xE1,Read,ACK
2.051164625,1211,0xD5,0xFF,Read,ACK
2.051212625,1211,0xD5,0x84,Read,ACK
2.051260625,1211,0xD5,0xFF,Read,ACK
2.051308625,1211,0xD5,0xE9,Read,ACK
2.05136425,1211,0xD5,0xFF,Read,NAK
2.05149425,1212,0x52,0x02,Write,ACK
2.051614625,1213,0x53,0x00,Read,ACK
2.051662625,1213,0x53,0x00,Read,ACK
2.05171075,1213,0x53,0x4F,Read,ACK
2.051758625,1213,0x53,0xC0,Read,ACK
2.051806875,1213,0x53,0xBD,Read,ACK
2.051854875,1213,0x53,0x80,Read,ACK
2.051910625,1213,0x53,0xAB,Read,NAK
2.060696125,1214,0xD4,0xA6,Write,ACK
2.0608175,1215,0xD5,0x12,Read,ACK
2.0608655,1215,0xD5,0x0F,Read,NAK
2.0609975,1216,0xD4,0xA8,Write,ACK
2.06111775,1217,0xD5,0xDD,Read,ACK
2.06116575,1217,0xD5,0xFF,Read,ACK
2.06121375,1217,0xD5,0x89,Read,ACK
2.06126175,1217,0xD5,0xFF,Read,ACK
2.06130975,1217,0xD5,0xE6,Read,ACK
2.0613655,1217,0xD5,0xFF,Read,NAK
2.0614955,1218,0x52,0x02,Write,ACK
2.06161575,1219,0x53,0x00,Read,ACK
2.06166375,1219,0x53,0x00,Read,ACK
2.061711875,1219,0x53,0x4F,Read,ACK
2.061760125,1219,0x53,0xC0,Read,ACK
2.061808375,1219,0x53,0xBD,Read,ACK
2.0618565,1219,0x53,0x80,Read,ACK
2.061912125,1219,0x53,0xAB,Read,NAK
2.070696,1220,0xD4,0xA6,Write,ACK
2.070817375,1221,0xD5,0x12,Read,ACK
2.070865375,1221,0xD5,0x0F,Read,NAK
2.070996375,1222,0xD4,0xA8,Write,ACK
2.071116625,1223,0xD5,0xDB,Read,ACK
2.071164625,1223,0xD5,0xFF,Read,ACK
2.071212625,1223,0xD5,0x8D,Read,ACK
2.071260625,1223,0xD5,0xFF,Read,ACK
2.071308625,1223,0xD5,0xE3,Read,ACK
2.071364375,1223,0xD5,0xFF,Read,NAK
2.071494375,1224,0x52,0x02,Write,ACK
2.071614625,1225,0x53,0x00,Read,ACK
2.071662625,1225,0x53,0x00,Read,ACK
2.071710875,1225,0x53,0x4F,Read,ACK
2.071759,1225,0x53,0xC0,Read,ACK
2.07180725,1225,0x53,0xBD,Read,ACK
2.07185525,1225,0x53,0x80,Read,ACK
2.071911,1225,0x53,0xAB,Read,NAK
2.0806955,1226,0xD4,0xA6,Write,ACK
2.080816875,1227,0xD5,0x12,Read,ACK
2.080864875,1227,0xD5,0x0F,Read,NAK
2.080995875,1228,0xD4,0xA8,Write,ACK
2.08111625,1229,0xD5,0xDA,Read,ACK
2.08116425,1229,0xD5,0xFF,Read,ACK
2.08121225,1229,0xD5,0x8E,Read,ACK
2.08126025,1229,0xD5,0xFF,Read,ACK
2.08130825,1229,0xD5,0xE1,Read,ACK
2.081363875,1229,0xD5,0xFF,Read,NAK
2.081493875,1230,0x52,0x02,Write,ACK
2.081614125,1231,0x53,0x00,Read,ACK
2.081662125,1231,0x53,0x00,Read,ACK
2.0817105,1231,0x53,0x4F,Read,ACK
2.0817585,1231,0x53,0xC0,Read,ACK
2.081807,1231,0x53,0xBD,Read,ACK
2.081854875,1231,0x53,0x80,Read,ACK
2.0819105,1231,0x53,0xAB,Read,NAK
2.090695125,1232,0xD4,0xA6,Write,ACK
2.090816375,1233,0xD5,0x12,Read,ACK
2.090864375,1233,0xD5,0x0F,Read,NAK
2.090995375,1234,0xD4,0xA8,Write,ACK
2.09111575,1235,0xD5,0xD2,Read,ACK
2.09116375,1235,0xD5,0xFF,Read,ACK
2.09121175,1235,0xD5,0x8A,Read,ACK
2.09125975,1235,0xD5,0xFF,Read,ACK
2.09130775,1235,0xD5,0xE5,Read,ACK
2.091363375,1235,0xD5,0xFF,Read,NAK
2.091493375,1236,0x52,0x02,Write,ACK
2.09161375,1237,0x53,0x00,Read,ACK
2.09166175,1237,0x53,0x00,Read,ACK
2.091709875,1237,0x53,0x4F,Read,ACK
2.091758,1237,0x53,0xC0,Read,ACK
2.091806375,1237,0x53,0xBD,Read,ACK
2.091854375,1237,0x53,0x80,Read,ACK
2.09191,1237,0x53,0xAB,Read,NAK
2.100695,1238,0xD4,0xA6,Write,ACK
2.10081625,1239,0xD5,0x12,Read,ACK
2.10086425,1239,0xD5,0x0F,Read,NAK
2.10099525,1240,0xD4,0xA8,Write,ACK
2.101115625,1241,0xD5,0xC7,Read,ACK
2.101163625,1241,0xD5,0xFF,Read,ACK
2.101211625,1241,0xD5,0x88,Read,ACK
2.101259625,1241,0xD5,0xFF,Read,ACK
2.101307625,1241,0xD5,0xEE,Read,ACK
2.10136325,1241,0xD5,0xFF,Read,NAK
2.10149325,1242,0x52,0x02,Write,ACK
2.101613625,1243,0x53,0x00,Read,ACK
2.101661625,1243,0x53,0x00,Read,ACK
2.10170975,1243,0x53,0x4F,Read,ACK
2.101757875,1243,0x53,0xC0,Read,ACK
2.101806125,1243,0x53,0xBD,Read,ACK
2.10185425,1243,0x53,0x80,Read,ACK
2.101909875,1243,0x53,0xAB,Read,NAK
2.11069375,1244,0xD4,0xA6,Write,ACK
2.110815125,1245,0xD5,0x12,Read,ACK
2.110863125,1245,0xD5,0x0F,Read,NAK
2.110994125,1246,0xD4,0xA8,Write,ACK
2.1111145,1247,0xD5,0xBF,Read,ACK
2.1111625,1247,0xD5,0xFF,Read,ACK
2.1112105,1247,0xD5,0x8C,Read,ACK
2.1112585,1247,0xD5,0xFF,Read,ACK
2.1113065,1247,0xD5,0xF6,Read,ACK
2.111362125,1247,0xD5,0xFF,Read,NAK
2.111492125,1248,0x52,0x02,Write,ACK
2.111612375,1249,0x53,0x00,Read,ACK
2.111660375,1249,0x53,0x00,Read,ACK
2.11170875,1249,0x53,0x4F,Read,ACK
2.11175675,1249,0x53,0xC0,Read,ACK
2.111805,1249,0x53,0xBD,Read,ACK
2.111853125,1249,0x53,0x80,Read,ACK
2.11190875,1249,0x53,0xAB,Read,NAK
2.120692625,1250,0xD4,0xA6,Write,ACK
2.120814,1251,0xD5,0x12,Read,ACK
2.120862,1251,0xD5,0x00,Read,NAK
2.120996,1252,0x52,0x02,Write,ACK
2.121116375,1253,0x53,0x00,Read,ACK
2.121164375,1253,0x53,0x00,Read,ACK
2.121212625,1253,0x53,0x4F,Read,ACK
2.121260625,1253,0x53,0xC0,Read,ACK
2.121309,1253,0x53,0xBD,Read,ACK
2.121357,1253,0x53,0x80,Read,ACK
2.121412625,1253,0x53,0xAB,Read,NAK
2.13069325,1254,0xD4,0xA6,Write,ACK
2.1308145,1255,0xD5,0x12,Read,ACK
2.1308625,1255,0xD5,0x0F,Read,NAK
2.1309935,1256,0xD4,0xA8,Write,ACK
2.131113875,1257,0xD5,0xC2,Read,ACK
2.131161875,1257,0xD5,0xFF,Read,ACK
2.131209875,1257,0xD5,0x92,Read,ACK
2.131257875,1257,0xD5,0xFF,Read,ACK
2.131305875,1257,0xD5,0xF6,Read,ACK
2.1313615,1257,0xD5,0xFF,Read,NAK
2.1314915,1258,0x52,0x02,Write,ACK
2.131611875,1259,0x53,0x00,Read,ACK
2.131659875,1259,0x53,0x00,Read,ACK
2.131708,1259,0x53,0x4F,Read,ACK
2.13175575,1259,0x53,0xC0,Read,ACK
2.131804125,1259,0x53,0xBD,Read,ACK
2.131852125,1259,0x53,0x80,Read,ACK
2.13190775,1259,0x53,0xAB,Read,NAK
2.14069275,1260,0xD4,0xA6,Write,ACK
2.140814,1261,0xD5,0x12,Read,ACK
2.140862,1261,0xD5,0x0F,Read,NAK
2.140993,1262,0xD4,0xA8,Write,ACK
2.141113375,1263,0xD5,0xCA,Read,ACK
2.141161375,1263,0xD5,0xFF,Read,ACK
2.141209375,1263,0xD5,0x94,Read,ACK
2.141257375,1263,0xD5,0xFF,Read,ACK
2.141305375,1263,0xD5,0xEE,Read,ACK
2.141361,1263,0xD5,0xFF,Read,NAK
2.141491,1264,0x52,0x02,Write,ACK
2.141611375,1265,0x53,0x00,Read,ACK
2.141659375,1265,0x53,0x00,Read,ACK
2.1417075,1265,0x53,0x4F,Read,ACK
2.141755625,1265,0x53,0xC0,Read,ACK
2.141803875,1265,0x53,0xBD,Read,ACK
2.141852,1265,0x53,0x80,Read,ACK
2.141907625,1265,0x53,0xAB,Read,NAK
2.150691625,1266,0xD4,0xA6,Write,ACK
2.150812875,1267,0xD5,0x12,Read,ACK
2.150860875,1267,0xD5,0x0F,Read,NAK
2.150991875,1268,0xD4,0xA8,Write,ACK
2.15111225,1269,0xD5,0xD0,Read,ACK
2.15116025,1269,0xD5,0xFF,Read,ACK
2.15120825,1269,0xD5,0x90,Read,ACK
2.15125625,1269,0xD5,0xFF,Read,ACK
2.15130425,1269,0xD5,0xE5,Read,ACK
2.151359875,1269,0xD5,0xFF,Read,NAK
2.151489875,1270,0x52,0x02,Write,ACK
2.15161025,1271,0x53,0x00,Read,ACK
2.15165825,1271,0x53,0x00,Read,ACK
2.151706375,1271,0x53,0x4F,Read,ACK
2.15175425,1271,0x53,0xC0,Read,ACK
2.1518025,1271,0x53,0xBD,Read,ACK
2.1518505,1271,0x53,0x80,Read,ACK
2.15190625,1271,0x53,0xAB,Read,NAK
2.16069175,1272,0xD4,0xA6,Write,ACK
2.160813125,1273,0xD5,0x12,Read,ACK
2.160861125,1273,0xD5,0x0F,Read,NAK
2.160992125,1274,0xD4,0xA8,Write,ACK
2.161112375,1275,0xD5,0xD1,Read,ACK
2.161160375,1275,0xD5,0xFF,Read,ACK
2.161208375,1275,0xD5,0x89,Read,ACK
2.161256375,1275,0xD5,0xFF,Read,ACK
2.161304375,1275,0xD5,0xE4,Read,ACK
2.161360125,1275,0xD5,0xFF,Read,NAK
2.161490125,1276,0x52,0x02,Write,ACK
2.161610375,1277,0x53,0x00,Read,ACK
2.161658375,1277,0x53,0x00,Read,ACK
2.161706625,1277,0x53,0x4F,Read,ACK
2.16175475,1277,0x53,0xC0,Read,ACK
2.161803,1277,0x53,0xBD,Read,ACK
2.161851,1277,0x53,0x80,Read,ACK
2.16190675,1277,0x53,0xAB,Read,NAK
2.170691,1278,0xD4,0xA6,Write,ACK
2.17081225,1279,0xD5,0x12,Read,ACK
2.17086025,1279,0xD5,0x0F,Read,NAK
2.17099125,1280,0xD4,0xA8,Write,ACK
2.171111625,1281,0xD5,0xD5,Read,ACK
2.171159625,1281,0xD5,0xFF,Read,ACK
2.171207625,1281,0xD5,0x89,Read,ACK
2.171255625,1281,0xD5,0xFF,Read,ACK
2.171303625,1281,0xD5,0xEA,Read,ACK
2.17135925,1281,0xD5,0xFF,Read,NAK
2.17148925,1282,0x52,0x02,Write,ACK
2.171609625,1283,0x53,0x00,Read,ACK
2.171657625,1283,0x53,0x00,Read,ACK
2.17170575,1283,0x53,0x4F,Read,ACK
2.171753875,1283,0x53,0xC0,Read,ACK
2.17180225,1283,0x53,0xBD,Read,ACK
2.17185025,1283,0x53,0x80,Read,ACK
2.171905875,1283,0x53,0xAB,Read,NAK
2.1806905,1284,0xD4,0xA6,Write,ACK
2.180811875,1285,0xD5,0x12,Read,ACK
2.180859875,1285,0xD5,0x0F,Read,NAK
2.180990875,1286,0xD4,0xA8,Write,ACK
2.181111125,1287,0xD5,0xDE,Read,ACK
2.181159125,1287,0xD5,0xFF,Read,ACK
2.181207125,1287,0xD5,0x91,Read,ACK
2.181255125,1287,0xD5,0xFF,Read,ACK
2.181303125,1287,0xD5,0xEE,Read,ACK
2.18135875,1287,0xD5,0xFF,Read,NAK
2.18148875,1288,0x52,0x02,Write,ACK
2.181609125,1289,0x53,0x00,Read,ACK
2.181657125,1289,0x53,0x00,Read,ACK
2.18170525,1289,0x53,0x4F,Read,ACK
2.1817535,1289,0x53,0xC0,Read,ACK
2.18180175,1289,0x53,0xBD,Read,ACK
2.18184975,1289,0x53,0x80,Read,ACK
2.1819055,1289,0x53,0xAB,Read,NAK
2.19068975,1290,0xD4,0xA6,Write,ACK
2.190811,1291,0xD5,0x12,Read,ACK
2.190859,1291,0xD5,0x0F,Read,NAK
2.19099,1292,0xD4,0xA8,Write,ACK
2.191110375,1293,0xD5,0xE6,Read,ACK
2.191158375,1293,0xD5,0xFF,Read,ACK
2.191206375,1293,0xD5,0x9C,Read,ACK
2.191254375,1293,0xD5,0xFF,Read,ACK
2.191302375,1293,0xD5,0xE9,Read,ACK
2.191358,1293,0xD5,0xFF,Read,NAK
2.191488,1294,0x52,0x02,Write,ACK
2.191608375,1295,0x53,0x00,Read,ACK
2.191656375,1295,0x53,0x00,Read,ACK
2.1917045,1295,0x53,0x4F,Read,ACK
2.191752625,1295,0x53,0xC0,Read,ACK
2.191800875,1295,0x53,0xBD,Read,ACK
2.191849,1295,0x53,0x80,Read,ACK
2.191904625,1295,0x53,0xAB,Read,NAK
2.2006895,1296,0xD4,0xA6,Write,ACK
2.200810875,1297,0xD5,0x12,Read,ACK
2.200858875,1297,0xD5,0x0F,Read,NAK
2.200989875,1298,0xD4,0xA8,Write,ACK
2.20111025,1299,0xD5,0xE5,Read,ACK
2.20115825,1299,0xD5,0xFF,Read,ACK
2.20120625,1299,0xD5,0x9D,Read,ACK
2.20125425,1299,0xD5,0xFF,Read,ACK
2.20130225,1299,0xD5,0xE2,Read,ACK
2.201357875,1299,0xD5,0xFF,Read,NAK
2.201487875,1300,0x52,0x02,Write,ACK
2.201608125,1301,0x53,0x00,Read,ACK
2.201656125,1301,0x53,0x00,Read,ACK
2.201704375,1301,0x53,0x4F,Read,ACK
2.2017525,1301,0x53,0xC0,Read,ACK
2.20180075,1301,0x53,0xBD,Read,ACK
2.201848875,1301,0x53,0x80,Read,ACK
2.2019045,1301,0x53,0xAB,Read,NAK
2.210689375,1302,0xD4,0xA6,Write,ACK
2.21081075,1303,0xD5,0x12,Read,ACK
2.21085875,1303,0xD5,0x0F,Read,NAK
2.21098975,1304,0xD4,0xA8,Write,ACK
2.21111,1305,0xD5,0xDD,Read,ACK
2.211158,1305,0xD5,0xFF,Read,ACK
2.211206,1305,0xD5,0x90,Read,ACK
2.211254,1305,0xD5,0xFF,Read,ACK
2.211302,1305,0xD5,0xE4,Read,ACK
2.21135775,1305,0xD5,0xFF,Read,NAK
2.21148775,1306,0x52,0x02,Write,ACK
2.211608,1307,0x53,0x00,Read,ACK
2.211656,1307,0x53,0x00,Read,ACK
2.21170425,1307,0x53,0x4F,Read,ACK
2.211752375,1307,0x53,0xC0,Read,ACK
2.211800625,1307,0x53,0xBD,Read,ACK
2.21184875,1307,0x53,0x80,Read,ACK
2.211904375,1307,0x53,0xAB,Read,NAK
2.220689,1308,0xD4,0xA6,Write,ACK
2.22081025,1309,0xD5,0x12,Read,ACK
2.22085825,1309,0xD5,0x0F,Read,NAK
2.22098925,1310,0xD4,0xA8,Write,ACK
2.221109625,1311,0xD5,0xD9,Read,ACK
2.221157625,1311,0xD5,0xFF,Read,ACK
2.221205625,1311,0xD5,0x80,Read,ACK
2.221253625,1311,0xD5,0xFF,Read,ACK
2.221301625,1311,0xD5,0xEF,Read,ACK
2.22135725,1311,0xD5,0xFF,Read,NAK
2.22148725,1312,0x52,0x02,Write,ACK
2.221607625,1313,0x53,0x00,Read,ACK
2.221655625,1313,0x53,0x00,Read,ACK
2.221703625,1313,0x53,0x4F,Read,ACK
2.2217515,1313,0x53,0xC0,Read,ACK
2.22179975,1313,0x53,0xBD,Read,ACK
2.221847875,1313,0x53,0x80,Read,ACK
2.2219035,1313,0x53,0xAB,Read,NAK
2.23068875,1314,0xD4,0xA6,Write,ACK
2.230810125,1315,0xD5,0x12,Read,ACK
2.230858125,1315,0xD5,0x0F,Read,NAK
2.230989125,1316,0xD4,0xA8,Write,ACK
2.2311095,1317,0xD5,0xDD,Read,ACK
2.2311575,1317,0xD5,0xFF,Read,ACK
2.2312055,1317,0xD5,0x78,Read,ACK
2.2312535,1317,0xD5,0xFF,Read,ACK
2.2313015,1317,0xD5,0xF8,Read,ACK
2.231357125,1317,0xD5,0xFF,Read,NAK
2.231487125,1318,0x52,0x02,Write,ACK
2.231607375,1319,0x53,0x00,Read,ACK
2.231655375,1319,0x53,0x00,Read,ACK
2.231703625,1319,0x53,0x4F,Read,ACK
2.23175175,1319,0x53,0xC0,Read,ACK
2.2318,1319,0x53,0xBD,Read,ACK
2.231848125,1319,0x53,0x80,Read,ACK
2.23190375,1319,0x53,0xAB,Read,NAK
2.240688375,1320,0xD4,0xA6,Write,ACK
2.240809625,1321,0xD5,0x12,Read,ACK
2.240857625,1321,0xD5,0x0F,Read,NAK
2.240988625,1322,0xD4,0xA8,Write,ACK
2.241109,1323,0xD5,0xE6,Read,ACK
2.241157,1323,0xD5,0xFF,Read,ACK
2.241205,1323,0xD5,0x7C,Read,ACK
2.241253,1323,0xD5,0xFF,Read,ACK
2.241301,1323,0xD5,0xF6,Read,ACK
2.241356625,1323,0xD5,0xFF,Read,NAK
2.241486625,1324,0x52,0x02,Write,ACK
2.241607,1325,0x53,0x00,Read,ACK
2.241655,1325,0x53,0x00,Read,ACK
2.241703125,1325,0x53,0x4F,Read,ACK
2.24175125,1325,0x53,0xC0,Read,ACK
2.2417995,1325,0x53,0xBD,Read,ACK
2.241847625,1325,0x53,0x80,Read,ACK
2.24190325,1325,0x53,0xAB,Read,NAK
2.25068725,1326,0xD4,0xA6,Write,ACK
2.2508085,1327,0xD5,0x12,Read,ACK
2.2508565,1327,0xD5,0x0F,Read,NAK
2.2509875,1328,0xD4,0xA8,Write,ACK
2.251107875,1329,0xD5,0xEE,Read,ACK
2.251155875,1329,0xD5,0xFF,Read,ACK
2.251203875,1329,0xD5,0x85,Read,ACK
2.251251875,1329,0xD5,0xFF,Read,ACK
2.251299875,1329,0xD5,0xEE,Read,ACK
2.2513555,1329,0xD5,0xFF,Read,NAK
2.2514855,1330,0x52,0x02,Write,ACK
2.251605875,1331,0x53,0x00,Read,ACK
2.251653875,1331,0x53,0x00,Read,ACK
2.251702,1331,0x53,0x4F,Read,ACK
2.251750125,1331,0x53,0xC0,Read,ACK
2.251798375,1331,0x53,0xBD,Read,ACK
2.2518465,1331,0x53,0x80,Read,ACK
2.251902125,1331,0x53,0xAB,Read,NAK
2.260687,1332,0xD4,0xA6,Write,ACK
2.260808375,1333,0xD5,0x12,Read,ACK
2.260856375,1333,0xD5,0x0F,Read,NAK
2.260987375,1334,0xD4,0xA8,Write,ACK
2.26110775,1335,0xD5,0xF2,Read,ACK
2.26115575,1335,0xD5,0xFF,Read,ACK
2.26120375,1335,0xD5,0x87,Read,ACK
2.26125175,1335,0xD5,0xFF,Read,ACK
2.26129975,1335,0xD5,0xEB,Read,ACK
2.261355375,1335,0xD5,0xFF,Read,NAK
2.261485375,1336,0x52,0x02,Write,ACK
2.261605625,1337,0x53,0x00,Read,ACK
2.261653625,1337,0x53,0x00,Read,ACK
2.261701875,1337,0x53,0x4F,Read,ACK
2.26175,1337,0x53,0xC0,Read,ACK
2.26179825,1337,0x53,0xBD,Read,ACK
2.261846375,1337,0x53,0x80,Read,ACK
2.261902,1337,0x53,0xAB,Read,NAK
2.270686625,1338,0xD4,0xA6,Write,ACK
2.270807875,1339,0xD5,0x12,Read,ACK
2.270855875,1339,0xD5,0x0F,Read,NAK
2.270986875,1340,0xD4,0xA8,Write,ACK
2.27110725,1341,0xD5,0xF1,Read,ACK
2.27115525,1341,0xD5,0xFF,Read,ACK
2.27120325,1341,0xD5,0x84,Read,ACK
2.27125125,1341,0xD5,0xFF,Read,ACK
2.27129925,1341,0xD5,0xEE,Read,ACK
2.271354875,1341,0xD5,0xFF,Read,NAK
2.271484875,1342,0x52,0x02,Write,ACK
2.27160525,1343,0x53,0x00,Read,ACK
2.27165325,1343,0x53,0x00,Read,ACK
2.271701375,1343,0x53,0x4F,Read,ACK
2.2717495,1343,0x53,0xC0,Read,ACK
2.271797875,1343,0x53,0xBD,Read,ACK
2.271845875,1343,0x53,0x80,Read,ACK
2.2719015,1343,0x53,0xAB,Read,NAK
2.2806865,1344,0xD4,0xA6,Write,ACK
2.28080775,1345,0xD5,0x12,Read,ACK
2.28085575,1345,0xD5,0x0F,Read,NAK
2.28098675,1346,0xD4,0xA8,Write,ACK
2.281107125,1347,0xD5,0xEC,Read,ACK
2.281155125,1347,0xD5,0xFF,Read,ACK
2.281203125,1347,0xD5,0x7E,Read,ACK
2.281251125,1347,0xD5,0xFF,Read,ACK
2.281299125,1347,0xD5,0xF1,Read,ACK
2.28135475,1347,0xD5,0xFF,Read,NAK
2.28148475,1348,0x52,0x02,Write,ACK
2.281605125,1349,0x53,0x00,Read,ACK
2.281653125,1349,0x53,0x00,Read,ACK
2.28170125,1349,0x53,0x4F,Read,ACK
2.281749375,1349,0x53,0xC0,Read,ACK
2.281797625,1349,0x53,0xBD,Read,ACK
2.28184575,1349,0x53,0x80,Read,ACK
2.281901375,1349,0x53,0xAB,Read,NAK
2.29068525,1350,0xD4,0xA6,Write,ACK
2.290806625,1351,0xD5,0x13,Read,ACK
2.290854625,1351,0xD5,0x0F,Read,NAK
2.290985625,1352,0xD4,0xA8,Write,ACK
2.291106,1353,0xD5,0xE8,Read,ACK
2.291154,1353,0xD5,0xFF,Read,ACK
2.291202,1353,0xD5,0x7B,Read,ACK
2.29125,1353,0xD5,0xFF,Read,ACK
2.291298,1353,0xD5,0xEF,Read,ACK
2.291353625,1353,0xD5,0xFF,Read,NAK
2.291483625,1354,0x52,0x02,Write,ACK
2.291603875,1355,0x53,0x00,Read,ACK
2.291651875,1355,0x53,0x00,Read,ACK
2.291700125,1355,0x53,0x4F,Read,ACK
2.29174825,1355,0x53,0xC0,Read,ACK
2.2917965,1355,0x53,0xBD,Read,ACK
2.291844625,1355,0x53,0x80,Read,ACK
2.29190025,1355,0x53,0xAB,Read,NAK
2.300685875,1356,0xD4,0xA6,Write,ACK
2.300807125,1357,0xD5,0x13,Read,ACK
2.300855125,1357,0xD5,0x00,Read,NAK
2.300989125,1358,0x52,0x02,Write,ACK
2.3011095,1359,0x53,0x00,Read,ACK
2.3011575,1359,0x53,0x00,Read,ACK
2.301205625,1359,0x53,0x4F,Read,ACK
2.30125375,1359,0x53,0xC0,Read,ACK
2.301302125,1359,0x53,0xBD,Read,ACK
2.301350125,1359,0x53,0x80,Read,ACK
2.30140575,1359,0x53,0xAB,Read,NAK
2.31068575,1360,0xD4,0xA6,Write,ACK
2.310807,1361,0xD5,0x13,Read,ACK
2.310855,1361,0xD5,0x0F,Read,NAK
2.310986,1362,0xD4,0xA8,Write,ACK
2.311106375,1363,0xD5,0xE5,Read,ACK
2.311154375,1363,0xD5,0xFF,Read,ACK
2.311202375,1363,0xD5,0x7A,Read,ACK
2.311250375,1363,0xD5,0xFF,Read,ACK
2.311298375,1363,0xD5,0xEC,Read,ACK
2.311354,1363,0xD5,0xFF,Read,NAK
2.311484,1364,0x52,0x02,Write,ACK
2.311604375,1365,0x53,0x00,Read,ACK
2.311652375,1365,0x53,0x00,Read,ACK
2.3117005,1365,0x53,0x4F,Read,ACK
2.31174825,1365,0x53,0xC0,Read,ACK
2.3117965,1365,0x53,0xBD,Read,ACK
2.311844625,1365,0x53,0x80,Read,ACK
2.31190025,1365,0x53,0xAB,Read,NAK
2.32068525,1366,0xD4,0xA6,Write,ACK
2.3208065,1367,0xD5,0x13,Read,ACK
2.3208545,1367,0xD5,0x0F,Read,NAK
2.3209855,1368,0xD4,0xA8,Write,ACK
2.321105875,1369,0xD5,0xE4,Read,ACK
2.321153875,1369,0xD5,0xFF,Read,ACK
2.321201875,1369,0xD5,0x7D,Read,ACK
2.321249875,1369,0xD5,0xFF,Read,ACK
2.321297875,1369,0xD5,0xEC,Read,ACK
2.3213535,1369,0xD5,0xFF,Read,NAK
2.3214835,1370,0x52,0x02,Write,ACK
2.321603875,1371,0x53,0x00,Read,ACK
2.321651875,1371,0x53,0x00,Read,ACK
2.3217,1371,0x53,0x4F,Read,ACK
2.321747875,1371,0x53,0xC0,Read,ACK
2.321796125,1371,0x53,0xBD,Read,ACK
2.321844125,1371,0x53,0x80,Read,ACK
2.321899875,1371,0x53,0xAB,Read,NAK
2.330684375,1372,0xD4,0xA6,Write,ACK
2.33080575,1373,0xD5,0x13,Read,ACK
2.33085375,1373,0xD5,0x0F,Read,NAK
2.33098475,1374,0xD4,0xA8,Write,ACK
2.331105,1375,0xD5,0xE2,Read,ACK
2.331153,1375,0xD5,0xFF,Read,ACK
2.331201,1375,0xD5,0x82,Read,ACK
2.331249,1375,0xD5,0xFF,Read,ACK
2.331297,1375,0xD5,0xEE,Read,ACK
2.33135275,1375,0xD5,0xFF,Read,NAK
2.33148275,1376,0x52,0x02,Write,ACK
2.331603,1377,0x53,0x00,Read,ACK
2.331651,1377,0x53,0x00,Read,ACK
2.33169925,1377,0x53,0x4F,Read,ACK
2.331747375,1377,0x53,0xC0,Read,ACK
2.33179575,1377,0x53,0xBD,Read,ACK
2.33184375,1377,0x53,0x80,Read,ACK
2.331899375,1377,0x53,0xAB,Read,NAK
2.34068325,1378,0xD4,0xA6,Write,ACK
2.340804625,1379,0xD5,0x13,Read,ACK
2.340852625,1379,0xD5,0x0F,Read,NAK
2.340983625,1380,0xD4,0xA8,Write,ACK
2.341103875,1381,0xD5,0xDE,Read,ACK
2.341151875,1381,0xD5,0xFF,Read,ACK
2.341199875,1381,0xD5,0x83,Read,ACK
2.341247875,1381,0xD5,0xFF,Read,ACK
2.341295875,1381,0xD5,0xEF,Read,ACK
2.341351625,1381,0xD5,0xFF,Read,NAK
2.341481625,1382,0x52,0x02,Write,ACK
2.341601875,1383,0x53,0x00,Read,ACK
2.341649875,1383,0x53,0x00,Read,ACK
2.341698125,1383,0x53,0x4F,Read,ACK
2.34174625,1383,0x53,0xC0,Read,ACK
2.3417945,1383,0x53,0xBD,Read,ACK
2.3418425,1383,0x53,0x80,Read,ACK
2.34189825,1383,0x53,0xAB,Read,NAK
2.3506825,1384,0xD4,0xA6,Write,ACK
2.35080375,1385,0xD5,0x13,Read,ACK
2.35085175,1385,0xD5,0x0F,Read,NAK
2.35098275,1386,0xD4,0xA8,Write,ACK
2.351103125,1387,0xD5,0xD8,Read,ACK
2.351151125,1387,0xD5,0xFF,Read,ACK
2.351199125,1387,0xD5,0x7D,Read,ACK
2.351247125,1387,0xD5,0xFF,Read,ACK
2.351295125,1387,0xD5,0xEF,Read,ACK
2.35135075,1387,0xD5,0xFF,Read,NAK
2.35148075,1388,0x52,0x02,Write,ACK
2.351601125,1389,0x53,0x00,Read,ACK
2.351649125,1389,0x53,0x00,Read,ACK
2.35169725,1389,0x53,0x4F,Read,ACK
2.351745125,1389,0x53,0xC0,Read,ACK
2.351793375,1389,0x53,0xBD,Read,ACK
2.351841375,1389,0x53,0x80,Read,ACK
2.351897125,1389,0x53,0xAB,Read,NAK
2.360682,1390,0xD4,0xA6,Write,ACK
2.360803375,1391,0xD5,0x13,Read,ACK
2.360851375,1391,0xD5,0x0F,Read,NAK
2.360982375,1392,0xD4,0xA8,Write,ACK
2.361102625,1393,0xD5,0xD4,Read,ACK
2.361150625,1393,0xD5,0xFF,Read,ACK
2.361198625,1393,0xD5,0x74,Read,ACK
2.361246625,1393,0xD5,0xFF,Read,ACK
2.361294625,1393,0xD5,0xEF,Read,ACK
2.36135025,1393,0xD5,0xFF,Read,NAK
2.36148025,1394,0x52,0x02,Write,ACK
2.361600625,1395,0x53,0x00,Read,ACK
2.361648625,1395,0x53,0x00,Read,ACK
2.36169675,1395,0x53,0x4F,Read,ACK
2.361744625,1395,0x53,0xC0,Read,ACK
2.361792875,1395,0x53,0xBD,Read,ACK
2.361841,1395,0x53,0x80,Read,ACK
2.361896625,1395,0x53,0xAB,Read,NAK
2.370681875,1396,0xD4,0xA6,Write,ACK
2.370803125,1397,0xD5,0x13,Read,ACK
2.370851125,1397,0xD5,0x0F,Read,NAK
2.370982125,1398,0xD4,0xA8,Write,ACK
2.3711025,1399,0xD5,0xD7,Read,ACK
2.3711505,1399,0xD5,0xFF,Read,ACK
2.3711985,1399,0xD5,0x72,Read,ACK
2.3712465,1399,0xD5,0xFF,Read,ACK
2.3712945,1399,0xD5,0xEF,Read,ACK
2.371350125,1399,0xD5,0xFF,Read,NAK
2.371480125,1400,0x52,0x02,Write,ACK
2.3716005,1401,0x53,0x00,Read,ACK
2.3716485,1401,0x53,0x00,Read,ACK
2.371696625,1401,0x53,0x4F,Read,ACK
2.3717445,1401,0x53,0xC0,Read,ACK
2.37179275,1401,0x53,0xBD,Read,ACK
2.37184075,1401,0x53,0x80,Read,ACK
2.3718965,1401,0x53,0xAB,Read,NAK
2.38068075,1402,0xD4,0xA6,Write,ACK
2.380802,1403,0xD5,0x13,Read,ACK
2.38085,1403,0xD5,0x0F,Read,NAK
2.380981,1404,0xD4,0xA8,Write,ACK
2.381101375,1405,0xD5,0xDD,Read,ACK
2.381149375,1405,0xD5,0xFF,Read,ACK
2.381197375,1405,0xD5,0x7B,Read,ACK
2.381245375,1405,0xD5,0xFF,Read,ACK
2.381293375,1405,0xD5,0xEE,Read,ACK
2.381349,1405,0xD5,0xFF,Read,NAK
2.381479,1406,0x52,0x02,Write,ACK
2.381599375,1407,0x53,0x00,Read,ACK
2.381647375,1407,0x53,0x00,Read,ACK
2.381695625,1407,0x53,0x4F,Read,ACK
2.381743625,1407,0x53,0xC0,Read,ACK
2.381792,1407,0x53,0xBD,Read,ACK
2.38184,1407,0x53,0x80,Read,ACK
2.381895625,1407,0x53,0xAB,Read,NAK
2.39068025,1408,0xD4,0xA6,Write,ACK
2.390801625,1409,0xD5,0x13,Read,ACK
2.390849625,1409,0xD5,0x0F,Read,NAK
2.390980625,1410,0xD4,0xA8,Write,ACK
2.391100875,1411,0xD5,0xDE,Read,ACK
2.391148875,1411,0xD5,0xFF,Read,ACK
2.391196875,1411,0xD5,0x8A,Read,ACK
2.391244875,1411,0xD5,0xFF,Read,ACK
2.391292875,1411,0xD5,0xEF,Read,ACK
2.3913485,1411,0xD5,0xFF,Read,NAK
2.3914785,1412,0x52,0x02,Write,ACK
2.391598875,1413,0x53,0x00,Read,ACK
2.391646875,1413,0x53,0x00,Read,ACK
2.391695,1413,0x53,0x4F,Read,ACK
2.391742875,1413,0x53,0xC0,Read,ACK
2.39179125,1413,0x53,0xBD,Read,ACK
2.39183925,1413,0x53,0x80,Read,ACK
2.391894875,1413,0x53,0xAB,Read,NAK
2.40067975,1414,0xD4,0xA6,Write,ACK
2.400801125,1415,0xD5,0x13,Read,ACK
2.400849125,1415,0xD5,0x0F,Read,NAK
2.400980125,1416,0xD4,0xA8,Write,ACK
2.401100375,1417,0xD5,0xD6,Read,ACK
2.401148375,1417,0xD5,0xFF,Read,ACK
2.401196375,1417,0xD5,0x93,Read,ACK
2.401244375,1417,0xD5,0xFF,Read,ACK
2.401292375,1417,0xD5,0xF1,Read,ACK
2.401348125,1417,0xD5,0xFF,Read,NAK
2.401478125,1418,0x52,0x02,Write,ACK
2.401598375,1419,0x53,0x00,Read,ACK
2.401646375,1419,0x53,0x00,Read,ACK
2.401694625,1419,0x53,0x4F,Read,ACK
2.40174275,1419,0x53,0xC0,Read,ACK
2.401791,1419,0x53,0xBD,Read,ACK
2.401839,1419,0x53,0x80,Read,ACK
2.40189475,1419,0x53,0xAB,Read,NAK
2.410679,1420,0xD4,0xA6,Write,ACK
2.41080025,1421,0xD5,0x13,Read,ACK
2.41084825,1421,0xD5,0x0F,Read,NAK
2.41097925,1422,0xD4,0xA8,Write,ACK
2.411099625,1423,0xD5,0xCC,Read,ACK
2.411147625,1423,0xD5,0xFF,Read,ACK
2.411195625,1423,0xD5,0x90,Read,ACK
2.411243625,1423,0xD5,0xFF,Read,ACK
2.411291625,1423,0xD5,0xF2,Read,ACK
2.41134725,1423,0xD5,0xFF,Read,NAK
2.41147725,1424,0x52,0x02,Write,ACK
2.411597625,1425,0x53,0x00,Read,ACK
2.411645625,1425,0x53,0x00,Read,ACK
2.41169375,1425,0x53,0x4F,Read,ACK
2.411741875,1425,0x53,0xC0,Read,ACK
2.411790125,1425,0x53,0xBD,Read,ACK
2.41183825,1425,0x53,0x80,Read,ACK
2.411893875,1425,0x53,0xAB,Read,NAK
2.420679125,1426,0xD4,0xA6,Write,ACK
2.4208005,1427,0xD5,0x13,Read,ACK
2.4208485,1427,0xD5,0x0F,Read,NAK
2.4209795,1428,0xD4,0xA8,Write,ACK
2.42109975,1429,0xD5,0xC7,Read,ACK
2.42114775,1429,0xD5,0xFF,Read,ACK
2.42119575,1429,0xD5,0x88,Read,ACK
2.42124375,1429,0xD5,0xFF,Read,ACK
2.42129175,1429,0xD5,0xF0,Read,ACK
2.4213475,1429,0xD5,0xFF,Read,NAK
2.4214775,1430,0x52,0x02,Write,ACK
2.42159775,1431,0x53,0x00,Read,ACK
2.42164575,1431,0x53,0x00,Read,ACK
2.421694125,1431,0x53,0x4F,Read,ACK
2.421742125,1431,0x53,0xC0,Read,ACK
2.421790375,1431,0x53,0xBD,Read,ACK
2.4218385,1431,0x53,0x80,Read,ACK
2.421894125,1431,0x53,0xAB,Read,NAK
2.430679,1432,0xD4,0xA6,Write,ACK
2.430800375,1433,0xD5,0x13,Read,ACK
2.430848375,1433,0xD5,0x0F,Read,NAK
2.430979375,1434,0xD4,0xA8,Write,ACK
2.431099625,1435,0xD5,0xC9,Read,ACK
2.431147625,1435,0xD5,0xFF,Read,ACK
2.431195625,1435,0xD5,0x82,Read,ACK
2.431243625,1435,0xD5,0xFF,Read,ACK
2.431291625,1435,0xD5,0xF0,Read,ACK
2.431347375,1435,0xD5,0xFF,Read,NAK
2.431477375,1436,0x52,0x02,Write,ACK
2.431597625,1437,0x53,0x00,Read,ACK
2.431645625,1437,0x53,0x00,Read,ACK
2.43169375,1437,0x53,0x4F,Read,ACK
2.431741625,1437,0x53,0xC0,Read,ACK
2.431789875,1437,0x53,0xBD,Read,ACK
2.431838,1437,0x53,0x80,Read,ACK
2.431893625,1437,0x53,0xAB,Read,NAK
2.4406785,1438,0xD4,0xA6,Write,ACK
2.440799875,1439,0xD5,0x13,Read,ACK
2.440847875,1439,0xD5,0x0F,Read,NAK
2.440978875,1440,0xD4,0xA8,Write,ACK
2.44109925,1441,0xD5,0xCF,Read,ACK
2.44114725,1441,0xD5,0xFF,Read,ACK
2.44119525,1441,0xD5,0x7E,Read,ACK
2.44124325,1441,0xD5,0xFF,Read,ACK
2.441291125,1441,0xD5,0xF5,Read,ACK
2.441346875,1441,0xD5,0xFF,Read,NAK
2.441476875,1442,0x52,0x02,Write,ACK
2.441597125,1443,0x53,0x00,Read,ACK
2.441645125,1443,0x53,0x00,Read,ACK
2.441693375,1443,0x53,0x4F,Read,ACK
2.4417415,1443,0x53,0xC0,Read,ACK
2.441789875,1443,0x53,0xBD,Read,ACK
2.441837875,1443,0x53,0x80,Read,ACK
2.4418935,1443,0x53,0xAB,Read,NAK
2.450677125,1444,0xD4,0xA6,Write,ACK
2.450798375,1445,0xD5,0x13,Read,ACK
2.450846375,1445,0xD5,0x0F,Read,NAK
2.450977375,1446,0xD4,0xA8,Write,ACK
2.45109775,1447,0xD5,0xD7,Read,ACK
2.45114575,1447,0xD5,0xFF,Read,ACK
2.45119375,1447,0xD5,0x79,Read,ACK
2.45124175,1447,0xD5,0xFF,Read,ACK
2.45128975,1447,0xD5,0xFA,Read,ACK
2.451345375,1447,0xD5,0xFF,Read,NAK
2.451475375,1448,0x52,0x02,Write,ACK
2.45159575,1449,0x53,0x00,Read,ACK
2.45164375,1449,0x53,0x00,Read,ACK
2.451691875,1449,0x53,0x4F,Read,ACK
2.45173975,1449,0x53,0xC0,Read,ACK
2.451788,1449,0x53,0xBD,Read,ACK
2.451836,1449,0x53,0x80,Read,ACK
2.451891625,1449,0x53,0xAB,Read,NAK
2.460676625,1450,0xD4,0xA6,Write,ACK
2.460797875,1451,0xD5,0x13,Read,ACK
2.460845875,1451,0xD5,0x0F,Read,NAK
2.460976875,1452,0xD4,0xA8,Write,ACK
2.46109725,1453,0xD5,0xDB,Read,ACK
2.46114525,1453,0xD5,0xFF,Read,ACK
2.46119325,1453,0xD5,0x76,Read,ACK
2.46124125,1453,0xD5,0xFF,Read,ACK
2.46128925,1453,0xD5,0xFA,Read,ACK
2.461344875,1453,0xD5,0xFF,Read,NAK
2.461474875,1454,0x52,0x02,Write,ACK
2.46159525,1455,0x53,0x00,Read,ACK
2.46164325,1455,0x53,0x00,Read,ACK
2.461691375,1455,0x53,0x4F,Read,ACK
2.4617395,1455,0x53,0xC0,Read,ACK
2.461787875,1455,0x53,0xBD,Read,ACK
2.461835875,1455,0x53,0x80,Read,ACK
2.4618915,1455,0x53,0xAB,Read,NAK
2.470676125,1456,0xD4,0xA6,Write,ACK
2.4707975,1457,0xD5,0x13,Read,ACK
2.4708455,1457,0xD5,0x0F,Read,NAK
2.4709765,1458,0xD4,0xA8,Write,ACK
2.47109675,1459,0xD5,0xD9,Read,ACK
2.47114475,1459,0xD5,0xFF,Read,ACK
2.47119275,1459,0xD5,0x7C,Read,ACK
2.47124075,1459,0xD5,0xFF,Read,ACK
2.47128875,1459,0xD5,0xF5,Read,ACK
2.471344375,1459,0xD5,0xFF,Read,NAK
2.471474375,1460,0x52,0x02,Write,ACK
2.47159475,1461,0x53,0x00,Read,ACK
2.47164275,1461,0x53,0x00,Read,ACK
2.471691,1461,0x53,0x4F,Read,ACK
2.471739125,1461,0x53,0xC0,Read,ACK
2.471787375,1461,0x53,0xBD,Read,ACK
2.471835375,1461,0x53,0x80,Read,ACK
2.471891125,1461,0x53,0xAB,Read,NAK
2.480675375,1462,0xD4,0xA6,Write,ACK
2.480796625,1463,0xD5,0x13,Read,ACK
2.480844625,1463,0xD5,0x00,Read,NAK
2.480978625,1464,0x52,0x02,Write,ACK
2.481099,1465,0x53,0x00,Read,ACK
2.481147,1465,0x53,0x00,Read,ACK
2.48119525,1465,0x53,0x4F,Read,ACK
2.48124325,1465,0x53,0xC0,Read,ACK
2.481291625,1465,0x53,0xBD,Read,ACK
2.481339625,1465,0x53,0x80,Read,ACK
2.48139525,1465,0x53,0xAB,Read,NAK
2.490674875,1466,0xD4,0xA6,Write,ACK
2.490796125,1467,0xD5,0x13,Read,ACK
2.490844125,1467,0xD5,0x0F,Read,NAK
2.490975125,1468,0xD4,0xA8,Write,ACK
2.4910955,1469,0xD5,0xD2,Read,ACK
2.4911435,1469,0xD5,0xFF,Read,ACK
2.4911915,1469,0xD5,0x89,Read,ACK
2.4912395,1469,0xD5,0xFF,Read,ACK
2.4912875,1469,0xD5,0xF3,Read,ACK
2.491343125,1469,0xD5,0xFF,Read,NAK
2.491473125,1470,0x52,0x02,Write,ACK
2.4915935,1471,0x53,0x00,Read,ACK
2.4916415,1471,0x53,0x00,Read,ACK
2.491689625,1471,0x53,0x4F,Read,ACK
2.4917375,1471,0x53,0xC0,Read,ACK
2.49178575,1471,0x53,0xBD,Read,ACK
2.49183375,1471,0x53,0x80,Read,ACK
2.4918895,1471,0x53,0xAB,Read,NAK
2.50067575,1472,0xD4,0xA6,Write,ACK
2.500797,1473,0xD5,0x13,Read,ACK
2.500845,1473,0xD5,0x0F,Read,NAK
2.500976,1474,0xD4,0xA8,Write,ACK
2.501096375,1475,0xD5,0xCA,Read,ACK
2.501144375,1475,0xD5,0xFF,Read,ACK
2.501192375,1475,0xD5,0x91,Read,ACK
2.501240375,1475,0xD5,0xFF,Read,ACK
2.501288375,1475,0xD5,0xF4,Read,ACK
2.501344,1475,0xD5,0xFF,Read,NAK
2.501474,1476,0x52,0x02,Write,ACK
2.501594375,1477,0x53,0x00,Read,ACK
2.501642375,1477,0x53,0x00,Read,ACK
2.5016905,1477,0x53,0x4F,Read,ACK
2.501738625,1477,0x53,0xC0,Read,ACK
2.501787,1477,0x53,0xBD,Read,ACK
2.501835,1477,0x53,0x80,Read,ACK
2.501890625,1477,0x53,0xAB,Read,NAK
2.51067525,1478,0xD4,0xA6,Write,ACK
2.510796625,1479,0xD5,0x13,Read,ACK
2.510844625,1479,0xD5,0x0F,Read,NAK
2.510975625,1480,0xD4,0xA8,Write,ACK
2.511095875,1481,0xD5,0xC9,Read,ACK
2.511143875,1481,0xD5,0xFF,Read,ACK
2.511191875,1481,0xD5,0x91,Read,ACK
2.511239875,1481,0xD5,0xFF,Read,ACK
2.511287875,1481,0xD5,0xF4,Read,ACK
2.5113435,1481,0xD5,0xFF,Read,NAK
2.5114735,1482,0x52,0x02,Write,ACK
2.511593875,1483,0x53,0x00,Read,ACK
2.511641875,1483,0x53,0x00,Read,ACK
2.51169,1483,0x53,0x4F,Read,ACK
2.51173825,1483,0x53,0xC0,Read,ACK
2.5117865,1483,0x53,0xBD,Read,ACK
2.5118345,1483,0x53,0x80,Read,ACK
2.511890125,1483,0x53,0xAB,Read,NAK
2.520675125,1484,0xD4,0xA6,Write,ACK
2.520796375,1485,0xD5,0x13,Read,ACK
2.520844375,1485,0xD5,0x0F,Read,NAK
2.520975375,1486,0xD4,0xA8,Write,ACK
2.52109575,1487,0xD5,0xD3,Read,ACK
2.52114375,1487,0xD5,0xFF,Read,ACK
2.52119175,1487,0xD5,0x8D,Read,ACK
2.52123975,1487,0xD5,0xFF,Read,ACK
2.52128775,1487,0xD5,0xF0,Read,ACK
2.521343375,1487,0xD5,0xFF,Read,NAK
2.521473375,1488,0x52,0x02,Write,ACK
2.52159375,1489,0x53,0x00,Read,ACK
2.52164175,1489,0x53,0x00,Read,ACK
2.52169,1489,0x53,0x4F,Read,ACK
2.521738,1489,0x53,0xC0,Read,ACK
2.52178625,1489,0x53,0xBD,Read,ACK
2.521834375,1489,0x53,0x80,Read,ACK
2.52189,1489,0x53,0xAB,Read,NAK
2.53067425,1490,0xD4,0xA6,Write,ACK
2.530795625,1491,0xD5,0x13,Read,ACK
2.530843625,1491,0xD5,0x0F,Read,NAK
2.530974625,1492,0xD4,0xA8,Write,ACK
2.531095,1493,0xD5,0xE1,Read,ACK
2.531143,1493,0xD5,0xFF,Read,ACK
2.531191,1493,0xD5,0x8A,Read,ACK
2.531239,1493,0xD5,0xFF,Read,ACK
2.531286875,1493,0xD5,0xEA,Read,ACK
2.531342625,1493,0xD5,0xFF,Read,NAK
2.531472625,1494,0x52,0x02,Write,ACK
2.531592875,1495,0x53,0x00,Read,ACK
2.531640875,1495,0x53,0x00,Read,ACK
2.531689,1495,0x53,0x4F,Read,ACK
2.531736875,1495,0x53,0xC0,Read,ACK
2.531785125,1495,0x53,0xBD,Read,ACK
2.53183325,1495,0x53,0x80,Read,ACK
2.531888875,1495,0x53,0xAB,Read,NAK
2.540674125,1496,0xD4,0xA6,Write,ACK
2.5407955,1497,0xD5,0x13,Read,ACK
2.5408435,1497,0xD5,0x0F,Read,NAK
2.5409745,1498,0xD4,0xA8,Write,ACK
2.54109475,1499,0xD5,0xE6,Read,ACK
2.54114275,1499,0xD5,0xFF,Read,ACK
2.54119075,1499,0xD5,0x88,Read,ACK
2.54123875,1499,0xD5,0xFF,Read,ACK
2.54128675,1499,0xD5,0xE9,Read,ACK
2.5413425,1499,0xD5,0xFF,Read,NAK
2.5414725,1500,0x52,0x02,Write,ACK
2.54159275,1501,0x53,0x00,Read,ACK
2.54164075,1501,0x53,0x00,Read,ACK
2.541689,1501,0x53,0x4F,Read,ACK
2.541737125,1501,0x53,0xC0,Read,ACK
2.541785375,1501,0x53,0xBD,Read,ACK
2.5418335,1501,0x53,0x80,Read,ACK
2.541889125,1501,0x53,0xAB,Read,NAK
2.550673375,1502,0xD4,0xA6,Write,ACK
2.550794625,1503,0xD5,0x13,Read,ACK
2.550842625,1503,0xD5,0x0F,Read,NAK
2.550973625,1504,0xD4,0xA8,Write,ACK
2.551094,1505,0xD5,0xDF,Read,ACK
2.551142,1505,0xD5,0xFF,Read,ACK
2.55119,1505,0xD5,0x85,Read,ACK
2.551238,1505,0xD5,0xFF,Read,ACK
2.551286,1505,0xD5,0xEF,Read,ACK
2.551341625,1505,0xD5,0xFF,Read,NAK
2.551471625,1506,0x52,0x02,Write,ACK
2.551592,1507,0x53,0x00,Read,ACK
2.55164,1507,0x53,0x00,Read,ACK
2.551688125,1507,0x53,0x4F,Read,ACK
2.55173625,1507,0x53,0xC0,Read,ACK
2.551784625,1507,0x53,0xBD,Read,ACK
2.551832625,1507,0x53,0x80,Read,ACK
2.55188825,1507,0x53,0xAB,Read,NAK
2.560672875,1508,0xD4,0xA6,Write,ACK
2.56079425,1509,0xD5,0x13,Read,ACK
2.56084225,1509,0xD5,0x0F,Read,NAK
2.56097325,1510,0xD4,0xA8,Write,ACK
2.5610935,1511,0xD5,0xD5,Read,ACK
2.5611415,1511,0xD5,0xFF,Read,ACK
2.5611895,1511,0xD5,0x81,Read,ACK
2.5612375,1511,0xD5,0xFF,Read,ACK
2.5612855,1511,0xD5,0xF6,Read,ACK
2.561341125,1511,0xD5,0xFF,Read,NAK
2.561471125,1512,0x52,0x02,Write,ACK
2.5615915,1513,0x53,0x00,Read,ACK
2.5616395,1513,0x53,0x00,Read,ACK
2.56168775,1513,0x53,0x4F,Read,ACK
2.561735875,1513,0x53,0xC0,Read,ACK
2.561784125,1513,0x53,0xBD,Read,ACK
2.561832125,1513,0x53,0x80,Read,ACK
2.561887875,1513,0x53,0xAB,Read,NAK
2.570672125,1514,0xD4,0xA6,Write,ACK
2.570793375,1515,0xD5,0x13,Read,ACK
2.570841375,1515,0xD5,0x0F,Read,NAK
2.570972375,1516,0xD4,0xA8,Write,ACK
2.57109275,1517,0xD5,0xD7,Read,ACK
2.57114075,1517,0xD5,0xFF,Read,ACK
2.57118875,1517,0xD5,0x7A,Read,ACK
2.57123675,1517,0xD5,0xFF,Read,ACK
2.57128475,1517,0xD5,0xF8,Read,ACK
2.571340375,1517,0xD5,0xFF,Read,NAK
2.571470375,1518,0x52,0x02,Write,ACK
2.57159075,1519,0x53,0x00,Read,ACK
2.57163875,1519,0x53,0x00,Read,ACK
2.57168675,1519,0x53,0x4F,Read,ACK
2.57173475,1519,0x53,0xC0,Read,ACK
2.571782875,1519,0x53,0xBD,Read,ACK
2.571831,1519,0x53,0x80,Read,ACK
2.571886625,1519,0x53,0xAB,Read,NAK
2.580672,1520,0xD4,0xA6,Write,ACK
2.58079325,1521,0xD5,0x13,Read,ACK
2.58084125,1521,0xD5,0x0F,Read,NAK
2.58097225,1522,0xD4,0xA8,Write,ACK
2.581092625,1523,0xD5,0xE2,Read,ACK
2.581140625,1523,0xD5,0xFF,Read,ACK
2.581188625,1523,0xD5,0x73,Read,ACK
2.581236625,1523,0xD5,0xFF,Read,ACK
2.581284625,1523,0xD5,0xF2,Read,ACK
2.58134025,1523,0xD5,0xFF,Read,NAK
2.58147025,1524,0x52,0x02,Write,ACK
2.581590625,1525,0x53,0x00,Read,ACK
2.581638625,1525,0x53,0x00,Read,ACK
2.58168675,1525,0x53,0x4F,Read,ACK
2.581734875,1525,0x53,0xC0,Read,ACK
2.58178325,1525,0x53,0xBD,Read,ACK
2.58183125,1525,0x53,0x80,Read,ACK
2.581886875,1525,0x53,0xAB,Read,NAK
2.5906715,1526,0xD4,0xA6,Write,ACK
2.59079275,1527,0xD5,0x13,Read,ACK
2.59084075,1527,0xD5,0x0F,Read,NAK
2.59097175,1528,0xD4,0xA8,Write,ACK
2.591092125,1529,0xD5,0xE9,Read,ACK
2.591140125,1529,0xD5,0xFF,Read,ACK
2.591188125,1529,0xD5,0x6E,Read,ACK
2.591236125,1529,0xD5,0xFF,Read,ACK
2.591284125,1529,0xD5,0xEA,Read,ACK
2.59133975,1529,0xD5,0xFF,Read,NAK
2.59146975,1530,0x52,0x02,Write,ACK
2.591590125,1531,0x53,0x00,Read,ACK
2.591638125,1531,0x53,0x00,Read,ACK
2.59168625,1531,0x53,0x4F,Read,ACK
2.591734125,1531,0x53,0xC0,Read,ACK
2.591782375,1531,0x53,0xBD,Read,ACK
2.591830375,1531,0x53,0x80,Read,ACK
2.591886125,1531,0x53,0xAB,Read,NAK
2.600671,1532,0xD4,0xA6,Write,ACK
2.600792375,1533,0xD5,0x13,Read,ACK
2.600840375,1533,0xD5,0x0F,Read,NAK
2.600971375,1534,0xD4,0xA8,Write,ACK
2.601091625,1535,0xD5,0xE6,Read,ACK
2.601139625,1535,0xD5,0xFF,Read,ACK
2.601187625,1535,0xD5,0x70,Read,ACK
2.601235625,1535,0xD5,0xFF,Read,ACK
2.601283625,1535,0xD5,0xE6,Read,ACK
2.60133925,1535,0xD5,0xFF,Read,NAK
2.60146925,1536,0x52,0x02,Write,ACK
2.601589625,1537,0x53,0x00,Read,ACK
2.601637625,1537,0x53,0x00,Read,ACK
2.60168575,1537,0x53,0x4F,Read,ACK
2.601733625,1537,0x53,0xC0,Read,ACK
2.601781875,1537,0x53,0xBD,Read,ACK
2.60183,1537,0x53,0x80,Read,ACK
2.601885625,1537,0x53,0xAB,Read,NAK
2.6106705,1538,0xD4,0xA6,Write,ACK
2.610791875,1539,0xD5,0x13,Read,ACK
2.610839875,1539,0xD5,0x0F,Read,NAK
2.610970875,1540,0xD4,0xA8,Write,ACK
2.611091125,1541,0xD5,0xE0,Read,ACK
2.611139125,1541,0xD5,0xFF,Read,ACK
2.611187125,1541,0xD5,0x7A,Read,ACK
2.611235125,1541,0xD5,0xFF,Read,ACK
2.611283125,1541,0xD5,0xE4,Read,ACK
2.611338875,1541,0xD5,0xFF,Read,NAK
2.611468875,1542,0x52,0x02,Write,ACK
2.611589125,1543,0x53,0x00,Read,ACK
2.611637125,1543,0x53,0x00,Read,ACK
2.61168525,1543,0x53,0x4F,Read,ACK
2.611733125,1543,0x53,0xC0,Read,ACK
2.6117815,1543,0x53,0xBD,Read,ACK
2.6118295,1543,0x53,0x80,Read,ACK
2.611885125,1543,0x53,0xAB,Read,NAK
2.620669375,1544,0xD4,0xA6,Write,ACK
2.62079075,1545,0xD5,0x13,Read,ACK
2.62083875,1545,0xD5,0x0F,Read,NAK
2.62096975,1546,0xD4,0xA8,Write,ACK
2.62109,1547,0xD5,0xDF,Read,ACK
2.621138,1547,0xD5,0xFF,Read,ACK
2.621186,1547,0xD5,0x84,Read,ACK
2.621234,1547,0xD5,0xFF,Read,ACK
2.621282,1547,0xD5,0xE5,Read,ACK
2.621337625,1547,0xD5,0xFF,Read,NAK
2.621467625,1548,0x52,0x02,Write,ACK
2.621588,1549,0x53,0x00,Read,ACK
2.621636,1549,0x53,0x00,Read,ACK
2.621684125,1549,0x53,0x4F,Read,ACK
2.621732375,1549,0x53,0xC0,Read,ACK
2.62178075,1549,0x53,0xBD,Read,ACK
2.621828625,1549,0x53,0x80,Read,ACK
2.621884375,1549,0x53,0xAB,Read,NAK
2.630669875,1550,0xD4,0xA6,Write,ACK
2.63079125,1551,0xD5,0x13,Read,ACK
2.63083925,1551,0xD5,0x0F,Read,NAK
2.63097025,1552,0xD4,0xA8,Write,ACK
2.6310905,1553,0xD5,0xDF,Read,ACK
2.6311385,1553,0xD5,0xFF,Read,ACK
2.6311865,1553,0xD5,0x89,Read,ACK
2.6312345,1553,0xD5,0xFF,Read,ACK
2.6312825,1553,0xD5,0xE8,Read,ACK
2.63133825,1553,0xD5,0xFF,Read,NAK
2.63146825,1554,0x52,0x02,Write,ACK
2.6315885,1555,0x53,0x00,Read,ACK
2.6316365,1555,0x53,0x00,Read,ACK
2.63168475,1555,0x53,0x4F,Read,ACK
2.631732875,1555,0x53,0xC0,Read,ACK
2.631781125,1555,0x53,0xBD,Read,ACK
2.631829125,1555,0x53,0x80,Read,ACK
2.631884875,1555,0x53,0xAB,Read,NAK
2.64066975,1556,0xD4,0xA6,Write,ACK
2.640791125,1557,0xD5,0x13,Read,ACK
2.640839125,1557,0xD5,0x0F,Read,NAK
2.640970125,1558,0xD4,0xA8,Write,ACK
2.641090375,1559,0xD5,0xDA,Read,ACK
2.641138375,1559,0xD5,0xFF,Read,ACK
2.641186375,1559,0xD5,0x88,Read,ACK
2.641234375,1559,0xD5,0xFF,Read,ACK
2.641282375,1559,0xD5,0xEC,Read,ACK
2.641338125,1559,0xD5,0xFF,Read,NAK
2.641468125,1560,0x52,0x02,Write,ACK
2.641588375,1561,0x53,0x00,Read,ACK
2.641636375,1561,0x53,0x00,Read,ACK
2.641684625,1561,0x53,0x4F,Read,ACK
2.64173275,1561,0x53,0xC0,Read,ACK
2.641781,1561,0x53,0xBD,Read,ACK
2.641829,1561,0x53,0x80,Read,ACK
2.64188475,1561,0x53,0xAB,Read,NAK
2.650669,1562,0xD4,0xA6,Write,ACK
2.65079025,1563,0xD5,0x13,Read,ACK
2.65083825,1563,0xD5,0x0F,Read,NAK
2.65096925,1564,0xD4,0xA8,Write,ACK
2.651089625,1565,0xD5,0xCF,Read,ACK
2.651137625,1565,0xD5,0xFF,Read,ACK
2.651185625,1565,0xD5,0x8A,Read,ACK
2.651233625,1565,0xD5,0xFF,Read,ACK
2.651281625,1565,0xD5,0xEB,Read,ACK
2.65133725,1565,0xD5,0xFF,Read,NAK
2.65146725,1566,0x52,0x02,Write,ACK
2.651587625,1567,0x53,0x00,Read,ACK
2.651635625,1567,0x53,0x00,Read,ACK
2.65168375,1567,0x53,0x4F,Read,ACK
2.651731625,1567,0x53,0xC0,Read,ACK
2.651779875,1567,0x53,0xBD,Read,ACK
2.651827875,1567,0x53,0x80,Read,ACK
2.651883625,1567,0x53,0xAB,Read,NAK
2.660668125,1568,0xD4,0xA6,Write,ACK
2.6607895,1569,0xD5,0x13,Read,ACK
2.6608375,1569,0xD5,0x00,Read,NAK
2.6609715,1570,0x52,0x02,Write,ACK
2.66109175,1571,0x53,0x00,Read,ACK
2.66113975,1571,0x53,0x00,Read,ACK
2.661188,1571,0x53,0x4F,Read,ACK
2.661236125,1571,0x53,0xC0,Read,ACK
2.6612845,1571,0x53,0xBD,Read,ACK
2.6613325,1571,0x53,0x80,Read,ACK
2.661388125,1571,0x53,0xAB,Read,NAK
2.670668,1572,0xD4,0xA6,Write,ACK
2.670789375,1573,0xD5,0x13,Read,ACK
2.670837375,1573,0xD5,0x0F,Read,NAK
2.670968375,1574,0xD4,0xA8,Write,ACK
2.671088625,1575,0xD5,0xC7,Read,ACK
2.671136625,1575,0xD5,0xFF,Read,ACK
2.671184625,1575,0xD5,0x91,Read,ACK
2.671232625,1575,0xD5,0xFF,Read,ACK
2.671280625,1575,0xD5,0xE2,Read,ACK
2.671336375,1575,0xD5,0xFF,Read,NAK
2.671466375,1576,0x52,0x02,Write,ACK
2.671586625,1577,0x53,0x00,Read,ACK
2.671634625,1577,0x53,0x00,Read,ACK
2.67168275,1577,0x53,0x4F,Read,ACK
2.671730625,1577,0x53,0xC0,Read,ACK
2.671778875,1577,0x53,0xBD,Read,ACK
2.671827,1577,0x53,0x80,Read,ACK
2.671882625,1577,0x53,0xAB,Read,NAK
2.68066725,1578,0xD4,0xA6,Write,ACK
2.6807885,1579,0xD5,0x13,Read,ACK
2.6808365,1579,0xD5,0x0F,Read,NAK
2.6809675,1580,0xD4,0xA8,Write,ACK
2.681087875,1581,0xD5,0xC5,Read,ACK
2.681135875,1581,0xD5,0xFF,Read,ACK
2.681183875,1581,0xD5,0x95,Read,ACK
2.681231875,1581,0xD5,0xFF,Read,ACK
2.681279875,1581,0xD5,0xDA,Read,ACK
2.6813355,1581,0xD5,0xFF,Read,NAK
2.6814655,1582,0x52,0x02,Write,ACK
2.681585875,1583,0x53,0x00,Read,ACK
2.681633875,1583,0x53,0x00,Read,ACK
2.681682,1583,0x53,0x4F,Read,ACK
2.681729875,1583,0x53,0xC0,Read,ACK
2.681778125,1583,0x53,0xBD,Read,ACK
2.681826125,1583,0x53,0x80,Read,ACK
2.681881875,1583,0x53,0xAB,Read,NAK
2.690665375,1584,0xD4,0xA6,Write,ACK
2.69078675,1585,0xD5,0x13,Read,ACK
2.69083475,1585,0xD5,0x0F,Read,NAK
2.69096575,1586,0xD4,0xA8,Write,ACK
2.691086,1587,0xD5,0xCB,Read,ACK
2.691134,1587,0xD5,0xFF,Read,ACK
2.691182,1587,0xD5,0x8E,Read,ACK
2.69123,1587,0xD5,0xFF,Read,ACK
2.691278,1587,0xD5,0xD9,Read,ACK
2.69133375,1587,0xD5,0xFF,Read,NAK
2.69146375,1588,0x52,0x02,Write,ACK
2.691584,1589,0x53,0x00,Read,ACK
2.691632,1589,0x53,0x00,Read,ACK
2.69168025,1589,0x53,0x4F,Read,ACK
2.691728375,1589,0x53,0xC0,Read,ACK
2.691776625,1589,0x53,0xBD,Read,ACK
2.691824625,1589,0x53,0x80,Read,ACK
2.691880375,1589,0x53,0xAB,Read,NAK
2.700665625,1590,0xD4,0xA6,Write,ACK
2.700786875,1591,0xD5,0x13,Read,ACK
2.700834875,1591,0xD5,0x0F,Read,NAK
2.700965875,1592,0xD4,0xA8,Write,ACK
2.70108625,1593,0xD5,0xD4,Read,ACK
2.70113425,1593,0xD5,0xFF,Read,ACK
2.70118225,1593,0xD5,0x83,Read,ACK
2.70123025,1593,0xD5,0xFF,Read,ACK
2.70127825,1593,0xD5,0xDE,Read,ACK
2.701333875,1593,0xD5,0xFF,Read,NAK
2.701463875,1594,0x52,0x02,Write,ACK
2.70158425,1595,0x53,0x00,Read,ACK
2.70163225,1595,0x53,0x00,Read,ACK
2.701680375,1595,0x53,0x4F,Read,ACK
2.7017285,1595,0x53,0xC0,Read,ACK
2.70177675,1595,0x53,0xBD,Read,ACK
2.701824875,1595,0x53,0x80,Read,ACK
2.7018805,1595,0x53,0xAB,Read,NAK
2.71066475,1596,0xD4,0xA6,Write,ACK
2.710786125,1597,0xD5,0x13,Read,ACK
2.710834125,1597,0xD5,0x0F,Read,NAK
2.710965125,1598,0xD4,0xA8,Write,ACK
2.7110855,1599,0xD5,0xDC,Read,ACK
2.7111335,1599,0xD5,0xFF,Read,ACK
2.7111815,1599,0xD5,0x7D,Read,ACK
2.7112295,1599,0xD5,0xFF,Read,ACK
2.711277375,1599,0xD5,0xE5,Read,ACK
2.711333125,1599,0xD5,0xFF,Read,NAK
2.711463125,1600,0x52,0x02,Write,ACK
2.711583375,1601,0x53,0x00,Read,ACK
2.711631375,1601,0x53,0x00,Read,ACK
2.711679625,1601,0x53,0x4F,Read,ACK
2.71172775,1601,0x53,0xC0,Read,ACK
2.711776,1601,0x53,0xBD,Read,ACK
2.711824125,1601,0x53,0x80,Read,ACK
2.71187975,1601,0x53,0xAB,Read,NAK
2.720664625,1602,0xD4,0xA6,Write,ACK
2.720786,1603,0xD5,0x13,Read,ACK
2.720834,1603,0xD5,0x0F,Read,NAK
2.720965,1604,0xD4,0xA8,Write,ACK
2.72108525,1605,0xD5,0xDF,Read,ACK
2.72113325,1605,0xD5,0xFF,Read,ACK
2.72118125,1605,0xD5,0x7F,Read,ACK
2.72122925,1605,0xD5,0xFF,Read,ACK
2.72127725,1605,0xD5,0xEA,Read,ACK
2.721333,1605,0xD5,0xFF,Read,NAK
2.721463,1606,0x52,0x02,Write,ACK
2.72158325,1607,0x53,0x00,Read,ACK
2.72163125,1607,0x53,0x00,Read,ACK
2.721679375,1607,0x53,0x4F,Read,ACK
2.72172725,1607,0x53,0xC0,Read,ACK
2.721775625,1607,0x53,0xBD,Read,ACK
2.721823625,1607,0x53,0x80,Read,ACK
2.72187925,1607,0x53,0xAB,Read,NAK
2.7306645,1608,0xD4,0xA6,Write,ACK
2.730785875,1609,0xD5,0x13,Read,ACK
2.730833875,1609,0xD5,0x0F,Read,NAK
2.730964875,1610,0xD4,0xA8,Write,ACK
2.731085125,1611,0xD5,0xDC,Read,ACK
2.731133125,1611,0xD5,0xFF,Read,ACK
2.731181125,1611,0xD5,0x81,Read,ACK
2.731229125,1611,0xD5,0xFF,Read,ACK
2.731277125,1611,0xD5,0xEF,Read,ACK
2.731332875,1611,0xD5,0xFF,Read,NAK
2.731462875,1612,0x52,0x02,Write,ACK
2.731583125,1613,0x53,0x00,Read,ACK
2.731631125,1613,0x53,0x00,Read,ACK
2.731679375,1613,0x53,0x4F,Read,ACK
2.7317275,1613,0x53,0xC0,Read,ACK
2.73177575,1613,0x53,0xBD,Read,ACK
2.73182375,1613,0x53,0x80,Read,ACK
2.7318795,1613,0x53,0xAB,Read,NAK
2.74066375,1614,0xD4,0xA6,Write,ACK
2.740785,1615,0xD5,0x13,Read,ACK
2.740833,1615,0xD5,0x0F,Read,NAK
2.740964,1616,0xD4,0xA8,Write,ACK
2.741084375,1617,0xD5,0xD7,Read,ACK
2.741132375,1617,0xD5,0xFF,Read,ACK
2.741180375,1617,0xD5,0x80,Read,ACK
2.741228375,1617,0xD5,0xFF,Read,ACK
2.741276375,1617,0xD5,0xF3,Read,ACK
2.741332,1617,0xD5,0xFF,Read,NAK
2.741462,1618,0x52,0x02,Write,ACK
2.741582375,1619,0x53,0x00,Read,ACK
2.741630375,1619,0x53,0x00,Read,ACK
2.741678625,1619,0x53,0x4F,Read,ACK
2.741726625,1619,0x53,0xC0,Read,ACK
2.741775,1619,0x53,0xBD,Read,ACK
2.741823,1619,0x53,0x80,Read,ACK
2.741878625,1619,0x53,0xAB,Read,NAK
2.750662875,1620,0xD4,0xA6,Write,ACK
2.75078425,1621,0xD5,0x13,Read,ACK
2.75083225,1621,0xD5,0x0F,Read,NAK
2.75096325,1622,0xD4,0xA8,Write,ACK
2.7510835,1623,0xD5,0xD5,Read,ACK
2.7511315,1623,0xD5,0xFF,Read,ACK
2.7511795,1623,0xD5,0x80,Read,ACK
2.7512275,1623,0xD5,0xFF,Read,ACK
2.7512755,1623,0xD5,0xF6,Read,ACK
2.75133125,1623,0xD5,0xFF,Read,NAK
2.75146125,1624,0x52,0x02,Write,ACK
2.7515815,1625,0x53,0x00,Read,ACK
2.7516295,1625,0x53,0x00,Read,ACK
2.751677625,1625,0x53,0x4F,Read,ACK
2.751725875,1625,0x53,0xC0,Read,ACK
2.751774125,1625,0x53,0xBD,Read,ACK
2.751822125,1625,0x53,0x80,Read,ACK
2.751877875,1625,0x53,0xAB,Read,NAK
2.760663375,1626,0xD4,0xA6,Write,ACK
2.76078475,1627,0xD5,0x13,Read,ACK
2.76083275,1627,0xD5,0x0F,Read,NAK
2.76096375,1628,0xD4,0xA8,Write,ACK
2.761084125,1629,0xD5,0xDB,Read,ACK
2.761132125,1629,0xD5,0xFF,Read,ACK
2.761180125,1629,0xD5,0x84,Read,ACK
2.761228125,1629,0xD5,0xFF,Read,ACK
2.761276125,1629,0xD5,0xF5,Read,ACK
2.76133175,1629,0xD5,0xFF,Read,NAK
2.76146175,1630,0x52,0x02,Write,ACK
2.761582125,1631,0x53,0x00,Read,ACK
2.76163,1631,0x53,0x00,Read,ACK
2.76167825,1631,0x53,0x4F,Read,ACK
2.761726375,1631,0x53,0xC0,Read,ACK
2.76177475,1631,0x53,0xBD,Read,ACK
2.76182275,1631,0x53,0x80,Read,ACK
2.761878375,1631,0x53,0xAB,Read,NAK
2.770662625,1632,0xD4,0xA6,Write,ACK
2.770784,1633,0xD5,0x13,Read,ACK
2.770832,1633,0xD5,0x0F,Read,NAK
2.770963,1634,0xD4,0xA8,Write,ACK
2.77108325,1635,0xD5,0xE3,Read,ACK
2.77113125,1635,0xD5,0xFF,Read,ACK
2.77117925,1635,0xD5,0x8C,Read,ACK
2.77122725,1635,0xD5,0xFF,Read,ACK
2.77127525,1635,0xD5,0xF2,Read,ACK
2.771330875,1635,0xD5,0xFF,Read,NAK
2.771460875,1636,0x52,0x02,Write,ACK
2.77158125,1637,0x53,0x00,Read,ACK
2.77162925,1637,0x53,0x00,Read,ACK
2.771677375,1637,0x53,0x4F,Read,ACK
2.77172525,1637,0x53,0xC0,Read,ACK
2.7717735,1637,0x53,0xBD,Read,ACK
2.771821625,1637,0x53,0x80,Read,ACK
2.77187725,1637,0x53,0xAB,Read,NAK
2.780662875,1638,0xD4,0xA6,Write,ACK
2.780784125,1639,0xD5,0x13,Read,ACK
2.780832125,1639,0xD5,0x0F,Read,NAK
2.780963125,1640,0xD4,0xA8,Write,ACK
2.7810835,1641,0xD5,0xE3,Read,ACK
2.7811315,1641,0xD5,0xFF,Read,ACK
2.7811795,1641,0xD5,0x93,Read,ACK
2.7812275,1641,0xD5,0xFF,Read,ACK
2.7812755,1641,0xD5,0xEC,Read,ACK
2.781331125,1641,0xD5,0xFF,Read,NAK
2.781461125,1642,0x52,0x02,Write,ACK
2.7815815,1643,0x53,0x00,Read,ACK
2.7816295,1643,0x53,0x00,Read,ACK
2.78167775,1643,0x53,0x4F,Read,ACK
2.78172575,1643,0x53,0xC0,Read,ACK
2.78177425,1643,0x53,0xBD,Read,ACK
2.781822125,1643,0x53,0x80,Read,ACK
2.78187775,1643,0x53,0xAB,Read,NAK
2.790662,1644,0xD4,0xA6,Write,ACK
2.790783375,1645,0xD5,0x13,Read,ACK
2.790831375,1645,0xD5,0x0F,Read,NAK
2.790962375,1646,0xD4,0xA8,Write,ACK
2.791082625,1647,0xD5,0xDE,Read,ACK
2.791130625,1647,0xD5,0xFF,Read,ACK
2.791178625,1647,0xD5,0x97,Read,ACK
2.791226625,1647,0xD5,0xFF,Read,ACK
2.791274625,1647,0xD5,0xE7,Read,ACK
2.791330375,1647,0xD5,0xFF,Read,NAK
2.791460375,1648,0x52,0x02,Write,ACK
2.791580625,1649,0x53,0x00,Read,ACK
2.791628625,1649,0x53,0x00,Read,ACK
2.79167675,1649,0x53,0x4F,Read,ACK
2.791725,1649,0x53,0xC0,Read,ACK
2.79177325,1649,0x53,0xBD,Read,ACK
2.79182125,1649,0x53,0x80,Read,ACK
2.791877,1649,0x53,0xAB,Read,NAK
2.800661875,1650,0xD4,0xA6,Write,ACK
2.80078325,1651,0xD5,0x13,Read,ACK
2.80083125,1651,0xD5,0x0F,Read,NAK
2.80096225,1652,0xD4,0xA8,Write,ACK
2.8010825,1653,0xD5,0xDB,Read,ACK
2.8011305,1653,0xD5,0xFF,Read,ACK
2.8011785,1653,0xD5,0x98,Read,ACK
2.8012265,1653,0xD5,0xFF,Read,ACK
2.8012745,1653,0xD5,0xE3,Read,ACK
2.801330125,1653,0xD5,0xFF,Read,NAK
2.801460125,1654,0x52,0x02,Write,ACK
2.8015805,1655,0x53,0x00,Read,ACK
2.8016285,1655,0x53,0x00,Read,ACK
2.801676625,1655,0x53,0x4F,Read,ACK
2.801724875,1655,0x53,0xC0,Read,ACK
2.801773125,1655,0x53,0xBD,Read,ACK
2.801821125,1655,0x53,0x80,Read,ACK
2.801876875,1655,0x53,0xAB,Read,NAK
2.810660375,1656,0xD4,0xA6,Write,ACK
2.81078175,1657,0xD5,0x13,Read,ACK
2.81082975,1657,0xD5,0x0F,Read,NAK
2.81096075,1658,0xD4,0xA8,Write,ACK
2.811081,1659,0xD5,0xE0,Read,ACK
2.811129,1659,0xD5,0xFF,Read,ACK
2.811177,1659,0xD5,0x97,Read,ACK
2.811225,1659,0xD5,0xFF,Read,ACK
2.811273,1659,0xD5,0xE3,Read,ACK
2.81132875,1659,0xD5,0xFF,Read,NAK
2.81145875,1660,0x52,0x02,Write,ACK
2.811579,1661,0x53,0x00,Read,ACK
2.811627,1661,0x53,0x00,Read,ACK
2.81167525,1661,0x53,0x4F,Read,ACK
2.811723375,1661,0x53,0xC0,Read,ACK
2.811771625,1661,0x53,0xBD,Read,ACK
2.811819625,1661,0x53,0x80,Read,ACK
2.811875375,1661,0x53,0xAB,Read,NAK
2.82066025,1662,0xD4,0xA6,Write,ACK
2.820781625,1663,0xD5,0x13,Read,ACK
2.820829625,1663,0xD5,0x0F,Read,NAK
2.820960625,1664,0xD4,0xA8,Write,ACK
2.821080875,1665,0xD5,0xE7,Read,ACK
2.821128875,1665,0xD5,0xFF,Read,ACK
2.821176875,1665,0xD5,0x92,Read,ACK
2.821224875,1665,0xD5,0xFF,Read,ACK
2.821272875,1665,0xD5,0xE8,Read,ACK
2.821328625,1665,0xD5,0xFF,Read,NAK
2.821458625,1666,0x52,0x02,Write,ACK
2.821578875,1667,0x53,0x00,Read,ACK
2.821626875,1667,0x53,0x00,Read,ACK
2.821675125,1667,0x53,0x4F,Read,ACK
2.82172325,1667,0x53,0xC0,Read,ACK
2.821771625,1667,0x53,0xBD,Read,ACK
2.8218195,1667,0x53,0x80,Read,ACK
2.82187525,1667,0x53,0xAB,Read,NAK
2.830659125,1668,0xD4,0xA6,Write,ACK
2.8307805,1669,0xD5,0x13,Read,ACK
2.8308285,1669,0xD5,0x0F,Read,NAK
2.8309595,1670,0xD4,0xA8,Write,ACK
2.83107975,1671,0xD5,0xE8,Read,ACK
2.83112775,1671,0xD5,0xFF,Read,ACK
2.83117575,1671,0xD5,0x8C,Read,ACK
2.83122375,1671,0xD5,0xFF,Read,ACK
2.83127175,1671,0xD5,0xEE,Read,ACK
2.831327375,1671,0xD5,0xFF,Read,NAK
2.831457375,1672,0x52,0x02,Write,ACK
2.83157775,1673,0x53,0x00,Read,ACK
2.83162575,1673,0x53,0x00,Read,ACK
2.831673875,1673,0x53,0x4F,Read,ACK
2.83172175,1673,0x53,0xC0,Read,ACK
2.83177,1673,0x53,0xBD,Read,ACK
2.831818125,1673,0x53,0x80,Read,ACK
2.83187375,1673,0x53,0xAB,Read,NAK
2.840659375,1674,0xD4,0xA6,Write,ACK
2.840780625,1675,0xD5,0x13,Read,ACK
2.840828625,1675,0xD5,0x0F,Read,NAK
2.840959625,1676,0xD4,0xA8,Write,ACK
2.84108,1677,0xD5,0xE3,Read,ACK
2.841128,1677,0xD5,0xFF,Read,ACK
2.841176,1677,0xD5,0x87,Read,ACK
2.841224,1677,0xD5,0xFF,Read,ACK
2.841272,1677,0xD5,0xF2,Read,ACK
2.841327625,1677,0xD5,0xFF,Read,NAK
2.841457625,1678,0x52,0x02,Write,ACK
2.841578,1679,0x53,0x00,Read,ACK
2.841626,1679,0x53,0x00,Read,ACK
2.841674125,1679,0x53,0x4F,Read,ACK
2.84172225,1679,0x53,0xC0,Read,ACK
2.8417705,1679,0x53,0xBD,Read,ACK
2.841818625,1679,0x53,0x80,Read,ACK
2.84187425,1679,0x53,0xAB,Read,NAK
2.850658875,1680,0xD4,0xA6,Write,ACK
2.850780125,1681,0xD5,0x13,Read,ACK
2.850828125,1681,0xD5,0x00,Read,NAK
2.850962125,1682,0x52,0x02,Write,ACK
2.8510825,1683,0x53,0x00,Read,ACK
2.8511305,1683,0x53,0x00,Read,ACK
2.851178625,1683,0x53,0x4F,Read,ACK
2.851226875,1683,0x53,0xC0,Read,ACK
2.851275125,1683,0x53,0xBD,Read,ACK
2.851323125,1683,0x53,0x80,Read,ACK
2.851378875,1683,0x53,0xAB,Read,NAK
2.86065875,1684,0xD4,0xA6,Write,ACK
2.86078,1685,0xD5,0x13,Read,ACK
2.860828,1685,0xD5,0x0F,Read,NAK
2.860959,1686,0xD4,0xA8,Write,ACK
2.861079375,1687,0xD5,0xDC,Read,ACK
2.861127375,1687,0xD5,0xFF,Read,ACK
2.861175375,1687,0xD5,0x80,Read,ACK
2.861223375,1687,0xD5,0xFF,Read,ACK
2.861271375,1687,0xD5,0xF2,Read,ACK
2.861327,1687,0xD5,0xFF,Read,NAK
2.861457,1688,0x52,0x02,Write,ACK
2.861577375,1689,0x53,0x00,Read,ACK
2.861625375,1689,0x53,0x00,Read,ACK
2.8616735,1689,0x53,0x4F,Read,ACK
2.861721625,1689,0x53,0xC0,Read,ACK
2.86177,1689,0x53,0xBD,Read,ACK
2.861818,1689,0x53,0x80,Read,ACK
2.861873625,1689,0x53,0xAB,Read,NAK
2.870658625,1690,0xD4,0xA6,Write,ACK
2.870779875,1691,0xD5,0x13,Read,ACK
2.870827875,1691,0xD5,0x0F,Read,NAK
2.870958875,1692,0xD4,0xA8,Write,ACK
2.87107925,1693,0xD5,0xD7,Read,ACK
2.87112725,1693,0xD5,0xFF,Read,ACK
2.87117525,1693,0xD5,0x78,Read,ACK
2.87122325,1693,0xD5,0xFF,Read,ACK
2.87127125,1693,0xD5,0xF2,Read,ACK
2.871326875,1693,0xD5,0xFF,Read,NAK
2.871456875,1694,0x52,0x02,Write,ACK
2.87157725,1695,0x53,0x00,Read,ACK
2.87162525,1695,0x53,0x00,Read,ACK
2.871673375,1695,0x53,0x4F,Read,ACK
2.87172125,1695,0x53,0xC0,Read,ACK
2.8717695,1695,0x53,0xBD,Read,ACK
2.8718175,1695,0x53,0x80,Read,ACK
2.871873125,1695,0x53,0xAB,Read,NAK
2.880657375,1696,0xD4,0xA6,Write,ACK
2.88077875,1697,0xD5,0x13,Read,ACK
2.88082675,1697,0xD5,0x0F,Read,NAK
2.88095775,1698,0xD4,0xA8,Write,ACK
2.881078125,1699,0xD5,0xD2,Read,ACK
2.881126125,1699,0xD5,0xFF,Read,ACK
2.881174125,1699,0xD5,0x73,Read,ACK
2.881222125,1699,0xD5,0xFF,Read,ACK
2.881270125,1699,0xD5,0xF3,Read,ACK
2.88132575,1699,0xD5,0xFF,Read,NAK
2.88145575,1700,0x52,0x02,Write,ACK
2.881576125,1701,0x53,0x00,Read,ACK
2.881624,1701,0x53,0x00,Read,ACK
2.88167225,1701,0x53,0x4F,Read,ACK
2.881720375,1701,0x53,0xC0,Read,ACK
2.88176875,1701,0x53,0xBD,Read,ACK
2.88181675,1701,0x53,0x80,Read,ACK
2.881872375,1701,0x53,0xAB,Read,NAK
2.89065625,1702,0xD4,0xA6,Write,ACK
2.890777625,1703,0xD5,0x13,Read,ACK
2.890825625,1703,0xD5,0x0F,Read,NAK
2.890956625,1704,0xD4,0xA8,Write,ACK
2.891077,1705,0xD5,0xD2,Read,ACK
2.891125,1705,0xD5,0xFF,Read,ACK
2.891173,1705,0xD5,0x74,Read,ACK
2.891220875,1705,0xD5,0xFF,Read,ACK
2.891268875,1705,0xD5,0xF2,Read,ACK
2.891324625,1705,0xD5,0xFF,Read,NAK
2.891454625,1706,0x52,0x02,Write,ACK
2.891574875,1707,0x53,0x00,Read,ACK
2.891622875,1707,0x53,0x00,Read,ACK
2.891671125,1707,0x53,0x4F,Read,ACK
2.89171925,1707,0x53,0xC0,Read,ACK
2.8917675,1707,0x53,0xBD,Read,ACK
2.891815625,1707,0x53,0x80,Read,ACK
2.89187125,1707,0x53,0xAB,Read,NAK
2.900655875,1708,0xD4,0xA6,Write,ACK
2.900777125,1709,0xD5,0x13,Read,ACK
2.900825125,1709,0xD5,0x0F,Read,NAK
2.900956125,1710,0xD4,0xA8,Write,ACK
2.9010765,1711,0xD5,0xD7,Read,ACK
2.9011245,1711,0xD5,0xFF,Read,ACK
2.9011725,1711,0xD5,0x79,Read,ACK
2.9012205,1711,0xD5,0xFF,Read,ACK
2.9012685,1711,0xD5,0xEE,Read,ACK
2.901324125,1711,0xD5,0xFF,Read,NAK
2.901454125,1712,0x52,0x02,Write,ACK
2.9015745,1713,0x53,0x00,Read,ACK
2.9016225,1713,0x53,0x00,Read,ACK
2.901670625,1713,0x53,0x4F,Read,ACK
2.90171875,1713,0x53,0xC0,Read,ACK
2.901767,1713,0x53,0xBD,Read,ACK
2.901815125,1713,0x53,0x80,Read,ACK
2.90187075,1713,0x53,0xAB,Read,NAK
2.910655375,1714,0xD4,0xA6,Write,ACK
2.910776625,1715,0xD5,0x13,Read,ACK
2.910824625,1715,0xD5,0x0F,Read,NAK
2.910955625,1716,0xD4,0xA8,Write,ACK
2.911076,1717,0xD5,0xE1,Read,ACK
2.911124,1717,0xD5,0xFF,Read,ACK
2.911172,1717,0xD5,0x80,Read,ACK
2.91122,1717,0xD5,0xFF,Read,ACK
2.911268,1717,0xD5,0xEC,Read,ACK
2.911323625,1717,0xD5,0xFF,Read,NAK
2.911453625,1718,0x52,0x02,Write,ACK
2.911574,1719,0x53,0x00,Read,ACK
2.911622,1719,0x53,0x00,Read,ACK
2.91167025,1719,0x53,0x4F,Read,ACK
2.91171825,1719,0x53,0xC0,Read,ACK
2.911766625,1719,0x53,0xBD,Read,ACK
2.911814625,1719,0x53,0x80,Read,ACK
2.91187025,1719,0x53,0xAB,Read,NAK
2.920655875,1720,0xD4,0xA6,Write,ACK
2.92077725,1721,0xD5,0x13,Read,ACK
2.92082525,1721,0xD5,0x0F,Read,NAK
2.92095625,1722,0xD4,0xA8,Write,ACK
2.9210765,1723,0xD5,0xEA,Read,ACK
2.9211245,1723,0xD5,0xFF,Read,ACK
2.9211725,1723,0xD5,0x88,Read,ACK
2.9212205,1723,0xD5,0xFF,Read,ACK
2.9212685,1723,0xD5,0xEE,Read,ACK
2.921324125,1723,0xD5,0xFF,Read,NAK
2.921454125,1724,0x52,0x02,Write,ACK
2.9215745,1725,0x53,0x00,Read,ACK
2.9216225,1725,0x53,0x00,Read,ACK
2.921670625,1725,0x53,0x4F,Read,ACK
2.9217185,1725,0x53,0xC0,Read,ACK
2.92176675,1725,0x53,0xBD,Read,ACK
2.921814875,1725,0x53,0x80,Read,ACK
2.9218705,1725,0x53,0xAB,Read,NAK
2.930655125,1726,0xD4,0xA6,Write,ACK
2.930776375,1727,0xD5,0x13,Read,ACK
2.930824375,1727,0xD5,0x0F,Read,NAK
2.930955375,1728,0xD4,0xA8,Write,ACK
2.93107575,1729,0xD5,0xED,Read,ACK
2.93112375,1729,0xD5,0xFF,Read,ACK
2.93117175,1729,0xD5,0x8F,Read,ACK
2.93121975,1729,0xD5,0xFF,Read,ACK
2.93126775,1729,0xD5,0xEF,Read,ACK
2.931323375,1729,0xD5,0xFF,Read,NAK
2.931453375,1730,0x52,0x02,Write,ACK
2.93157375,1731,0x53,0x00,Read,ACK
2.93162175,1731,0x53,0x00,Read,ACK
2.931669875,1731,0x53,0x4F,Read,ACK
2.931718,1731,0x53,0xC0,Read,ACK
2.931766375,1731,0x53,0xBD,Read,ACK
2.931814375,1731,0x53,0x80,Read,ACK
2.93187,1731,0x53,0xAB,Read,NAK
2.940653875,1732,0xD4,0xA6,Write,ACK
2.94077525,1733,0xD5,0x13,Read,ACK
2.94082325,1733,0xD5,0x0F,Read,NAK
2.94095425,1734,0xD4,0xA8,Write,ACK
2.941074625,1735,0xD5,0xE4,Read,ACK
2.941122625,1735,0xD5,0xFF,Read,ACK
2.941170625,1735,0xD5,0x94,Read,ACK
2.941218625,1735,0xD5,0xFF,Read,ACK
2.941266625,1735,0xD5,0xEC,Read,ACK
2.94132225,1735,0xD5,0xFF,Read,NAK
2.94145225,1736,0x52,0x02,Write,ACK
2.9415725,1737,0x53,0x00,Read,ACK
2.9416205,1737,0x53,0x00,Read,ACK
2.941668875,1737,0x53,0x4F,Read,ACK
2.941716875,1737,0x53,0xC0,Read,ACK
2.941765125,1737,0x53,0xBD,Read,ACK
2.94181325,1737,0x53,0x80,Read,ACK
2.941868875,1737,0x53,0xAB,Read,NAK
2.9506545,1738,0xD4,0xA6,Write,ACK
2.95077575,1739,0xD5,0x13,Read,ACK
2.95082375,1739,0xD5,0x0F,Read,NAK
2.95095475,1740,0xD4,0xA8,Write,ACK
2.951075125,1741,0xD5,0xD3,Read,ACK
2.951123125,1741,0xD5,0xFF,Read,ACK
2.951171125,1741,0xD5,0x95,Read,ACK
2.951219125,1741,0xD5,0xFF,Read,ACK
2.951267125,1741,0xD5,0xEA,Read,ACK
2.95132275,1741,0xD5,0xFF,Read,NAK
2.95145275,1742,0x52,0x02,Write,ACK
2.951573125,1743,0x53,0x00,Read,ACK
2.951621125,1743,0x53,0x00,Read,ACK
2.95166925,1743,0x53,0x4F,Read,ACK
2.951717125,1743,0x53,0xC0,Read,ACK
2.951765375,1743,0x53,0xBD,Read,ACK
2.951813375,1743,0x53,0x80,Read,ACK
2.951869125,1743,0x53,0xAB,Read,NAK
2.960653375,1744,0xD4,0xA6,Write,ACK
2.960774625,1745,0xD5,0x13,Read,ACK
2.960822625,1745,0xD5,0x0F,Read,NAK
2.960953625,1746,0xD4,0xA8,Write,ACK
2.961074,1747,0xD5,0xC4,Read,ACK
2.961122,1747,0xD5,0xFF,Read,ACK
2.96117,1747,0xD5,0x8F,Read,ACK
2.961218,1747,0xD5,0xFF,Read,ACK
2.961266,1747,0xD5,0xED,Read,ACK
2.961321625,1747,0xD5,0xFF,Read,NAK
2.961451625,1748,0x52,0x02,Write,ACK
2.961572,1749,0x53,0x00,Read,ACK
2.96162,1749,0x53,0x00,Read,ACK
2.961668,1749,0x53,0x4F,Read,ACK
2.961716,1749,0x53,0xC0,Read,ACK
2.96176425,1749,0x53,0xBD,Read,ACK
2.96181225,1749,0x53,0x80,Read,ACK
2.961867875,1749,0x53,0xAB,Read,NAK
2.9706525,1750,0xD4,0xA6,Write,ACK
2.970773875,1751,0xD5,0x13,Read,ACK
2.970821875,1751,0xD5,0x0F,Read,NAK
2.970952875,1752,0xD4,0xA8,Write,ACK
2.971073125,1753,0xD5,0xC0,Read,ACK
2.971121125,1753,0xD5,0xFF,Read,ACK
2.971169125,1753,0xD5,0x86,Read,ACK
2.971217125,1753,0xD5,0xFF,Read,ACK
2.971265125,1753,0xD5,0xF5,Read,ACK
2.971320875,1753,0xD5,0xFF,Read,NAK
2.971450875,1754,0x52,0x02,Write,ACK
2.971571125,1755,0x53,0x00,Read,ACK
2.971619125,1755,0x53,0x00,Read,ACK
2.97166725,1755,0x53,0x4F,Read,ACK
2.971715125,1755,0x53,0xC0,Read,ACK
2.971763375,1755,0x53,0xBD,Read,ACK
2.9718115,1755,0x53,0x80,Read,ACK
2.971867125,1755,0x53,0xAB,Read,NAK
2.980652,1756,0xD4,0xA6,Write,ACK
2.980773375,1757,0xD5,0x13,Read,ACK
2.980821375,1757,0xD5,0x0F,Read,NAK
2.980952375,1758,0xD4,0xA8,Write,ACK
2.98107275,1759,0xD5,0xC8,Read,ACK
2.98112075,1759,0xD5,0xFF,Read,ACK
2.98116875,1759,0xD5,0x84,Read,ACK
2.981216625,1759,0xD5,0xFF,Read,ACK
2.981264625,1759,0xD5,0xF6,Read,ACK
2.981320375,1759,0xD5,0xFF,Read,NAK
2.981450375,1760,0x52,0x02,Write,ACK
2.981570625,1761,0x53,0x00,Read,ACK
2.981618625,1761,0x53,0x00,Read,ACK
2.981666875,1761,0x53,0x4F,Read,ACK
2.981715,1761,0x53,0xC0,Read,ACK
2.98176325,1761,0x53,0xBD,Read,ACK
2.981811375,1761,0x53,0x80,Read,ACK
2.981867,1761,0x53,0xAB,Read,NAK
2.990651625,1762,0xD4,0xA6,Write,ACK
2.990772875,1763,0xD5,0x13,Read,ACK
2.990820875,1763,0xD5,0x0F,Read,NAK
2.990951875,1764,0xD4,0xA8,Write,ACK
2.99107225,1765,0xD5,0xD7,Read,ACK
2.99112025,1765,0xD5,0xFF,Read,ACK
2.99116825,1765,0xD5,0x8A,Read,ACK
2.99121625,1765,0xD5,0xFF,Read,ACK
2.99126425,1765,0xD5,0xEE,Read,ACK
2.991319875,1765,0xD5,0xFF,Read,NAK
2.991449875,1766,0x52,0x02,Write,ACK
2.99157025,1767,0x53,0x00,Read,ACK
2.99161825,1767,0x53,0x00,Read,ACK
2.991666375,1767,0x53,0x4F,Read,ACK
2.9917145,1767,0x53,0xC0,Read,ACK
2.99176275,1767,0x53,0xBD,Read,ACK
2.991810875,1767,0x53,0x80,Read,ACK
2.9918665,1767,0x53,0xAB,Read,NAK
3.000651375,1768,0xD4,0xA6,Write,ACK
3.00077275,1769,0xD5,0x13,Read,ACK
3.00082075,1769,0xD5,0x0F,Read,NAK
3.00095175,1770,0xD4,0xA8,Write,ACK
3.001072125,1771,0xD5,0xE2,Read,ACK
3.001120125,1771,0xD5,0xFF,Read,ACK
3.001168125,1771,0xD5,0x91,Read,ACK
3.001216125,1771,0xD5,0xFF,Read,ACK
3.001264125,1771,0xD5,0xE4,Read,ACK
3.00131975,1771,0xD5,0xFF,Read,NAK
3.00144975,1772,0x52,0x02,Write,ACK
3.00157,1773,0x53,0x00,Read,ACK
3.001618,1773,0x53,0x00,Read,ACK
3.001666125,1773,0x53,0x4F,Read,ACK
3.001714,1773,0x53,0xC0,Read,ACK
3.0017625,1773,0x53,0xBD,Read,ACK
3.001810375,1773,0x53,0x80,Read,ACK
3.001866,1773,0x53,0xAB,Read,NAK
3.010650625,1774,0xD4,0xA6,Write,ACK
3.010772,1775,0xD5,0x13,Read,ACK
3.01082,1775,0xD5,0x0F,Read,NAK
3.010951,1776,0xD4,0xA8,Write,ACK
3.01107125,1777,0xD5,0xE6,Read,ACK
3.01111925,1777,0xD5,0xFF,Read,ACK
3.01116725,1777,0xD5,0x90,Read,ACK
3.01121525,1777,0xD5,0xFF,Read,ACK
3.01126325,1777,0xD5,0xE1,Read,ACK
3.011318875,1777,0xD5,0xFF,Read,NAK
3.011448875,1778,0x52,0x02,Write,ACK
3.01156925,1779,0x53,0x00,Read,ACK
3.01161725,1779,0x53,0x00,Read,ACK
3.011665375,1779,0x53,0x4F,Read,ACK
3.011713625,1779,0x53,0xC0,Read,ACK
3.011761875,1779,0x53,0xBD,Read,ACK
3.011809875,1779,0x53,0x80,Read,ACK
3.011865625,1779,0x53,0xAB,Read,NAK
3.020650125,1780,0xD4,0xA6,Write,ACK
3.0207715,1781,0xD5,0x13,Read,ACK
3.0208195,1781,0xD5,0x0F,Read,NAK
3.0209505,1782,0xD4,0xA8,Write,ACK
3.02107075,1783,0xD5,0xE4,Read,ACK
3.02111875,1783,0xD5,0xFF,Read,ACK
3.02116675,1783,0xD5,0x85,Read,ACK
3.02121475,1783,0xD5,0xFF,Read,ACK
3.02126275,1783,0xD5,0xE5,Read,ACK
3.0213185,1783,0xD5,0xFF,Read,NAK
3.0214485,1784,0x52,0x02,Write,ACK
3.02156875,1785,0x53,0x00,Read,ACK
3.02161675,1785,0x53,0x00,Read,ACK
3.021665,1785,0x53,0x4F,Read,ACK
3.021713125,1785,0x53,0xC0,Read,ACK
3.021761375,1785,0x53,0xBD,Read,ACK
3.021809375,1785,0x53,0x80,Read,ACK
3.021865125,1785,0x53,0xAB,Read,NAK
3.03065,1786,0xD4,0xA6,Write,ACK
3.030771375,1787,0xD5,0x13,Read,ACK
3.030819375,1787,0xD5,0x00,Read,NAK
3.030953375,1788,0x52,0x02,Write,ACK
3.031073625,1789,0x53,0x00,Read,ACK
3.031121625,1789,0x53,0x00,Read,ACK
3.031169875,1789,0x53,0x4F,Read,ACK
3.031218,1789,0x53,0xC0,Read,ACK
3.03126625,1789,0x53,0xBD,Read,ACK
3.031314375,1789,0x53,0x80,Read,ACK
3.03137,1789,0x53,0xAB,Read,NAK
3.040649875,1790,0xD4,0xA6,Write,ACK
3.04077125,1791,0xD5,0x13,Read,ACK
3.04081925,1791,0xD5,0x0F,Read,NAK
3.04095025,1792,0xD4,0xA8,Write,ACK
3.0410705,1793,0xD5,0xE2,Read,ACK
3.0411185,1793,0xD5,0xFF,Read,ACK
3.0411665,1793,0xD5,0x77,Read,ACK
3.0412145,1793,0xD5,0xFF,Read,ACK
3.0412625,1793,0xD5,0xEA,Read,ACK
3.041318125,1793,0xD5,0xFF,Read,NAK
3.041448125,1794,0x52,0x02,Write,ACK
3.0415685,1795,0x53,0x00,Read,ACK
3.0416165,1795,0x53,0x00,Read,ACK
3.041664625,1795,0x53,0x4F,Read,ACK
3.0417125,1795,0x53,0xC0,Read,ACK
3.04176075,1795,0x53,0xBD,Read,ACK
3.041808875,1795,0x53,0x80,Read,ACK
3.0418645,1795,0x53,0xAB,Read,NAK
3.050648125,1796,0xD4,0xA6,Write,ACK
3.050769375,1797,0xD5,0x13,Read,ACK
3.050817375,1797,0xD5,0x0F,Read,NAK
3.050948375,1798,0xD4,0xA8,Write,ACK
3.05106875,1799,0xD5,0xE3,Read,ACK
3.05111675,1799,0xD5,0xFF,Read,ACK
3.05116475,1799,0xD5,0x6F,Read,ACK
3.05121275,1799,0xD5,0xFF,Read,ACK
3.05126075,1799,0xD5,0xEC,Read,ACK
3.051316375,1799,0xD5,0xFF,Read,NAK
3.051446375,1800,0x52,0x02,Write,ACK
3.05156675,1801,0x53,0x00,Read,ACK
3.05161475,1801,0x53,0x00,Read,ACK
3.051662875,1801,0x53,0x4F,Read,ACK
3.051711,1801,0x53,0xC0,Read,ACK
3.051759375,1801,0x53,0xBD,Read,ACK
3.051807375,1801,0x53,0x80,Read,ACK
3.051863,1801,0x53,0xAB,Read,NAK
3.06064825,1802,0xD4,0xA6,Write,ACK
3.060769625,1803,0xD5,0x13,Read,ACK
3.060817625,1803,0xD5,0x0F,Read,NAK
3.060948625,1804,0xD4,0xA8,Write,ACK
3.061068875,1805,0xD5,0xE7,Read,ACK
3.061116875,1805,0xD5,0xFF,Read,ACK
3.061164875,1805,0xD5,0x71,Read,ACK
3.061212875,1805,0xD5,0xFF,Read,ACK
3.061260875,1805,0xD5,0xEC,Read,ACK
3.061316625,1805,0xD5,0xFF,Read,NAK
3.061446625,1806,0x52,0x02,Write,ACK
3.061566875,1807,0x53,0x00,Read,ACK
3.061614875,1807,0x53,0x00,Read,ACK
3.061663125,1807,0x53,0x4F,Read,ACK
3.06171125,1807,0x53,0xC0,Read,ACK
3.0617595,1807,0x53,0xBD,Read,ACK
3.0618075,1807,0x53,0x80,Read,ACK
3.06186325,1807,0x53,0xAB,Read,NAK
3.07064775,1808,0xD4,0xA6,Write,ACK
3.070769125,1809,0xD5,0x13,Read,ACK
3.070817125,1809,0xD5,0x0F,Read,NAK
3.07094875,1810,0xD4,0xA8,Write,ACK
3.071069125,1811,0xD5,0xEB,Read,ACK
3.071117125,1811,0xD5,0xFF,Read,ACK
3.071165125,1811,0xD5,0x7B,Read,ACK
3.071213125,1811,0xD5,0xFF,Read,ACK
3.071261125,1811,0xD5,0xE9,Read,ACK
3.07131675,1811,0xD5,0xFF,Read,NAK
3.07144675,1812,0x52,0x02,Write,ACK
3.071567125,1813,0x53,0x00,Read,ACK
3.071615125,1813,0x53,0x00,Read,ACK
3.07166325,1813,0x53,0x4F,Read,ACK
3.071711375,1813,0x53,0xC0,Read,ACK
3.07175975,1813,0x53,0xBD,Read,ACK
3.07180775,1813,0x53,0x80,Read,ACK
3.071863375,1813,0x53,0xAB,Read,NAK
3.080647375,1814,0xD4,0xA6,Write,ACK
3.080768625,1815,0xD5,0x13,Read,ACK
3.080816625,1815,0xD5,0x0F,Read,NAK
3.080947625,1816,0xD4,0xA8,Write,ACK
3.081068,1817,0xD5,0xED,Read,ACK
3.081116,1817,0xD5,0xFF,Read,ACK
3.081164,1817,0xD5,0x86,Read,ACK
3.081212,1817,0xD5,0xFF,Read,ACK
3.08126,1817,0xD5,0xE3,Read,ACK
3.081315625,1817,0xD5,0xFF,Read,NAK
3.081445625,1818,0x52,0x02,Write,ACK
3.081566,1819,0x53,0x00,Read,ACK
3.081614,1819,0x53,0x00,Read,ACK
3.08166225,1819,0x53,0x4F,Read,ACK
3.08171025,1819,0x53,0xC0,Read,ACK
3.081758625,1819,0x53,0xBD,Read,ACK
3.081806625,1819,0x53,0x80,Read,ACK
3.08186225,1819,0x53,0xAB,Read,NAK
3.0906465,1820,0xD4,0xA6,Write,ACK
3.090767875,1821,0xD5,0x13,Read,ACK
3.090815875,1821,0xD5,0x0F,Read,NAK
3.090946875,1822,0xD4,0xA8,Write,ACK
3.091067125,1823,0xD5,0xEB,Read,ACK
3.091115125,1823,0xD5,0xFF,Read,ACK
3.091163125,1823,0xD5,0x8D,Read,ACK
3.091211125,1823,0xD5,0xFF,Read,ACK
3.091259125,1823,0xD5,0xDC,Read,ACK
3.091314875,1823,0xD5,0xFF,Read,NAK
3.091444875,1824,0x52,0x02,Write,ACK
3.091565125,1825,0x53,0x00,Read,ACK
3.091613125,1825,0x53,0x00,Read,ACK
3.09166125,1825,0x53,0x4F,Read,ACK
3.0917095,1825,0x53,0xC0,Read,ACK
3.09175775,1825,0x53,0xBD,Read,ACK
3.09180575,1825,0x53,0x80,Read,ACK
3.0918615,1825,0x53,0xAB,Read,NAK
3.100646,1826,0xD4,0xA6,Write,ACK
3.100767375,1827,0xD5,0x13,Read,ACK
3.100815375,1827,0xD5,0x0F,Read,NAK
3.100946375,1828,0xD4,0xA8,Write,ACK
3.10106675,1829,0xD5,0xE7,Read,ACK
3.10111475,1829,0xD5,0xFF,Read,ACK
3.101162625,1829,0xD5,0x8F,Read,ACK
3.101210625,1829,0xD5,0xFF,Read,ACK
3.101258625,1829,0xD5,0xDC,Read,ACK
3.101314375,1829,0xD5,0xFF,Read,NAK
3.101444375,1830,0x52,0x02,Write,ACK
3.101564625,1831,0x53,0x00,Read,ACK
3.101612625,1831,0x53,0x00,Read,ACK
3.101660875,1831,0x53,0x4F,Read,ACK
3.101709,1831,0x53,0xC0,Read,ACK
3.10175725,1831,0x53,0xBD,Read,ACK
3.101805375,1831,0x53,0x80,Read,ACK
3.101861,1831,0x53,0xAB,Read,NAK
3.110644625,1832,0xD4,0xA6,Write,ACK
3.110765875,1833,0xD5,0x13,Read,ACK
3.110813875,1833,0xD5,0x0F,Read,NAK
3.110944875,1834,0xD4,0xA8,Write,ACK
3.11106525,1835,0xD5,0xE4,Read,ACK
3.11111325,1835,0xD5,0xFF,Read,ACK
3.11116125,1835,0xD5,0x92,Read,ACK
3.11120925,1835,0xD5,0xFF,Read,ACK
3.11125725,1835,0xD5,0xE4,Read,ACK
3.111312875,1835,0xD5,0xFF,Read,NAK
3.111442875,1836,0x52,0x02,Write,ACK
3.11156325,1837,0x53,0x00,Read,ACK
3.11161125,1837,0x53,0x00,Read,ACK
3.111659375,1837,0x53,0x4F,Read,ACK
3.1117075,1837,0x53,0xC0,Read,ACK
3.11175575,1837,0x53,0xBD,Read,ACK
3.111803875,1837,0x53,0x80,Read,ACK
3.1118595,1837,0x53,0xAB,Read,NAK
3.12064575,1838,0xD4,0xA6,Write,ACK
3.120767125,1839,0xD5,0x13,Read,ACK
3.120815125,1839,0xD5,0x0F,Read,NAK
3.120946125,1840,0xD4,0xA8,Write,ACK
3.121066375,1841,0xD5,0xE1,Read,ACK
3.121114375,1841,0xD5,0xFF,Read,ACK
3.121162375,1841,0xD5,0x96,Read,ACK
3.121210375,1841,0xD5,0xFF,Read,ACK
3.121258375,1841,0xD5,0xEE,Read,ACK
3.121314125,1841,0xD5,0xFF,Read,NAK
3.121444125,1842,0x52,0x02,Write,ACK
3.121564375,1843,0x53,0x00,Read,ACK
3.121612375,1843,0x53,0x00,Read,ACK
3.1216605,1843,0x53,0x4F,Read,ACK
3.121708375,1843,0x53,0xC0,Read,ACK
3.121756625,1843,0x53,0xBD,Read,ACK
3.12180475,1843,0x53,0x80,Read,ACK
3.121860375,1843,0x53,0xAB,Read,NAK
3.13064525,1844,0xD4,0xA6,Write,ACK
3.130766625,1845,0xD5,0x13,Read,ACK
3.130814625,1845,0xD5,0x0F,Read,NAK
3.130945625,1846,0xD4,0xA8,Write,ACK
3.131066,1847,0xD5,0xDB,Read,ACK
3.131114,1847,0xD5,0xFF,Read,ACK
3.131161875,1847,0xD5,0x96,Read,ACK
3.131209875,1847,0xD5,0xFF,Read,ACK
3.131257875,1847,0xD5,0xF2,Read,ACK
3.131313625,1847,0xD5,0xFF,Read,NAK
3.131443625,1848,0x52,0x02,Write,ACK
3.131563875,1849,0x53,0x00,Read,ACK
3.131611875,1849,0x53,0x00,Read,ACK
3.13166,1849,0x53,0x4F,Read,ACK
3.131707875,1849,0x53,0xC0,Read,ACK
3.13175625,1849,0x53,0xBD,Read,ACK
3.13180425,1849,0x53,0x80,Read,ACK
3.131859875,1849,0x53,0xAB,Read,NAK
3.1406445,1850,0xD4,0xA6,Write,ACK
3.140765875,1851,0xD5,0x13,Read,ACK
3.140813875,1851,0xD5,0x0F,Read,NAK
3.14094475,1852,0xD4,0xA8,Write,ACK
3.141065125,1853,0xD5,0xD1,Read,ACK
3.141113125,1853,0xD5,0xFF,Read,ACK
3.141161125,1853,0xD5,0x90,Read,ACK
3.141209125,1853,0xD5,0xFF,Read,ACK
3.141257125,1853,0xD5,0xF0,Read,ACK
3.14131275,1853,0xD5,0xFF,Read,NAK
3.14144275,1854,0x52,0x02,Write,ACK
3.141563125,1855,0x53,0x00,Read,ACK
3.141611125,1855,0x53,0x00,Read,ACK
3.14165925,1855,0x53,0x4F,Read,ACK
3.1417075,1855,0x53,0xC0,Read,ACK
3.14175575,1855,0x53,0xBD,Read,ACK
3.14180375,1855,0x53,0x80,Read,ACK
3.141859375,1855,0x53,0xAB,Read,NAK
3.150644375,1856,0xD4,0xA6,Write,ACK
3.150765625,1857,0xD5,0x13,Read,ACK
3.150813625,1857,0xD5,0x0F,Read,NAK
3.150944625,1858,0xD4,0xA8,Write,ACK
3.151065,1859,0xD5,0xC9,Read,ACK
3.151113,1859,0xD5,0xFF,Read,ACK
3.151161,1859,0xD5,0x89,Read,ACK
3.151209,1859,0xD5,0xFF,Read,ACK
3.151257,1859,0xD5,0xED,Read,ACK
3.151312625,1859,0xD5,0xFF,Read,NAK
3.151442625,1860,0x52,0x02,Write,ACK
3.151563,1861,0x53,0x00,Read,ACK
3.151611,1861,0x53,0x00,Read,ACK
3.151659125,1861,0x53,0x4F,Read,ACK
3.15170725,1861,0x53,0xC0,Read,ACK
3.151755625,1861,0x53,0xBD,Read,ACK
3.151803625,1861,0x53,0x80,Read,ACK
3.15185925,1861,0x53,0xAB,Read,NAK
3.160643875,1862,0xD4,0xA6,Write,ACK
3.16076525,1863,0xD5,0x13,Read,ACK
3.16081325,1863,0xD5,0x0F,Read,NAK
3.16094425,1864,0xD4,0xA8,Write,ACK
3.1610645,1865,0xD5,0xC5,Read,ACK
3.1611125,1865,0xD5,0xFF,Read,ACK
3.1611605,1865,0xD5,0x89,Read,ACK
3.1612085,1865,0xD5,0xFF,Read,ACK
3.1612565,1865,0xD5,0xED,Read,ACK
3.161312125,1865,0xD5,0xFF,Read,NAK
3.161442125,1866,0x52,0x02,Write,ACK
3.1615625,1867,0x53,0x00,Read,ACK
3.1616105,1867,0x53,0x00,Read,ACK
3.161658625,1867,0x53,0x4F,Read,ACK
3.1617065,1867,0x53,0xC0,Read,ACK
3.16175475,1867,0x53,0xBD,Read,ACK
3.161802875,1867,0x53,0x80,Read,ACK
3.1618585,1867,0x53,0xAB,Read,NAK
3.170643375,1868,0xD4,0xA6,Write,ACK
3.17076475,1869,0xD5,0x13,Read,ACK
3.17081275,1869,0xD5,0x0F,Read,NAK
3.17094375,1870,0xD4,0xA8,Write,ACK
3.171064,1871,0xD5,0xC4,Read,ACK
3.171112,1871,0xD5,0xFF,Read,ACK
3.17116,1871,0xD5,0x8D,Read,ACK
3.171208,1871,0xD5,0xFF,Read,ACK
3.171256,1871,0xD5,0xED,Read,ACK
3.17131175,1871,0xD5,0xFF,Read,NAK
3.17144175,1872,0x52,0x02,Write,ACK
3.171562,1873,0x53,0x00,Read,ACK
3.17161,1873,0x53,0x00,Read,ACK
3.17165825,1873,0x53,0x4F,Read,ACK
3.171706375,1873,0x53,0xC0,Read,ACK
3.171754625,1873,0x53,0xBD,Read,ACK
3.171802625,1873,0x53,0x80,Read,ACK
3.171858375,1873,0x53,0xAB,Read,NAK
3.18064325,1874,0xD4,0xA6,Write,ACK
3.180764625,1875,0xD5,0x13,Read,ACK
3.180812625,1875,0xD5,0x0F,Read,NAK
3.180943625,1876,0xD4,0xA8,Write,ACK
3.181063875,1877,0xD5,0xC7,Read,ACK
3.181111875,1877,0xD5,0xFF,Read,ACK
3.181159875,1877,0xD5,0x91,Read,ACK
3.181207875,1877,0xD5,0xFF,Read,ACK
3.181255875,1877,0xD5,0xEC,Read,ACK
3.181311625,1877,0xD5,0xFF,Read,NAK
3.181441625,1878,0x52,0x02,Write,ACK
3.181561875,1879,0x53,0x00,Read,ACK
3.181609875,1879,0x53,0x00,Read,ACK
3.181658125,1879,0x53,0x4F,Read,ACK
3.18170625,1879,0x53,0xC0,Read,ACK
3.1817545,1879,0x53,0xBD,Read,ACK
3.1818025,1879,0x53,0x80,Read,ACK
3.18185825,1879,0x53,0xAB,Read,NAK
3.190642125,1880,0xD4,0xA6,Write,ACK
3.1907635,1881,0xD5,0x13,Read,ACK
3.1908115,1881,0xD5,0x0F,Read,NAK
3.1909425,1882,0xD4,0xA8,Write,ACK
3.19106275,1883,0xD5,0xD0,Read,ACK
3.19111075,1883,0xD5,0xFF,Read,ACK
3.19115875,1883,0xD5,0x96,Read,ACK
3.19120675,1883,0xD5,0xFF,Read,ACK
3.19125475,1883,0xD5,0xE9,Read,ACK
3.191310375,1883,0xD5,0xFF,Read,NAK
3.191440375,1884,0x52,0x02,Write,ACK
3.19156075,1885,0x53,0x00,Read,ACK
3.19160875,1885,0x53,0x00,Read,ACK
3.191656875,1885,0x53,0x4F,Read,ACK
3.191705125,1885,0x53,0xC0,Read,ACK
3.191753375,1885,0x53,0xBD,Read,ACK
3.191801375,1885,0x53,0x80,Read,ACK
3.191857125,1885,0x53,0xAB,Read,NAK
3.200643,1886,0xD4,0xA6,Write,ACK
3.200764375,1887,0xD5,0x13,Read,ACK
3.200812375,1887,0xD5,0x0F,Read,NAK
3.20094325,1888,0xD4,0xA8,Write,ACK
3.201063625,1889,0xD5,0xDD,Read,ACK
3.201111625,1889,0xD5,0xFF,Read,ACK
3.201159625,1889,0xD5,0x9C,Read,ACK
3.201207625,1889,0xD5,0xFF,Read,ACK
3.201255625,1889,0xD5,0xEA,Read,ACK
3.20131125,1889,0xD5,0xFF,Read,NAK
3.20144125,1890,0x52,0x02,Write,ACK
3.201561625,1891,0x53,0x00,Read,ACK
3.201609625,1891,0x53,0x00,Read,ACK
3.20165775,1891,0x53,0x4F,Read,ACK
3.201706,1891,0x53,0xC0,Read,ACK
3.201754125,1891,0x53,0xBD,Read,ACK
3.20180225,1891,0x53,0x80,Read,ACK
3.201857875,1891,0x53,0xAB,Read,NAK
3.2106415,1892,0xD4,0xA6,Write,ACK
3.210762875,1893,0xD5,0x13,Read,ACK
3.210810875,1893,0xD5,0x00,Read,NAK
3.210944875,1894,0x52,0x02,Write,ACK
3.211065125,1895,0x53,0x00,Read,ACK
3.211113125,1895,0x53,0x00,Read,ACK
3.21116125,1895,0x53,0x4F,Read,ACK
3.2112095,1895,0x53,0xC0,Read,ACK
3.21125775,1895,0x53,0xBD,Read,ACK
3.211305875,1895,0x53,0x80,Read,ACK
3.2113615,1895,0x53,0xAB,Read,NAK
3.220641,1896,0xD4,0xA6,Write,ACK
3.220762375,1897,0xD5,0x13,Read,ACK
3.220810375,1897,0xD5,0x0F,Read,NAK
3.220941375,1898,0xD4,0xA8,Write,ACK
3.22106175,1899,0xD5,0xE3,Read,ACK
3.22110975,1899,0xD5,0xFF,Read,ACK
3.221157625,1899,0xD5,0x9F,Read,ACK
3.221205625,1899,0xD5,0xFF,Read,ACK
3.221253625,1899,0xD5,0xEE,Read,ACK
3.221309375,1899,0xD5,0xFF,Read,NAK
3.221439375,1900,0x52,0x02,Write,ACK
3.221559625,1901,0x53,0x00,Read,ACK
3.221607625,1901,0x53,0x00,Read,ACK
3.22165575,1901,0x53,0x4F,Read,ACK
3.22170425,1901,0x53,0xC0,Read,ACK
3.221752625,1901,0x53,0xBD,Read,ACK
3.221800625,1901,0x53,0x80,Read,ACK
3.221856375,1901,0x53,0xAB,Read,NAK
3.230640625,1902,0xD4,0xA6,Write,ACK
3.230761875,1903,0xD5,0x13,Read,ACK
3.230809875,1903,0xD5,0x0F,Read,NAK
3.230940875,1904,0xD4,0xA8,Write,ACK
3.23106125,1905,0xD5,0xDA,Read,ACK
3.23110925,1905,0xD5,0xFF,Read,ACK
3.23115725,1905,0xD5,0x9A,Read,ACK
3.23120525,1905,0xD5,0xFF,Read,ACK
3.23125325,1905,0xD5,0xF4,Read,ACK
3.231308875,1905,0xD5,0xFF,Read,NAK
3.231438875,1906,0x52,0x02,Write,ACK
3.23155925,1907,0x53,0x00,Read,ACK
3.23160725,1907,0x53,0x00,Read,ACK
3.231655375,1907,0x53,0x4F,Read,ACK
3.2317035,1907,0x53,0xC0,Read,ACK
3.231751875,1907,0x53,0xBD,Read,ACK
3.231799875,1907,0x53,0x80,Read,ACK
3.2318555,1907,0x53,0xAB,Read,NAK
3.240640375,1908,0xD4,0xA6,Write,ACK
3.24076175,1909,0xD5,0x13,Read,ACK
3.24080975,1909,0xD5,0x0F,Read,NAK
3.24094075,1910,0xD4,0xA8,Write,ACK
3.241061125,1911,0xD5,0xCD,Read,ACK
3.241109125,1911,0xD5,0xFF,Read,ACK
3.241157125,1911,0xD5,0x91,Read,ACK
3.241205125,1911,0xD5,0xFF,Read,ACK
3.241253125,1911,0xD5,0xF5,Read,ACK
3.24130875,1911,0xD5,0xFF,Read,NAK
3.24143875,1912,0x52,0x02,Write,ACK
3.241559,1913,0x53,0x00,Read,ACK
3.241607,1913,0x53,0x00,Read,ACK
3.241655125,1913,0x53,0x4F,Read,ACK
3.241703,1913,0x53,0xC0,Read,ACK
3.2417515,1913,0x53,0xBD,Read,ACK
3.241799375,1913,0x53,0x80,Read,ACK
3.241855,1913,0x53,0xAB,Read,NAK
3.25064,1914,0xD4,0xA6,Write,ACK
3.25076125,1915,0xD5,0x13,Read,ACK
3.25080925,1915,0xD5,0x0F,Read,NAK
3.25094025,1916,0xD4,0xA8,Write,ACK
3.251060625,1917,0xD5,0xC9,Read,ACK
3.251108625,1917,0xD5,0xFF,Read,ACK
3.251156625,1917,0xD5,0x8A,Read,ACK
3.251204625,1917,0xD5,0xFF,Read,ACK
3.251252625,1917,0xD5,0xF4,Read,ACK
3.25130825,1917,0xD5,0xFF,Read,NAK
3.25143825,1918,0x52,0x02,Write,ACK
3.251558625,1919,0x53,0x00,Read,ACK
3.251606625,1919,0x53,0x00,Read,ACK
3.25165475,1919,0x53,0x4F,Read,ACK
3.251702625,1919,0x53,0xC0,Read,ACK
3.251750875,1919,0x53,0xBD,Read,ACK
3.251798875,1919,0x53,0x80,Read,ACK
3.251854625,1919,0x53,0xAB,Read,NAK
3.2606395,1920,0xD4,0xA6,Write,ACK
3.260760875,1921,0xD5,0x13,Read,ACK
3.260808875,1921,0xD5,0x0F,Read,NAK
3.26093975,1922,0xD4,0xA8,Write,ACK
3.261060125,1923,0xD5,0xCF,Read,ACK
3.261108125,1923,0xD5,0xFF,Read,ACK
3.261156125,1923,0xD5,0x87,Read,ACK
3.261204125,1923,0xD5,0xFF,Read,ACK
3.261252125,1923,0xD5,0xF1,Read,ACK
3.26130775,1923,0xD5,0xFF,Read,NAK
3.26143775,1924,0x52,0x02,Write,ACK
3.261558125,1925,0x53,0x00,Read,ACK
3.261606125,1925,0x53,0x00,Read,ACK
3.26165425,1925,0x53,0x4F,Read,ACK
3.261702125,1925,0x53,0xC0,Read,ACK
3.261750375,1925,0x53,0xBD,Read,ACK
3.261798375,1925,0x53,0x80,Read,ACK
3.261854125,1925,0x53,0xAB,Read,NAK
3.270638375,1926,0xD4,0xA6,Write,ACK
3.270759625,1927,0xD5,0x13,Read,ACK
3.270807625,1927,0xD5,0x0F,Read,NAK
3.270938625,1928,0xD4,0xA8,Write,ACK
3.271059,1929,0xD5,0xD6,Read,ACK
3.271107,1929,0xD5,0xFF,Read,ACK
3.271155,1929,0xD5,0x8C,Read,ACK
3.271203,1929,0xD5,0xFF,Read,ACK
3.271251,1929,0xD5,0xEF,Read,ACK
3.271306625,1929,0xD5,0xFF,Read,NAK
3.271436625,1930,0x52,0x02,Write,ACK
3.271557,1931,0x53,0x00,Read,ACK
3.271605,1931,0x53,0x00,Read,ACK
3.27165325,1931,0x53,0x4F,Read,ACK
3.27170125,1931,0x53,0xC0,Read,ACK
3.27174975,1931,0x53,0xBD,Read,ACK
3.271797625,1931,0x53,0x80,Read,ACK
3.27185325,1931,0x53,0xAB,Read,NAK
3.2806385,1932,0xD4,0xA6,Write,ACK
3.280759875,1933,0xD5,0x13,Read,ACK
3.280807875,1933,0xD5,0x0F,Read,NAK
3.280938875,1934,0xD4,0xA8,Write,ACK
3.28105925,1935,0xD5,0xD7,Read,ACK
3.28110725,1935,0xD5,0xFF,Read,ACK
3.281155125,1935,0xD5,0x97,Read,ACK
3.281203125,1935,0xD5,0xFF,Read,ACK
3.281251125,1935,0xD5,0xEC,Read,ACK
3.281306875,1935,0xD5,0xFF,Read,NAK
3.281436875,1936,0x52,0x02,Write,ACK
3.281557125,1937,0x53,0x00,Read,ACK
3.281605125,1937,0x53,0x00,Read,ACK
3.28165325,1937,0x53,0x4F,Read,ACK
3.2817015,1937,0x53,0xC0,Read,ACK
3.28174975,1937,0x53,0xBD,Read,ACK
3.281797875,1937,0x53,0x80,Read,ACK
3.2818535,1937,0x53,0xAB,Read,NAK
3.29063875,1938,0xD4,0xA6,Write,ACK
3.290760125,1939,0xD5,0x13,Read,ACK
3.290808125,1939,0xD5,0x0F,Read,NAK
3.290939,1940,0xD4,0xA8,Write,ACK
3.291059375,1941,0xD5,0xD5,Read,ACK
3.291107375,1941,0xD5,0xFF,Read,ACK
3.291155375,1941,0xD5,0xA6,Read,ACK
3.291203375,1941,0xD5,0xFF,Read,ACK
3.291251375,1941,0xD5,0xE8,Read,ACK
3.291307,1941,0xD5,0xFF,Read,NAK
3.291437,1942,0x52,0x02,Write,ACK
3.291557375,1943,0x53,0x00,Read,ACK
3.291605375,1943,0x53,0x00,Read,ACK
3.2916535,1943,0x53,0x4F,Read,ACK
3.29170175,1943,0x53,0xC0,Read,ACK
3.29175,1943,0x53,0xBD,Read,ACK
3.291798,1943,0x53,0x80,Read,ACK
3.291853625,1943,0x53,0xAB,Read,NAK
3.30063825,1944,0xD4,0xA6,Write,ACK
3.300759625,1945,0xD5,0x13,Read,ACK
3.300807625,1945,0xD5,0x0F,Read,NAK
3.300938625,1946,0xD4,0xA8,Write,ACK
3.301058875,1947,0xD5,0xD4,Read,ACK
3.301106875,1947,0xD5,0xFF,Read,ACK
3.301154875,1947,0xD5,0xAB,Read,ACK
3.301202875,1947,0xD5,0xFF,Read,ACK
3.301250875,1947,0xD5,0xE8,Read,ACK
3.301306625,1947,0xD5,0xFF,Read,NAK
3.301436625,1948,0x52,0x02,Write,ACK
3.301556875,1949,0x53,0x00,Read,ACK
3.301604875,1949,0x53,0x00,Read,ACK
3.301653,1949,0x53,0x4F,Read,ACK
3.30170125,1949,0x53,0xC0,Read,ACK
3.3017495,1949,0x53,0xBD,Read,ACK
3.3017975,1949,0x53,0x80,Read,ACK
3.30185325,1949,0x53,0xAB,Read,NAK
3.31063775,1950,0xD4,0xA6,Write,ACK
3.310759125,1951,0xD5,0x13,Read,ACK
3.310807125,1951,0xD5,0x0F,Read,NAK
3.310938125,1952,0xD4,0xA8,Write,ACK
3.3110585,1953,0xD5,0xD4,Read,ACK
3.3111065,1953,0xD5,0xFF,Read,ACK
3.311154375,1953,0xD5,0xA1,Read,ACK
3.311202375,1953,0xD5,0xFF,Read,ACK
3.311250375,1953,0xD5,0xED,Read,ACK
3.311306125,1953,0xD5,0xFF,Read,NAK
3.311436125,1954,0x52,0x02,Write,ACK
3.311556375,1955,0x53,0x00,Read,ACK
3.311604375,1955,0x53,0x00,Read,ACK
3.311652625,1955,0x53,0x4F,Read,ACK
3.31170075,1955,0x53,0xC0,Read,ACK
3.311749125,1955,0x53,0xBD,Read,ACK
3.311797125,1955,0x53,0x80,Read,ACK
3.31185275,1955,0x53,0xAB,Read,NAK
3.320638,1956,0xD4,0xA6,Write,ACK
3.320759375,1957,0xD5,0x13,Read,ACK
3.320807375,1957,0xD5,0x0F,Read,NAK
3.32093825,1958,0xD4,0xA8,Write,ACK
3.321058625,1959,0xD5,0xD3,Read,ACK
3.321106625,1959,0xD5,0xFF,Read,ACK
3.321154625,1959,0xD5,0x8F,Read,ACK
3.321202625,1959,0xD5,0xFF,Read,ACK
3.321250625,1959,0xD5,0xF2,Read,ACK
3.32130625,1959,0xD5,0xFF,Read,NAK
3.32143625,1960,0x52,0x02,Write,ACK
3.321556625,1961,0x53,0x00,Read,ACK
3.321604625,1961,0x53,0x00,Read,ACK
3.32165275,1961,0x53,0x4F,Read,ACK
3.321701,1961,0x53,0xC0,Read,ACK
3.321749125,1961,0x53,0xBD,Read,ACK
3.32179725,1961,0x53,0x80,Read,ACK
3.321852875,1961,0x53,0xAB,Read,NAK
3.330637125,1962,0xD4,0xA6,Write,ACK
3.3307585,1963,0xD5,0x13,Read,ACK
3.3308065,1963,0xD5,0x0F,Read,NAK
3.3309375,1964,0xD4,0xA8,Write,ACK
3.331057875,1965,0xD5,0xCF,Read,ACK
3.331105875,1965,0xD5,0xFF,Read,ACK
3.331153875,1965,0xD5,0x83,Read,ACK
3.331201875,1965,0xD5,0xFF,Read,ACK
3.331249875,1965,0xD5,0xF3,Read,ACK
3.3313055,1965,0xD5,0xFF,Read,NAK
3.3314355,1966,0x52,0x02,Write,ACK
3.33155575,1967,0x53,0x00,Read,ACK
3.33160375,1967,0x53,0x00,Read,ACK
3.331652,1967,0x53,0x4F,Read,ACK
3.331700125,1967,0x53,0xC0,Read,ACK
3.331748375,1967,0x53,0xBD,Read,ACK
3.3317965,1967,0x53,0x80,Read,ACK
3.331852125,1967,0x53,0xAB,Read,NAK
3.340636,1968,0xD4,0xA6,Write,ACK
3.340757375,1969,0xD5,0x13,Read,ACK
3.340805375,1969,0xD5,0x0F,Read,NAK
3.340936375,1970,0xD4,0xA8,Write,ACK
3.34105675,1971,0xD5,0xCC,Read,ACK
3.341104625,1971,0xD5,0xFF,Read,ACK
3.341152625,1971,0xD5,0x80,Read,ACK
3.341200625,1971,0xD5,0xFF,Read,ACK
3.341248625,1971,0xD5,0xF1,Read,ACK
3.341304375,1971,0xD5,0xFF,Read,NAK
3.341434375,1972,0x52,0x02,Write,ACK
3.341554625,1973,0x53,0x00,Read,ACK
3.341602625,1973,0x53,0x00,Read,ACK
3.34165075,1973,0x53,0x4F,Read,ACK
3.341698625,1973,0x53,0xC0,Read,ACK
3.341746875,1973,0x53,0xBD,Read,ACK
3.341795,1973,0x53,0x80,Read,ACK
3.341850625,1973,0x53,0xAB,Read,NAK
3.350635625,1974,0xD4,0xA6,Write,ACK
3.350756875,1975,0xD5,0x13,Read,ACK
3.350804875,1975,0xD5,0x0F,Read,NAK
3.350935875,1976,0xD4,0xA8,Write,ACK
3.35105625,1977,0xD5,0xC9,Read,ACK
3.35110425,1977,0xD5,0xFF,Read,ACK
3.35115225,1977,0xD5,0x81,Read,ACK
3.35120025,1977,0xD5,0xFF,Read,ACK
3.35124825,1977,0xD5,0xF0,Read,ACK
3.351303875,1977,0xD5,0xFF,Read,NAK
3.351433875,1978,0x52,0x02,Write,ACK
3.35155425,1979,0x53,0x00,Read,ACK
3.35160225,1979,0x53,0x00,Read,ACK
3.351650375,1979,0x53,0x4F,Read,ACK
3.35169825,1979,0x53,0xC0,Read,ACK
3.3517465,1979,0x53,0xBD,Read,ACK
3.3517945,1979,0x53,0x80,Read,ACK
3.351850125,1979,0x53,0xAB,Read,NAK
3.360635125,1980,0xD4,0xA6,Write,ACK
3.360756375,1981,0xD5,0x13,Read,ACK
3.360804375,1981,0xD5,0x0F,Read,NAK
3.360935375,1982,0xD4,0xA8,Write,ACK
3.36105575,1983,0xD5,0xC9,Read,ACK
3.36110375,1983,0xD5,0xFF,Read,ACK
3.36115175,1983,0xD5,0x81,Read,ACK
3.36119975,1983,0xD5,0xFF,Read,ACK
3.36124775,1983,0xD5,0xF3,Read,ACK
3.361303375,1983,0xD5,0xFF,Read,NAK
3.361433375,1984,0x52,0x02,Write,ACK
3.36155375,1985,0x53,0x00,Read,ACK
3.36160175,1985,0x53,0x00,Read,ACK
3.361649875,1985,0x53,0x4F,Read,ACK
3.361698,1985,0x53,0xC0,Read,ACK
3.361746375,1985,0x53,0xBD,Read,ACK
3.361794375,1985,0x53,0x80,Read,ACK
3.36185,1985,0x53,0xAB,Read,NAK
3.370635,1986,0xD4,0xA6,Write,ACK
3.37075625,1987,0xD5,0x13,Read,ACK
3.37080425,1987,0xD5,0x0F,Read,NAK
3.37093525,1988,0xD4,0xA8,Write,ACK
3.371055625,1989,0xD5,0xCB,Read,ACK
3.371103625,1989,0xD5,0xFF,Read,ACK
3.371151625,1989,0xD5,0x7F,Read,ACK
3.371199625,1989,0xD5,0xFF,Read,ACK
3.371247625,1989,0xD5,0xF6,Read,ACK
3.37130325,1989,0xD5,0xFF,Read,NAK
3.37143325,1990,0x52,0x02,Write,ACK
3.371553625,1991,0x53,0x00,Read,ACK
3.371601625,1991,0x53,0x00,Read,ACK
3.37164975,1991,0x53,0x4F,Read,ACK
3.371697625,1991,0x53,0xC0,Read,ACK
3.371745875,1991,0x53,0xBD,Read,ACK
3.371793875,1991,0x53,0x80,Read,ACK
3.371849625,1991,0x53,0xAB,Read,NAK
3.3806345,1992,0xD4,0xA6,Write,ACK
3.380755875,1993,0xD5,0x13,Read,ACK
3.380803875,1993,0xD5,0x0F,Read,NAK
3.38093475,1994,0xD4,0xA8,Write,ACK
3.381055125,1995,0xD5,0xD0,Read,ACK
3.381103125,1995,0xD5,0xFF,Read,ACK
3.381151125,1995,0xD5,0x7F,Read,ACK
3.381199125,1995,0xD5,0xFF,Read,ACK
3.381247125,1995,0xD5,0xF4,Read,ACK
3.38130275,1995,0xD5,0xFF,Read,NAK
3.38143275,1996,0x52,0x02,Write,ACK
3.381553125,1997,0x53,0x00,Read,ACK
3.381601125,1997,0x53,0x00,Read,ACK
3.38164925,1997,0x53,0x4F,Read,ACK
3.381697125,1997,0x53,0xC0,Read,ACK
3.381745375,1997,0x53,0xBD,Read,ACK
3.381793375,1997,0x53,0x80,Read,ACK
3.381849125,1997,0x53,0xAB,Read,NAK
3.390633625,1998,0xD4,0xA6,Write,ACK
3.390755,1999,0xD5,0x13,Read,ACK
3.390803,1999,0xD5,0x00,Read,NAK
3.390937,2000,0x52,0x02,Write,ACK
3.391057375,2001,0x53,0x00,Read,ACK
3.391105375,2001,0x53,0x00,Read,ACK
3.3911535,2001,0x53,0x4F,Read,ACK
3.391201625,2001,0x53,0xC0,Read,ACK
3.391249875,2001,0x53,0xBD,Read,ACK
3.391298,2001,0x53,0x80,Read,ACK
3.391353625,2001,0x53,0xAB,Read,NAK
3.4006335,2002,0xD4,0xA6,Write,ACK
3.400754875,2003,0xD5,0x13,Read,ACK
3.400802875,2003,0xD5,0x0F,Read,NAK
3.400933875,2004,0xD4,0xA8,Write,ACK
3.40105425,2005,0xD5,0xD8,Read,ACK
3.40110225,2005,0xD5,0xFF,Read,ACK
3.401150125,2005,0xD5,0x84,Read,ACK
3.401198125,2005,0xD5,0xFF,Read,ACK
3.401246125,2005,0xD5,0xEA,Read,ACK
3.401301875,2005,0xD5,0xFF,Read,NAK
3.401431875,2006,0x52,0x02,Write,ACK
3.401552125,2007,0x53,0x00,Read,ACK
3.401600125,2007,0x53,0x00,Read,ACK
3.401648375,2007,0x53,0x4F,Read,ACK
3.4016965,2007,0x53,0xC0,Read,ACK
3.401744875,2007,0x53,0xBD,Read,ACK
3.401792875,2007,0x53,0x80,Read,ACK
3.4018485,2007,0x53,0xAB,Read,NAK
3.410632375,2008,0xD4,0xA6,Write,ACK
3.41075375,2009,0xD5,0x13,Read,ACK
3.41080175,2009,0xD5,0x0F,Read,NAK
3.41093275,2010,0xD4,0xA8,Write,ACK
3.411053,2011,0xD5,0xDF,Read,ACK
3.411101,2011,0xD5,0xFF,Read,ACK
3.411149,2011,0xD5,0x8F,Read,ACK
3.411197,2011,0xD5,0xFF,Read,ACK
3.411245,2011,0xD5,0xDD,Read,ACK
3.41130075,2011,0xD5,0xFF,Read,NAK
3.41143075,2012,0x52,0x02,Write,ACK
3.411551,2013,0x53,0x00,Read,ACK
3.411599,2013,0x53,0x00,Read,ACK
3.411647125,2013,0x53,0x4F,Read,ACK
3.411695,2013,0x53,0xC0,Read,ACK
3.41174325,2013,0x53,0xBD,Read,ACK
3.411791375,2013,0x53,0x80,Read,ACK
3.411847,2013,0x53,0xAB,Read,NAK
3.420632625,2014,0xD4,0xA6,Write,ACK
3.420753875,2015,0xD5,0x13,Read,ACK
3.420801875,2015,0xD5,0x0F,Read,NAK
3.420932875,2016,0xD4,0xA8,Write,ACK
3.42105325,2017,0xD5,0xE0,Read,ACK
3.42110125,2017,0xD5,0xFF,Read,ACK
3.42114925,2017,0xD5,0x9E,Read,ACK
3.42119725,2017,0xD5,0xFF,Read,ACK
3.42124525,2017,0xD5,0xD4,Read,ACK
3.421300875,2017,0xD5,0xFF,Read,NAK
3.421430875,2018,0x52,0x02,Write,ACK
3.42155125,2019,0x53,0x00,Read,ACK
3.42159925,2019,0x53,0x00,Read,ACK
3.421647375,2019,0x53,0x4F,Read,ACK
3.4216955,2019,0x53,0xC0,Read,ACK
3.421743875,2019,0x53,0xBD,Read,ACK
3.421791875,2019,0x53,0x80,Read,ACK
3.4218475,2019,0x53,0xAB,Read,NAK
3.430632125,2020,0xD4,0xA6,Write,ACK
3.4307535,2021,0xD5,0x13,Read,ACK
3.4308015,2021,0xD5,0x0F,Read,NAK
3.4309325,2022,0xD4,0xA8,Write,ACK
3.43105275,2023,0xD5,0xD9,Read,ACK
3.43110075,2023,0xD5,0xFF,Read,ACK
3.43114875,2023,0xD5,0xAC,Read,ACK
3.43119675,2023,0xD5,0xFF,Read,ACK
3.43124475,2023,0xD5,0xD4,Read,ACK
3.431300375,2023,0xD5,0xFF,Read,NAK
3.431430375,2024,0x52,0x02,Write,ACK
3.43155075,2025,0x53,0x00,Read,ACK
3.43159875,2025,0x53,0x00,Read,ACK
3.431646875,2025,0x53,0x4F,Read,ACK
3.43169475,2025,0x53,0xC0,Read,ACK
3.431743,2025,0x53,0xBD,Read,ACK
3.431791125,2025,0x53,0x80,Read,ACK
3.43184675,2025,0x53,0xAB,Read,NAK
3.440631,2026,0xD4,0xA6,Write,ACK
3.440752375,2027,0xD5,0x13,Read,ACK
3.440800375,2027,0xD5,0x0F,Read,NAK
3.44093125,2028,0xD4,0xA8,Write,ACK
3.441051625,2029,0xD5,0xD3,Read,ACK
3.441099625,2029,0xD5,0xFF,Read,ACK
3.441147625,2029,0xD5,0xB1,Read,ACK
3.441195625,2029,0xD5,0xFF,Read,ACK
3.441243625,2029,0xD5,0xDA,Read,ACK
3.44129925,2029,0xD5,0xFF,Read,NAK
3.44142925,2030,0x52,0x02,Write,ACK
3.441549625,2031,0x53,0x00,Read,ACK
3.441597625,2031,0x53,0x00,Read,ACK
3.441645875,2031,0x53,0x4F,Read,ACK
3.441694,2031,0x53,0xC0,Read,ACK
3.44174225,2031,0x53,0xBD,Read,ACK
3.44179025,2031,0x53,0x80,Read,ACK
3.441845875,2031,0x53,0xAB,Read,NAK
3.450630875,2032,0xD4,0xA6,Write,ACK
3.450752125,2033,0xD5,0x13,Read,ACK
3.450800125,2033,0xD5,0x0F,Read,NAK
3.450931125,2034,0xD4,0xA8,Write,ACK
3.4510515,2035,0xD5,0xD1,Read,ACK
3.4510995,2035,0xD5,0xFF,Read,ACK
3.4511475,2035,0xD5,0xA9,Read,ACK
3.4511955,2035,0xD5,0xFF,Read,ACK
3.4512435,2035,0xD5,0xE2,Read,ACK
3.451299125,2035,0xD5,0xFF,Read,NAK
3.451429125,2036,0x52,0x02,Write,ACK
3.4515495,2037,0x53,0x00,Read,ACK
3.4515975,2037,0x53,0x00,Read,ACK
3.451645625,2037,0x53,0x4F,Read,ACK
3.45169375,2037,0x53,0xC0,Read,ACK
3.451742,2037,0x53,0xBD,Read,ACK
3.451790125,2037,0x53,0x80,Read,ACK
3.45184575,2037,0x53,0xAB,Read,NAK
3.46063,2038,0xD4,0xA6,Write,ACK
3.460751375,2039,0xD5,0x13,Read,ACK
3.460799375,2039,0xD5,0x0F,Read,NAK
3.460930375,2040,0xD4,0xA8,Write,ACK
3.46105075,2041,0xD5,0xD0,Read,ACK
3.461098625,2041,0xD5,0xFF,Read,ACK
3.461146625,2041,0xD5,0x9B,Read,ACK
3.461194625,2041,0xD5,0xFF,Read,ACK
3.461242625,2041,0xD5,0xE9,Read,ACK
3.461298375,2041,0xD5,0xFF,Read,NAK
3.461428375,2042,0x52,0x02,Write,ACK
3.461548625,2043,0x53,0x00,Read,ACK
3.461596625,2043,0x53,0x00,Read,ACK
3.461644875,2043,0x53,0x4F,Read,ACK
3.461693,2043,0x53,0xC0,Read,ACK
3.46174125,2043,0x53,0xBD,Read,ACK
3.461789375,2043,0x53,0x80,Read,ACK
3.461845,2043,0x53,0xAB,Read,NAK
3.470629875,2044,0xD4,0xA6,Write,ACK
3.47075125,2045,0xD5,0x13,Read,ACK
3.47079925,2045,0xD5,0x0F,Read,NAK
3.47093025,2046,0xD4,0xA8,Write,ACK
3.4710505,2047,0xD5,0xD1,Read,ACK
3.4710985,2047,0xD5,0xFF,Read,ACK
3.4711465,2047,0xD5,0x8E,Read,ACK
3.4711945,2047,0xD5,0xFF,Read,ACK
3.4712425,2047,0xD5,0xF0,Read,ACK
3.47129825,2047,0xD5,0xFF,Read,NAK
3.47142825,2048,0x52,0x02,Write,ACK
3.4715485,2049,0x53,0x00,Read,ACK
3.4715965,2049,0x53,0x00,Read,ACK
3.47164475,2049,0x53,0x4F,Read,ACK
3.471692875,2049,0x53,0xC0,Read,ACK
3.471741125,2049,0x53,0xBD,Read,ACK
3.471789125,2049,0x53,0x80,Read,ACK
3.471844875,2049,0x53,0xAB,Read,NAK
3.480629125,2050,0xD4,0xA6,Write,ACK
3.480750375,2051,0xD5,0x13,Read,ACK
3.480798375,2051,0xD5,0x0F,Read,NAK
3.480929375,2052,0xD4,0xA8,Write,ACK
3.48104975,2053,0xD5,0xD4,Read,ACK
3.48109775,2053,0xD5,0xFF,Read,ACK
3.48114575,2053,0xD5,0x85,Read,ACK
3.48119375,2053,0xD5,0xFF,Read,ACK
3.48124175,2053,0xD5,0xF5,Read,ACK
3.481297375,2053,0xD5,0xFF,Read,NAK
3.481427375,2054,0x52,0x02,Write,ACK
3.48154775,2055,0x53,0x00,Read,ACK
3.48159575,2055,0x53,0x00,Read,ACK
3.481643875,2055,0x53,0x4F,Read,ACK
3.481692,2055,0x53,0xC0,Read,ACK
3.481740375,2055,0x53,0xBD,Read,ACK
3.481788375,2055,0x53,0x80,Read,ACK
3.481844,2055,0x53,0xAB,Read,NAK
3.490627625,2056,0xD4,0xA6,Write,ACK
3.490749,2057,0xD5,0x13,Read,ACK
3.490797,2057,0xD5,0x0F,Read,NAK
3.490928,2058,0xD4,0xA8,Write,ACK
3.49104825,2059,0xD5,0xD8,Read,ACK
3.49109625,2059,0xD5,0xFF,Read,ACK
3.49114425,2059,0xD5,0x7F,Read,ACK
3.49119225,2059,0xD5,0xFF,Read,ACK
3.49124025,2059,0xD5,0xF6,Read,ACK
3.491295875,2059,0xD5,0xFF,Read,NAK
3.491425875,2060,0x52,0x02,Write,ACK
3.49154625,2061,0x53,0x00,Read,ACK
3.49159425,2061,0x53,0x00,Read,ACK
3.491642375,2061,0x53,0x4F,Read,ACK
3.491690625,2061,0x53,0xC0,Read,ACK
3.491738875,2061,0x53,0xBD,Read,ACK
3.491786875,2061,0x53,0x00,Read,ACK
3.491842625,2061,0x53,0xAB,Read,NAK
3.500628125,2062,0xD4,0xA6,Write,ACK
3.5007495,2063,0xD5,0x13,Read,ACK
3.5007975,2063,0xD5,0x0F,Read,NAK
3.5009285,2064,0xD4,0xA8,Write,ACK
3.50104875,2065,0xD5,0xD7,Read,ACK
3.50109675,2065,0xD5,0xFF,Read,ACK
3.50114475,2065,0xD5,0x7C,Read,ACK
3.50119275,2065,0xD5,0xFF,Read,ACK
3.50124075,2065,0xD5,0xF2,Read,ACK
3.5012965,2065,0xD5,0xFF,Read,NAK
3.5014265,2066,0x52,0x02,Write,ACK
3.50154675,2067,0x53,0x00,Read,ACK
3.50159475,2067,0x53,0x00,Read,ACK
3.501643,2067,0x53,0x4F,Read,ACK
3.501691125,2067,0x53,0xC0,Read,ACK
3.501739375,2067,0x53,0xBD,Read,ACK
3.501787375,2067,0x53,0x00,Read,ACK
3.501843125,2067,0x53,0xAB,Read,NAK
3.510628,2068,0xD4,0xA6,Write,ACK
3.510749375,2069,0xD5,0x13,Read,ACK
3.510797375,2069,0xD5,0x0F,Read,NAK
3.510928375,2070,0xD4,0xA8,Write,ACK
3.511048625,2071,0xD5,0xD5,Read,ACK
3.511096625,2071,0xD5,0xFF,Read,ACK
3.511144625,2071,0xD5,0x81,Read,ACK
3.511192625,2071,0xD5,0xFF,Read,ACK
3.511240625,2071,0xD5,0xEA,Read,ACK
3.511296375,2071,0xD5,0xFF,Read,NAK
3.511426375,2072,0x52,0x02,Write,ACK
3.511546625,2073,0x53,0x00,Read,ACK
3.511594625,2073,0x53,0x00,Read,ACK
3.51164275,2073,0x53,0x4F,Read,ACK
3.511691,2073,0x53,0xC0,Read,ACK
3.51173925,2073,0x53,0xBD,Read,ACK
3.51178725,2073,0x53,0x00,Read,ACK
3.511843,2073,0x53,0xAB,Read,NAK
3.520627875,2074,0xD4,0xA6,Write,ACK
3.52074925,2075,0xD5,0x13,Read,ACK
3.52079725,2075,0xD5,0x0F,Read,NAK
3.52092825,2076,0xD4,0xA8,Write,ACK
3.5210485,2077,0xD5,0xD9,Read,ACK
3.5210965,2077,0xD5,0xFF,Read,ACK
3.5211445,2077,0xD5,0x8B,Read,ACK
3.5211925,2077,0xD5,0xFF,Read,ACK
3.5212405,2077,0xD5,0xE4,Read,ACK
3.521296125,2077,0xD5,0xFF,Read,NAK
3.521426125,2078,0x52,0x02,Write,ACK
3.5215465,2079,0x53,0x00,Read,ACK
3.5215945,2079,0x53,0x00,Read,ACK
3.52164275,2079,0x53,0x4F,Read,ACK
3.521690875,2079,0x53,0xC0,Read,ACK
3.521739,2079,0x53,0xBD,Read,ACK
3.521787125,2079,0x53,0x00,Read,ACK
3.521842875,2079,0x53,0xAB,Read,NAK
3.530627375,2080,0xD4,0xA6,Write,ACK
3.53074875,2081,0xD5,0x13,Read,ACK
3.53079675,2081,0xD5,0x0F,Read,NAK
3.53092775,2082,0xD4,0xA8,Write,ACK
3.531048,2083,0xD5,0xE3,Read,ACK
3.531096,2083,0xD5,0xFF,Read,ACK
3.531144,2083,0xD5,0x96,Read,ACK
3.531192,2083,0xD5,0xFF,Read,ACK
3.53124,2083,0xD5,0xE4,Read,ACK
3.53129575,2083,0xD5,0xFF,Read,NAK
3.53142575,2084,0x52,0x02,Write,ACK
3.531546,2085,0x53,0x00,Read,ACK
3.531594,2085,0x53,0x00,Read,ACK
3.531642125,2085,0x53,0x4F,Read,ACK
3.53169,2085,0x53,0xC0,Read,ACK
3.53173825,2085,0x53,0xBD,Read,ACK
3.531786375,2085,0x53,0x00,Read,ACK
3.531842,2085,0x53,0xAB,Read,NAK
3.540626625,2086,0xD4,0xA6,Write,ACK
3.540747875,2087,0xD5,0x13,Read,ACK
3.540795875,2087,0xD5,0x0F,Read,NAK
3.540926875,2088,0xD4,0xA8,Write,ACK
3.54104725,2089,0xD5,0xE7,Read,ACK
3.54109525,2089,0xD5,0xFF,Read,ACK
3.54114325,2089,0xD5,0x9C,Read,ACK
3.54119125,2089,0xD5,0xFF,Read,ACK
3.54123925,2089,0xD5,0xEA,Read,ACK
3.541294875,2089,0xD5,0xFF,Read,NAK
3.541424875,2090,0x52,0x02,Write,ACK
3.54154525,2091,0x53,0x00,Read,ACK
3.54159325,2091,0x53,0x00,Read,ACK
3.5416415,2091,0x53,0x4F,Read,ACK
3.5416895,2091,0x53,0xC0,Read,ACK
3.541738,2091,0x53,0xBD,Read,ACK
3.541785875,2091,0x53,0x00,Read,ACK
3.5418415,2091,0x53,0xAB,Read,NAK
3.550626125,2092,0xD4,0xA6,Write,ACK
3.5507475,2093,0xD5,0x13,Read,ACK
3.5507955,2093,0xD5,0x0F,Read,NAK
3.5509265,2094,0xD4,0xA8,Write,ACK
3.55104675,2095,0xD5,0xE0,Read,ACK
3.55109475,2095,0xD5,0xFF,Read,ACK
3.55114275,2095,0xD5,0x9D,Read,ACK
3.55119075,2095,0xD5,0xFF,Read,ACK
3.55123875,2095,0xD5,0xF3,Read,ACK
3.551294375,2095,0xD5,0xFF,Read,NAK
3.551424375,2096,0x52,0x02,Write,ACK
3.55154475,2097,0x53,0x00,Read,ACK
3.55159275,2097,0x53,0x00,Read,ACK
3.551640875,2097,0x53,0x4F,Read,ACK
3.551689125,2097,0x53,0xC0,Read,ACK
3.5517375,2097,0x53,0xBD,Read,ACK
3.551785375,2097,0x53,0x00,Read,ACK
3.551841125,2097,0x53,0xAB,Read,NAK
3.560625625,2098,0xD4,0xA6,Write,ACK
3.560747,2099,0xD5,0x13,Read,ACK
3.560795,2099,0xD5,0x0F,Read,NAK
3.560926,2100,0xD4,0xA8,Write,ACK
3.56104625,2101,0xD5,0xD5,Read,ACK
3.56109425,2101,0xD5,0xFF,Read,ACK
3.56114225,2101,0xD5,0x9C,Read,ACK
3.56119025,2101,0xD5,0xFF,Read,ACK
3.56123825,2101,0xD5,0xF6,Read,ACK
3.561294,2101,0xD5,0xFF,Read,NAK
3.561424,2102,0x52,0x02,Write,ACK
3.56154425,2103,0x53,0x00,Read,ACK
3.56159225,2103,0x53,0x00,Read,ACK
3.561640375,2103,0x53,0x4F,Read,ACK
3.561688625,2103,0x53,0xC0,Read,ACK
3.561736875,2103,0x53,0xBD,Read,ACK
3.561784875,2103,0x53,0x00,Read,ACK
3.561840625,2103,0x53,0xAB,Read,NAK
3.570625125,2104,0xD4,0xA6,Write,ACK
3.5707465,2105,0xD5,0x13,Read,ACK
3.5707945,2105,0xD5,0x00,Read,NAK
3.5709285,2106,0x52,0x02,Write,ACK
3.571048875,2107,0x53,0x00,Read,ACK
3.571096875,2107,0x53,0x00,Read,ACK
3.571145,2107,0x53,0x4F,Read,ACK
3.571193125,2107,0x53,0xC0,Read,ACK
3.571241375,2107,0x53,0xBD,Read,ACK
3.5712895,2107,0x53,0x00,Read,ACK
3.571345125,2107,0x53,0xAB,Read,NAK
3.580624375,2108,0xD4,0xA6,Write,ACK
3.58074575,2109,0xD5,0x13,Read,ACK
3.58079375,2109,0xD5,0x0F,Read,NAK
3.58092475,2110,0xD4,0xA8,Write,ACK
3.581045,2111,0xD5,0xD2,Read,ACK
3.581093,2111,0xD5,0xFF,Read,ACK
3.581141,2111,0xD5,0x99,Read,ACK
3.581189,2111,0xD5,0xFF,Read,ACK
3.581237,2111,0xD5,0xF1,Read,ACK
3.581292625,2111,0xD5,0xFF,Read,NAK
3.581422625,2112,0x52,0x02,Write,ACK
3.581543,2113,0x53,0x00,Read,ACK
3.581591,2113,0x53,0x00,Read,ACK
3.581639125,2113,0x53,0x4F,Read,ACK
3.581687,2113,0x53,0xC0,Read,ACK
3.58173525,2113,0x53,0xBD,Read,ACK
3.581783375,2113,0x53,0x00,Read,ACK
3.581839,2113,0x53,0xAB,Read,NAK
3.590624625,2114,0xD4,0xA6,Write,ACK
3.590745875,2115,0xD5,0x13,Read,ACK
3.590793875,2115,0xD5,0x0F,Read,NAK
3.590924875,2116,0xD4,0xA8,Write,ACK
3.59104525,2117,0xD5,0xD7,Read,ACK
3.59109325,2117,0xD5,0xFF,Read,ACK
3.59114125,2117,0xD5,0x95,Read,ACK
3.59118925,2117,0xD5,0xFF,Read,ACK
3.59123725,2117,0xD5,0xEB,Read,ACK
3.591292875,2117,0xD5,0xFF,Read,NAK
3.591422875,2118,0x52,0x02,Write,ACK
3.59154325,2119,0x53,0x00,Read,ACK
3.59159125,2119,0x53,0x00,Read,ACK
3.591639375,2119,0x53,0x4F,Read,ACK
3.5916875,2119,0x53,0xC0,Read,ACK
3.59173575,2119,0x53,0xBD,Read,ACK
3.591783875,2119,0x53,0x00,Read,ACK
3.5918395,2119,0x53,0xAB,Read,NAK
3.600624125,2120,0xD4,0xA6,Write,ACK
3.600745375,2121,0xD5,0x13,Read,ACK
3.600793375,2121,0xD5,0x0F,Read,NAK
3.600924375,2122,0xD4,0xA8,Write,ACK
3.60104475,2123,0xD5,0xDE,Read,ACK
3.60109275,2123,0xD5,0xFF,Read,ACK
3.60114075,2123,0xD5,0x93,Read,ACK
3.60118875,2123,0xD5,0xFF,Read,ACK
3.60123675,2123,0xD5,0xEB,Read,ACK
3.601292375,2123,0xD5,0xFF,Read,NAK
3.601422375,2124,0x52,0x02,Write,ACK
3.60154275,2125,0x53,0x00,Read,ACK
3.60159075,2125,0x53,0x00,Read,ACK
3.601638875,2125,0x53,0x4F,Read,ACK
3.60168675,2125,0x53,0xC0,Read,ACK
3.601735,2125,0x53,0xBD,Read,ACK
3.601783,2125,0x53,0x00,Read,ACK
3.60183875,2125,0x53,0xAB,Read,NAK
3.610623625,2126,0xD4,0xA6,Write,ACK
3.610745,2127,0xD5,0x13,Read,ACK
3.610793,2127,0xD5,0x0F,Read,NAK
3.610924,2128,0xD4,0xA8,Write,ACK
3.61104425,2129,0xD5,0xE4,Read,ACK
3.61109225,2129,0xD5,0xFF,Read,ACK
3.61114025,2129,0xD5,0x96,Read,ACK
3.61118825,2129,0xD5,0xFF,Read,ACK
3.61123625,2129,0xD5,0xEF,Read,ACK
3.611291875,2129,0xD5,0xFF,Read,NAK
3.611421875,2130,0x52,0x02,Write,ACK
3.61154225,2131,0x53,0x00,Read,ACK
3.61159025,2131,0x53,0x00,Read,ACK
3.6116385,2131,0x53,0x4F,Read,ACK
3.611686625,2131,0x53,0xC0,Read,ACK
3.611735,2131,0x53,0xBD,Read,ACK
3.611782875,2131,0x53,0x00,Read,ACK
3.611838625,2131,0x53,0xAB,Read,NAK
3.620623125,2132,0xD4,0xA6,Write,ACK
3.6207445,2133,0xD5,0x13,Read,ACK
3.6207925,2133,0xD5,0x0F,Read,NAK
3.6209235,2134,0xD4,0xA8,Write,ACK
3.62104375,2135,0xD5,0xEA,Read,ACK
3.62109175,2135,0xD5,0xFF,Read,ACK
3.62113975,2135,0xD5,0x9C,Read,ACK
3.62118775,2135,0xD5,0xFF,Read,ACK
3.62123575,2135,0xD5,0xEF,Read,ACK
3.6212915,2135,0xD5,0xFF,Read,NAK
3.6214215,2136,0x52,0x02,Write,ACK
3.62154175,2137,0x53,0x00,Read,ACK
3.62158975,2137,0x53,0x00,Read,ACK
3.621638,2137,0x53,0x4F,Read,ACK
3.621686125,2137,0x53,0xC0,Read,ACK
3.621734375,2137,0x53,0xBD,Read,ACK
3.621782375,2137,0x53,0x00,Read,ACK
3.621838125,2137,0x53,0xAB,Read,NAK
3.630623,2138,0xD4,0xA6,Write,ACK
3.630744375,2139,0xD5,0x13,Read,ACK
3.630792375,2139,0xD5,0x0F,Read,NAK
3.630923375,2140,0xD4,0xA8,Write,ACK
3.631043625,2141,0xD5,0xF0,Read,ACK
3.631091625,2141,0xD5,0xFF,Read,ACK
3.631139625,2141,0xD5,0x9F,Read,ACK
3.631187625,2141,0xD5,0xFF,Read,ACK
3.631235625,2141,0xD5,0xE8,Read,ACK
3.631291375,2141,0xD5,0xFF,Read,NAK
3.631421375,2142,0x52,0x02,Write,ACK
3.631541625,2143,0x53,0x00,Read,ACK
3.631589625,2143,0x53,0x00,Read,ACK
3.631638,2143,0x53,0x4F,Read,ACK
3.631686,2143,0x53,0xC0,Read,ACK
3.63173425,2143,0x53,0xBD,Read,ACK
3.63178225,2143,0x53,0x00,Read,ACK
3.631838,2143,0x53,0xAB,Read,NAK
3.64062225,2144,0xD4,0xA6,Write,ACK
3.6407435,2145,0xD5,0x13,Read,ACK
3.6407915,2145,0xD5,0x0F,Read,NAK
3.6409225,2146,0xD4,0xA8,Write,ACK
3.641042875,2147,0xD5,0xF5,Read,ACK
3.641090875,2147,0xD5,0xFF,Read,ACK
3.641138875,2147,0xD5,0x9B,Read,ACK
3.641186875,2147,0xD5,0xFF,Read,ACK
3.641234875,2147,0xD5,0xE3,Read,ACK
3.6412905,2147,0xD5,0xFF,Read,NAK
3.6414205,2148,0x52,0x02,Write,ACK
3.641540875,2149,0x53,0x00,Read,ACK
3.641588875,2149,0x53,0x00,Read,ACK
3.641637125,2149,0x53,0x4F,Read,ACK
3.641685125,2149,0x53,0xC0,Read,ACK
3.6417335,2149,0x53,0xBD,Read,ACK
3.6417815,2149,0x53,0x00,Read,ACK
3.641837125,2149,0x53,0xAB,Read,NAK
3.650621375,2150,0xD4,0xA6,Write,ACK
3.65074275,2151,0xD5,0x13,Read,ACK
3.65079075,2151,0xD5,0x0F,Read,NAK
3.65092175,2152,0xD4,0xA8,Write,ACK
3.651042,2153,0xD5,0xF7,Read,ACK
3.65109,2153,0xD5,0xFF,Read,ACK
3.651138,2153,0xD5,0x90,Read,ACK
3.651186,2153,0xD5,0xFF,Read,ACK
3.651234,2153,0xD5,0xE6,Read,ACK
3.65128975,2153,0xD5,0xFF,Read,NAK
3.65141975,2154,0x52,0x02,Write,ACK
3.65154,2155,0x53,0x00,Read,ACK
3.651588,2155,0x53,0x00,Read,ACK
3.651636375,2155,0x53,0x4F,Read,ACK
3.651684375,2155,0x53,0xC0,Read,ACK
3.651732625,2155,0x53,0xBD,Read,ACK
3.651780625,2155,0x53,0x00,Read,ACK
3.651836375,2155,0x53,0xAB,Read,NAK
3.66062125,2156,0xD4,0xA6,Write,ACK
3.660742625,2157,0xD5,0x13,Read,ACK
3.660790625,2157,0xD5,0x0F,Read,NAK
3.660921625,2158,0xD4,0xA8,Write,ACK
3.661041875,2159,0xD5,0xF6,Read,ACK
3.661089875,2159,0xD5,0xFF,Read,ACK
3.661137875,2159,0xD5,0x8B,Read,ACK
3.661185875,2159,0xD5,0xFF,Read,ACK
3.661233875,2159,0xD5,0xF0,Read,ACK
3.661289625,2159,0xD5,0xFF,Read,NAK
3.661419625,2160,0x52,0x02,Write,ACK
3.661539875,2161,0x53,0x00,Read,ACK
3.661587875,2161,0x53,0x00,Read,ACK
3.661636,2161,0x53,0x4F,Read,ACK
3.66168425,2161,0x53,0xC0,Read,ACK
3.6617325,2161,0x53,0xBD,Read,ACK
3.6617805,2161,0x53,0x00,Read,ACK
3.66183625,2161,0x53,0xAB,Read,NAK
3.67062075,2162,0xD4,0xA6,Write,ACK
3.670742125,2163,0xD5,0x13,Read,ACK
3.670790125,2163,0xD5,0x0F,Read,NAK
3.670921125,2164,0xD4,0xA8,Write,ACK
3.6710415,2165,0xD5,0xF3,Read,ACK
3.671089375,2165,0xD5,0xFF,Read,ACK
3.671137375,2165,0xD5,0x8C,Read,ACK
3.671185375,2165,0xD5,0xFF,Read,ACK
3.671233375,2165,0xD5,0xF8,Read,ACK
3.671289125,2165,0xD5,0xFF,Read,NAK
3.671419125,2166,0x52,0x02,Write,ACK
3.671539375,2167,0x53,0x00,Read,ACK
3.671587375,2167,0x53,0x00,Read,ACK
3.6716355,2167,0x53,0x4F,Read,ACK
3.671683375,2167,0x53,0xC0,Read,ACK
3.671731625,2167,0x53,0xBD,Read,ACK
3.67177975,2167,0x53,0x00,Read,ACK
3.671835375,2167,0x53,0xAB,Read,NAK
3.68062,2168,0xD4,0xA6,Write,ACK
3.680741375,2169,0xD5,0x13,Read,ACK
3.680789375,2169,0xD5,0x0F,Read,NAK
3.68092025,2170,0xD4,0xA8,Write,ACK
3.681040625,2171,0xD5,0xF1,Read,ACK
3.681088625,2171,0xD5,0xFF,Read,ACK
3.681136625,2171,0xD5,0x90,Read,ACK
3.681184625,2171,0xD5,0xFF,Read,ACK
3.681232625,2171,0xD5,0xF9,Read,ACK
3.68128825,2171,0xD5,0xFF,Read,NAK
3.68141825,2172,0x52,0x02,Write,ACK
3.681538625,2173,0x53,0x00,Read,ACK
3.681586625,2173,0x53,0x00,Read,ACK
3.681634875,2173,0x53,0x4F,Read,ACK
3.681682875,2173,0x53,0xC0,Read,ACK
3.681731375,2173,0x53,0xBD,Read,ACK
3.68177925,2173,0x53,0x00,Read,ACK
3.681834875,2173,0x53,0xAB,Read,NAK
3.690618875,2174,0xD4,0xA6,Write,ACK
3.690740125,2175,0xD5,0x13,Read,ACK
3.690788125,2175,0xD5,0x0F,Read,NAK
3.690919125,2176,0xD4,0xA8,Write,ACK
3.6910395,2177,0xD5,0xF2,Read,ACK
3.6910875,2177,0xD5,0xFF,Read,ACK
3.6911355,2177,0xD5,0x96,Read,ACK
3.6911835,2177,0xD5,0xFF,Read,ACK
3.6912315,2177,0xD5,0xF6,Read,ACK
3.691287125,2177,0xD5,0xFF,Read,NAK
3.691417125,2178,0x52,0x02,Write,ACK
3.6915375,2179,0x53,0x00,Read,ACK
3.6915855,2179,0x53,0x00,Read,ACK
3.691633625,2179,0x53,0x4F,Read,ACK
3.69168175,2179,0x53,0xC0,Read,ACK
3.691730125,2179,0x53,0xBD,Read,ACK
3.691778125,2179,0x53,0x00,Read,ACK
3.69183375,2179,0x53,0xAB,Read,NAK
3.700618,2180,0xD4,0xA6,Write,ACK
3.700739375,2181,0xD5,0x13,Read,ACK
3.700787375,2181,0xD5,0x0F,Read,NAK
3.700918375,2182,0xD4,0xA8,Write,ACK
3.70103875,2183,0xD5,0xF3,Read,ACK
3.701086625,2183,0xD5,0xFF,Read,ACK
3.701134625,2183,0xD5,0xA0,Read,ACK
3.701182625,2183,0xD5,0xFF,Read,ACK
3.701230625,2183,0xD5,0xF3,Read,ACK
3.701286375,2183,0xD5,0xFF,Read,NAK
3.701416375,2184,0x52,0x02,Write,ACK
3.701536625,2185,0x53,0x00,Read,ACK
3.701584625,2185,0x53,0x00,Read,ACK
3.701632875,2185,0x53,0x4F,Read,ACK
3.701681,2185,0x53,0xC0,Read,ACK
3.70172925,2185,0x53,0xBD,Read,ACK
3.701777375,2185,0x53,0x00,Read,ACK
3.701833,2185,0x53,0xAB,Read,NAK
3.710617625,2186,0xD4,0xA6,Write,ACK
3.710738875,2187,0xD5,0x13,Read,ACK
3.710786875,2187,0xD5,0x0F,Read,NAK
3.710917875,2188,0xD4,0xA8,Write,ACK
3.71103825,2189,0xD5,0xEB,Read,ACK
3.71108625,2189,0xD5,0xFF,Read,ACK
3.71113425,2189,0xD5,0xA9,Read,ACK
3.71118225,2189,0xD5,0xFF,Read,ACK
3.71123025,2189,0xD5,0xF1,Read,ACK
3.711285875,2189,0xD5,0xFF,Read,NAK
3.711415875,2190,0x52,0x02,Write,ACK
3.71153625,2191,0x53,0x00,Read,ACK
3.71158425,2191,0x53,0x00,Read,ACK
3.711632375,2191,0x53,0x4F,Read,ACK
3.7116805,2191,0x53,0xC0,Read,ACK
3.71172875,2191,0x53,0xBD,Read,ACK
3.711776875,2191,0x53,0x00,Read,ACK
3.7118325,2191,0x53,0xAB,Read,NAK
3.720617375,2192,0xD4,0xA6,Write,ACK
3.72073875,2193,0xD5,0x13,Read,ACK
3.72078675,2193,0xD5,0x0F,Read,NAK
3.72091775,2194,0xD4,0xA8,Write,ACK
3.721038125,2195,0xD5,0xDA,Read,ACK
3.721086125,2195,0xD5,0xFF,Read,ACK
3.721134125,2195,0xD5,0xAB,Read,ACK
3.721182125,2195,0xD5,0xFF,Read,ACK
3.721230125,2195,0xD5,0xEC,Read,ACK
3.72128575,2195,0xD5,0xFF,Read,NAK
3.72141575,2196,0x52,0x02,Write,ACK
3.721536,2197,0x53,0x00,Read,ACK
3.721584,2197,0x53,0x00,Read,ACK
3.72163225,2197,0x53,0x4F,Read,ACK
3.72168,2197,0x53,0xC0,Read,ACK
3.72172825,2197,0x53,0xBD,Read,ACK
3.721776375,2197,0x53,0x00,Read,ACK
3.721832,2197,0x53,0xAB,Read,NAK
3.730617,2198,0xD4,0xA6,Write,ACK
3.73073825,2199,0xD5,0x13,Read,ACK
3.73078625,2199,0xD5,0x0F,Read,NAK
3.73091725,2200,0xD4,0xA8,Write,ACK
3.731037625,2201,0xD5,0xCE,Read,ACK
3.731085625,2201,0xD5,0xFF,Read,ACK
3.731133625,2201,0xD5,0xA5,Read,ACK
3.731181625,2201,0xD5,0xFF,Read,ACK
3.731229625,2201,0xD5,0xE3,Read,ACK
3.73128525,2201,0xD5,0xFF,Read,NAK
3.73141525,2202,0x52,0x02,Write,ACK
3.731535625,2203,0x53,0x00,Read,ACK
3.731583625,2203,0x53,0x00,Read,ACK
3.73163175,2203,0x53,0x4F,Read,ACK
3.731679875,2203,0x53,0xC0,Read,ACK
3.73172825,2203,0x53,0xBD,Read,ACK
3.73177625,2203,0x53,0x00,Read,ACK
3.731831875,2203,0x53,0xAB,Read,NAK
3.740616875,2204,0xD4,0xA6,Write,ACK
3.740738125,2205,0xD5,0x13,Read,ACK
3.740786125,2205,0xD5,0x0F,Read,NAK
3.740917125,2206,0xD4,0xA8,Write,ACK
3.7410375,2207,0xD5,0xCD,Read,ACK
3.7410855,2207,0xD5,0xFF,Read,ACK
3.7411335,2207,0xD5,0x9F,Read,ACK
3.7411815,2207,0xD5,0xFF,Read,ACK
3.7412295,2207,0xD5,0xDF,Read,ACK
3.741285125,2207,0xD5,0xFF,Read,NAK
3.741415125,2208,0x52,0x02,Write,ACK
3.7415355,2209,0x53,0x00,Read,ACK
3.7415835,2209,0x53,0x00,Read,ACK
3.7416315,2209,0x53,0x4F,Read,ACK
3.741679375,2209,0x53,0xC0,Read,ACK
3.741727625,2209,0x53,0xBD,Read,ACK
3.74177575,2209,0x53,0x00,Read,ACK
3.741831375,2209,0x53,0xAB,Read,NAK
3.750616375,2210,0xD4,0xA6,Write,ACK
3.750737625,2211,0xD5,0x13,Read,ACK
3.750785625,2211,0xD5,0x00,Read,NAK
3.750919625,2212,0x52,0x02,Write,ACK
3.75104,2213,0x53,0x00,Read,ACK
3.751088,2213,0x53,0x00,Read,ACK
3.751136125,2213,0x53,0x4F,Read,ACK
3.751184375,2213,0x53,0xC0,Read,ACK
3.751232625,2213,0x53,0xBD,Read,ACK
3.751280625,2213,0x53,0x00,Read,ACK
3.751336375,2213,0x53,0xAB,Read,NAK
3.760615875,2214,0xD4,0xA6,Write,ACK
3.76073725,2215,0xD5,0x13,Read,ACK
3.76078525,2215,0xD5,0x0F,Read,NAK
3.76091625,2216,0xD4,0xA8,Write,ACK
3.7610365,2217,0xD5,0xCF,Read,ACK
3.7610845,2217,0xD5,0xFF,Read,ACK
3.7611325,2217,0xD5,0x9B,Read,ACK
3.7611805,2217,0xD5,0xFF,Read,ACK
3.7612285,2217,0xD5,0xE2,Read,ACK
3.761284125,2217,0xD5,0xFF,Read,NAK
3.761414125,2218,0x52,0x02,Write,ACK
3.7615345,2219,0x53,0x00,Read,ACK
3.7615825,2219,0x53,0x00,Read,ACK
3.761630625,2219,0x53,0x4F,Read,ACK
3.7616785,2219,0x53,0xC0,Read,ACK
3.761726875,2219,0x53,0xBD,Read,ACK
3.761774875,2219,0x53,0x00,Read,ACK
3.7618305,2219,0x53,0xAB,Read,NAK
3.770615375,2220,0xD4,0xA6,Write,ACK
3.77073675,2221,0xD5,0x13,Read,ACK
3.77078475,2221,0xD5,0x0F,Read,NAK
3.77091575,2222,0xD4,0xA8,Write,ACK
3.771036,2223,0xD5,0xCE,Read,ACK
3.771084,2223,0xD5,0xFF,Read,ACK
3.771132,2223,0xD5,0x98,Read,ACK
3.77118,2223,0xD5,0xFF,Read,ACK
3.771228,2223,0xD5,0xE8,Read,ACK
3.77128375,2223,0xD5,0xFF,Read,NAK
3.77141375,2224,0x52,0x02,Write,ACK
3.771534,2225,0x53,0x00,Read,ACK
3.771582,2225,0x53,0x00,Read,ACK
3.771630125,2225,0x53,0x4F,Read,ACK
3.771678,2225,0x53,0xC0,Read,ACK
3.77172625,2225,0x53,0xBD,Read,ACK
3.771774375,2225,0x53,0x00,Read,ACK
3.77183,2225,0x53,0xAB,Read,NAK
3.78061425,2226,0xD4,0xA6,Write,ACK
3.780735625,2227,0xD5,0x13,Read,ACK
3.780783625,2227,0xD5,0x0F,Read,NAK
3.780914625,2228,0xD4,0xA8,Write,ACK
3.781034875,2229,0xD5,0xC8,Read,ACK
3.781082875,2229,0xD5,0xFF,Read,ACK
3.781130875,2229,0xD5,0x96,Read,ACK
3.781178875,2229,0xD5,0xFF,Read,ACK
3.781226875,2229,0xD5,0xE9,Read,ACK
3.781282625,2229,0xD5,0xFF,Read,NAK
3.781412625,2230,0x52,0x02,Write,ACK
3.781532875,2231,0x53,0x00,Read,ACK
3.781580875,2231,0x53,0x00,Read,ACK
3.781629,2231,0x53,0x4F,Read,ACK
3.78167725,2231,0x53,0xC0,Read,ACK
3.7817255,2231,0x53,0xBD,Read,ACK
3.7817735,2231,0x53,0x00,Read,ACK
3.78182925,2231,0x53,0xAB,Read,NAK
3.79061475,2232,0xD4,0xA6,Write,ACK
3.790736125,2233,0xD5,0x13,Read,ACK
3.790784125,2233,0xD5,0x0F,Read,NAK
3.790915125,2234,0xD4,0xA8,Write,ACK
3.7910355,2235,0xD5,0xC8,Read,ACK
3.791083375,2235,0xD5,0xFF,Read,ACK
3.791131375,2235,0xD5,0x9A,Read,ACK
3.791179375,2235,0xD5,0xFF,Read,ACK
3.791227375,2235,0xD5,0xE6,Read,ACK
3.791283125,2235,0xD5,0xFF,Read,NAK
3.791413125,2236,0x52,0x02,Write,ACK
3.791533375,2237,0x53,0x00,Read,ACK
3.791581375,2237,0x53,0x00,Read,ACK
3.791629625,2237,0x53,0x4F,Read,ACK
3.79167775,2237,0x53,0xC0,Read,ACK
3.791726,2237,0x53,0xBD,Read,ACK
3.791774125,2237,0x53,0x00,Read,ACK
3.79182975,2237,0x53,0xAB,Read,NAK
3.800614,2238,0xD4,0xA6,Write,ACK
3.800735375,2239,0xD5,0x13,Read,ACK
3.800783375,2239,0xD5,0x0F,Read,NAK
3.80091425,2240,0xD4,0xA8,Write,ACK
3.801034625,2241,0xD5,0xCF,Read,ACK
3.801082625,2241,0xD5,0xFF,Read,ACK
3.801130625,2241,0xD5,0xA2,Read,ACK
3.801178625,2241,0xD5,0xFF,Read,ACK
3.801226625,2241,0xD5,0xE4,Read,ACK
3.80128225,2241,0xD5,0xFF,Read,NAK
3.80141225,2242,0x52,0x02,Write,ACK
3.801532625,2243,0x53,0x00,Read,ACK
3.801580625,2243,0x53,0x00,Read,ACK
3.80162875,2243,0x53,0x4F,Read,ACK
3.801676625,2243,0x53,0xC0,Read,ACK
3.801724875,2243,0x53,0xBD,Read,ACK
3.801772875,2243,0x53,0x00,Read,ACK
3.801828625,2243,0x53,0xAB,Read,NAK
3.810613125,2244,0xD4,0xA6,Write,ACK
3.8107345,2245,0xD5,0x13,Read,ACK
3.8107825,2245,0xD5,0x0F,Read,NAK
3.8109135,2246,0xD4,0xA8,Write,ACK
3.811033875,2247,0xD5,0xDB,Read,ACK
3.811081875,2247,0xD5,0xFF,Read,ACK
3.811129875,2247,0xD5,0xA5,Read,ACK
3.811177875,2247,0xD5,0xFF,Read,ACK
3.811225875,2247,0xD5,0xE7,Read,ACK
3.8112815,2247,0xD5,0xFF,Read,NAK
3.8114115,2248,0x52,0x02,Write,ACK
3.81153175,2249,0x53,0x00,Read,ACK
3.81157975,2249,0x53,0x00,Read,ACK
3.811627875,2249,0x53,0x4F,Read,ACK
3.81167575,2249,0x53,0xC0,Read,ACK
3.811724125,2249,0x53,0xBD,Read,ACK
3.811772125,2249,0x53,0x00,Read,ACK
3.81182775,2249,0x53,0xAB,Read,NAK
3.820613,2250,0xD4,0xA6,Write,ACK
3.820734375,2251,0xD5,0x13,Read,ACK
3.820782375,2251,0xD5,0x0F,Read,NAK
3.820913375,2252,0xD4,0xA8,Write,ACK
3.82103375,2253,0xD5,0xE5,Read,ACK
3.821081625,2253,0xD5,0xFF,Read,ACK
3.821129625,2253,0xD5,0xA0,Read,ACK
3.821177625,2253,0xD5,0xFF,Read,ACK
3.821225625,2253,0xD5,0xED,Read,ACK
3.821281375,2253,0xD5,0xFF,Read,NAK
3.821411375,2254,0x52,0x02,Write,ACK
3.821531625,2255,0x53,0x00,Read,ACK
3.821579625,2255,0x53,0x00,Read,ACK
3.821627875,2255,0x53,0x4F,Read,ACK
3.821676,2255,0x53,0xC0,Read,ACK
3.82172425,2255,0x53,0xBD,Read,ACK
3.821772375,2255,0x53,0x00,Read,ACK
3.821828,2255,0x53,0xAB,Read,NAK
3.830612875,2256,0xD4,0xA6,Write,ACK
3.83073425,2257,0xD5,0x13,Read,ACK
3.83078225,2257,0xD5,0x0F,Read,NAK
3.83091325,2258,0xD4,0xA8,Write,ACK
3.8310335,2259,0xD5,0xEC,Read,ACK
3.8310815,2259,0xD5,0xFF,Read,ACK
3.8311295,2259,0xD5,0x97,Read,ACK
3.8311775,2259,0xD5,0xFF,Read,ACK
3.8312255,2259,0xD5,0xF2,Read,ACK
3.83128125,2259,0xD5,0xFF,Read,NAK
3.83141125,2260,0x52,0x02,Write,ACK
3.8315315,2261,0x53,0x00,Read,ACK
3.8315795,2261,0x53,0x00,Read,ACK
3.83162775,2261,0x53,0x4F,Read,ACK
3.831675875,2261,0x53,0xC0,Read,ACK
3.831724125,2261,0x53,0xBD,Read,ACK
3.831772125,2261,0x53,0x00,Read,ACK
3.831827875,2261,0x53,0xAB,Read,NAK
3.840612375,2262,0xD4,0xA6,Write,ACK
3.84073375,2263,0xD5,0x13,Read,ACK
3.84078175,2263,0xD5,0x0F,Read,NAK
3.84091275,2264,0xD4,0xA8,Write,ACK
3.841033125,2265,0xD5,0xEE,Read,ACK
3.841081125,2265,0xD5,0xFF,Read,ACK
3.841129125,2265,0xD5,0x92,Read,ACK
3.841177125,2265,0xD5,0xFF,Read,ACK
3.841225125,2265,0xD5,0xF0,Read,ACK
3.84128075,2265,0xD5,0xFF,Read,NAK
3.84141075,2266,0x52,0x02,Write,ACK
3.841531,2267,0x53,0x00,Read,ACK
3.841579,2267,0x53,0x00,Read,ACK
3.841627375,2267,0x53,0x4F,Read,ACK
3.841675375,2267,0x53,0xC0,Read,ACK
3.841723625,2267,0x53,0xBD,Read,ACK
3.84177175,2267,0x53,0x00,Read,ACK
3.841827375,2267,0x53,0xAB,Read,NAK
3.85061225,2268,0xD4,0xA6,Write,ACK
3.850733625,2269,0xD5,0x13,Read,ACK
3.850781625,2269,0xD5,0x0F,Read,NAK
3.850912625,2270,0xD4,0xA8,Write,ACK
3.851033,2271,0xD5,0xEA,Read,ACK
3.851080875,2271,0xD5,0xFF,Read,ACK
3.851128875,2271,0xD5,0x93,Read,ACK
3.851176875,2271,0xD5,0xFF,Read,ACK
3.851224875,2271,0xD5,0xEC,Read,ACK
3.851280625,2271,0xD5,0xFF,Read,NAK
3.851410625,2272,0x52,0x02,Write,ACK
3.851530875,2273,0x53,0x00,Read,ACK
3.851578875,2273,0x53,0x00,Read,ACK
3.851627,2273,0x53,0x4F,Read,ACK
3.851674875,2273,0x53,0xC0,Read,ACK
3.85172325,2273,0x53,0xBD,Read,ACK
3.85177125,2273,0x53,0x00,Read,ACK
3.851826875,2273,0x53,0xAB,Read,NAK
3.860611875,2274,0xD4,0xA6,Write,ACK
3.860733125,2275,0xD5,0x13,Read,ACK
3.860781125,2275,0xD5,0x0F,Read,NAK
3.860912125,2276,0xD4,0xA8,Write,ACK
3.8610325,2277,0xD5,0xE4,Read,ACK
3.8610805,2277,0xD5,0xFF,Read,ACK
3.8611285,2277,0xD5,0x97,Read,ACK
3.8611765,2277,0xD5,0xFF,Read,ACK
3.8612245,2277,0xD5,0xEA,Read,ACK
3.861280125,2277,0xD5,0xFF,Read,NAK
3.861410125,2278,0x52,0x02,Write,ACK
3.8615305,2279,0x53,0x00,Read,ACK
3.8615785,2279,0x53,0x00,Read,ACK
3.86162675,2279,0x53,0x4F,Read,ACK
3.86167475,2279,0x53,0xC0,Read,ACK
3.861723,2279,0x53,0xBD,Read,ACK
3.861771125,2279,0x53,0x00,Read,ACK
3.86182675,2279,0x53,0xAB,Read,NAK
3.870611375,2280,0xD4,0xA6,Write,ACK
3.870732625,2281,0xD5,0x13,Read,ACK
3.870780625,2281,0xD5,0x0F,Read,NAK
3.870911625,2282,0xD4,0xA8,Write,ACK
3.871032,2283,0xD5,0xDE,Read,ACK
3.87108,2283,0xD5,0xFF,Read,ACK
3.871128,2283,0xD5,0x97,Read,ACK
3.871176,2283,0xD5,0xFF,Read,ACK
3.871224,2283,0xD5,0xEB,Read,ACK
3.871279625,2283,0xD5,0xFF,Read,NAK
3.871409625,2284,0x52,0x02,Write,ACK
3.87153,2285,0x53,0x00,Read,ACK
3.871578,2285,0x53,0x00,Read,ACK
3.871626125,2285,0x53,0x4F,Read,ACK
3.871674,2285,0x53,0xC0,Read,ACK
3.87172225,2285,0x53,0xBD,Read,ACK
3.87177025,2285,0x53,0x00,Read,ACK
3.871826,2285,0x53,0xAB,Read,NAK
3.8806095,2286,0xD4,0xA6,Write,ACK
3.880730875,2287,0xD5,0x13,Read,ACK
3.880778875,2287,0xD5,0x0F,Read,NAK
3.880909875,2288,0xD4,0xA8,Write,ACK
3.88103025,2289,0xD5,0xDC,Read,ACK
3.881078125,2289,0xD5,0xFF,Read,ACK
3.881126125,2289,0xD5,0x91,Read,ACK
3.881174125,2289,0xD5,0xFF,Read,ACK
3.881222125,2289,0xD5,0xED,Read,ACK
3.881277875,2289,0xD5,0xFF,Read,NAK
3.881407875,2290,0x52,0x02,Write,ACK
3.881528125,2291,0x53,0x00,Read,ACK
3.881576125,2291,0x53,0x00,Read,ACK
3.88162425,2291,0x53,0x4F,Read,ACK
3.881672125,2291,0x53,0xC0,Read,ACK
3.8817205,2291,0x53,0xBD,Read,ACK
3.8817685,2291,0x53,0x00,Read,ACK
3.881824125,2291,0x53,0xAB,Read,NAK
3.89060975,2292,0xD4,0xA6,Write,ACK
3.890731125,2293,0xD5,0x13,Read,ACK
3.890779125,2293,0xD5,0x0F,Read,NAK
3.89091,2294,0xD4,0xA8,Write,ACK
3.891030375,2295,0xD5,0xDC,Read,ACK
3.891078375,2295,0xD5,0xFF,Read,ACK
3.891126375,2295,0xD5,0x8E,Read,ACK
3.891174375,2295,0xD5,0xFF,Read,ACK
3.891222375,2295,0xD5,0xEC,Read,ACK
3.891278,2295,0xD5,0xFF,Read,NAK
3.891408,2296,0x52,0x02,Write,ACK
3.891528375,2297,0x53,0x00,Read,ACK
3.891576375,2297,0x53,0x00,Read,ACK
3.8916245,2297,0x53,0x4F,Read,ACK
3.891672625,2297,0x53,0xC0,Read,ACK
3.891721,2297,0x53,0xBD,Read,ACK
3.891769,2297,0x53,0x00,Read,ACK
3.891824625,2297,0x53,0xAB,Read,NAK
3.900608875,2298,0xD4,0xA6,Write,ACK
3.90073025,2299,0xD5,0x13,Read,ACK
3.90077825,2299,0xD5,0x0F,Read,NAK
3.90090925,2300,0xD4,0xA8,Write,ACK
3.901029625,2301,0xD5,0xDC,Read,ACK
3.901077625,2301,0xD5,0xFF,Read,ACK
3.901125625,2301,0xD5,0x90,Read,ACK
3.901173625,2301,0xD5,0xFF,Read,ACK
3.901221625,2301,0xD5,0xED,Read,ACK
3.90127725,2301,0xD5,0xFF,Read,NAK
3.90140725,2302,0x52,0x02,Write,ACK
3.9015275,2303,0x53,0x00,Read,ACK
3.9015755,2303,0x53,0x00,Read,ACK
3.90162375,2303,0x53,0x4F,Read,ACK
3.901671875,2303,0x53,0xC0,Read,ACK
3.901720125,2303,0x53,0xBD,Read,ACK
3.90176825,2303,0x53,0x00,Read,ACK
3.901823875,2303,0x53,0xAB,Read,NAK
3.91060875,2304,0xD4,0xA6,Write,ACK
3.910730125,2305,0xD5,0x13,Read,ACK
3.910778125,2305,0xD5,0x0F,Read,NAK
3.910909125,2306,0xD4,0xA8,Write,ACK
3.9110295,2307,0xD5,0xDA,Read,ACK
3.911077375,2307,0xD5,0xFF,Read,ACK
3.911125375,2307,0xD5,0x94,Read,ACK
3.911173375,2307,0xD5,0xFF,Read,ACK
3.911221375,2307,0xD5,0xF1,Read,ACK
3.911277125,2307,0xD5,0xFF,Read,NAK
3.911407125,2308,0x52,0x02,Write,ACK
3.911527375,2309,0x53,0x00,Read,ACK
3.911575375,2309,0x53,0x00,Read,ACK
3.911623625,2309,0x53,0x4F,Read,ACK
3.91167175,2309,0x53,0xC0,Read,ACK
3.911720125,2309,0x53,0xBD,Read,ACK
3.911768125,2309,0x53,0x00,Read,ACK
3.91182375,2309,0x53,0xAB,Read,NAK
3.920607375,2310,0xD4,0xA6,Write,ACK
3.920728625,2311,0xD5,0x13,Read,ACK
3.920776625,2311,0xD5,0x0F,Read,NAK
3.920907625,2312,0xD4,0xA8,Write,ACK
3.921028,2313,0xD5,0xDA,Read,ACK
3.921076,2313,0xD5,0xFF,Read,ACK
3.921124,2313,0xD5,0x93,Read,ACK
3.921172,2313,0xD5,0xFF,Read,ACK
3.92122,2313,0xD5,0xF6,Read,ACK
3.921275625,2313,0xD5,0xFF,Read,NAK
3.921405625,2314,0x52,0x02,Write,ACK
3.921526,2315,0x53,0x00,Read,ACK
3.921574,2315,0x53,0x00,Read,ACK
3.921622125,2315,0x53,0x4F,Read,ACK
3.92167025,2315,0x53,0xC0,Read,ACK
3.9217185,2315,0x53,0xBD,Read,ACK
3.921766625,2315,0x53,0x00,Read,ACK
3.92182225,2315,0x53,0xAB,Read,NAK
3.930608125,2316,0xD4,0xA6,Write,ACK
3.9307295,2317,0xD5,0x13,Read,ACK
3.9307775,2317,0xD5,0x00,Read,NAK
3.9309115,2318,0x52,0x02,Write,ACK
3.931031875,2319,0x53,0x00,Read,ACK
3.931079875,2319,0x53,0x00,Read,ACK
3.931128,2319,0x53,0x4F,Read,ACK
3.931175875,2319,0x53,0xC0,Read,ACK
3.931224125,2319,0x53,0xBD,Read,ACK
3.931272125,2319,0x53,0x00,Read,ACK
3.931327875,2319,0x53,0xAB,Read,NAK
3.940607375,2320,0xD4,0xA6,Write,ACK
3.94072875,2321,0xD5,0x13,Read,ACK
3.94077675,2321,0xD5,0x0F,Read,NAK
3.94090775,2322,0xD4,0xA8,Write,ACK
3.941028,2323,0xD5,0xDC,Read,ACK
3.941076,2323,0xD5,0xFF,Read,ACK
3.941124,2323,0xD5,0x91,Read,ACK
3.941172,2323,0xD5,0xFF,Read,ACK
3.94122,2323,0xD5,0xF6,Read,ACK
3.941275625,2323,0xD5,0xFF,Read,NAK
3.941405625,2324,0x52,0x02,Write,ACK
3.941526,2325,0x53,0x00,Read,ACK
3.941574,2325,0x53,0x00,Read,ACK
3.94162225,2325,0x53,0x4F,Read,ACK
3.941670375,2325,0x53,0xC0,Read,ACK
3.94171875,2325,0x53,0xBD,Read,ACK
3.941766625,2325,0x53,0x00,Read,ACK
3.941822375,2325,0x53,0xAB,Read,NAK
3.950605625,2326,0xD4,0xA6,Write,ACK
3.950726875,2327,0xD5,0x13,Read,ACK
3.950774875,2327,0xD5,0x0F,Read,NAK
3.950905875,2328,0xD4,0xA8,Write,ACK
3.95102625,2329,0xD5,0xE0,Read,ACK
3.95107425,2329,0xD5,0xFF,Read,ACK
3.95112225,2329,0xD5,0x92,Read,ACK
3.95117025,2329,0xD5,0xFF,Read,ACK
3.95121825,2329,0xD5,0xEF,Read,ACK
3.951273875,2329,0xD5,0xFF,Read,NAK
3.951403875,2330,0x52,0x02,Write,ACK
3.95152425,2331,0x53,0x00,Read,ACK
3.95157225,2331,0x53,0x00,Read,ACK
3.95162025,2331,0x53,0x4F,Read,ACK
3.951668125,2331,0x53,0xC0,Read,ACK
3.951716375,2331,0x53,0xBD,Read,ACK
3.9517645,2331,0x53,0x00,Read,ACK
3.951820125,2331,0x53,0xAB,Read,NAK
3.960606125,2332,0xD4,0xA6,Write,ACK
3.960727375,2333,0xD5,0x13,Read,ACK
3.960775375,2333,0xD5,0x0F,Read,NAK
3.960906375,2334,0xD4,0xA8,Write,ACK
3.96102675,2335,0xD5,0xE4,Read,ACK
3.96107475,2335,0xD5,0xFF,Read,ACK
3.96112275,2335,0xD5,0x93,Read,ACK
3.96117075,2335,0xD5,0xFF,Read,ACK
3.96121875,2335,0xD5,0xE6,Read,ACK
3.961274375,2335,0xD5,0xFF,Read,NAK
3.961404375,2336,0x52,0x02,Write,ACK
3.96152475,2337,0x53,0x00,Read,ACK
3.96157275,2337,0x53,0x00,Read,ACK
3.961620875,2337,0x53,0x4F,Read,ACK
3.96166875,2337,0x53,0xC0,Read,ACK
3.961717,2337,0x53,0xBD,Read,ACK
3.961765,2337,0x53,0x00,Read,ACK
3.96182075,2337,0x53,0xAB,Read,NAK
3.970605625,2338,0xD4,0xA6,Write,ACK
3.970727,2339,0xD5,0x13,Read,ACK
3.970775,2339,0xD5,0x0F,Read,NAK
3.970906,2340,0xD4,0xA8,Write,ACK
3.97102625,2341,0xD5,0xE0,Read,ACK
3.97107425,2341,0xD5,0xFF,Read,ACK
3.97112225,2341,0xD5,0x91,Read,ACK
3.97117025,2341,0xD5,0xFF,Read,ACK
3.97121825,2341,0xD5,0xE3,Read,ACK
3.971273875,2341,0xD5,0xFF,Read,NAK
3.971403875,2342,0x52,0x02,Write,ACK
3.97152425,2343,0x53,0x00,Read,ACK
3.97157225,2343,0x53,0x00,Read,ACK
3.971620375,2343,0x53,0x4F,Read,ACK
3.97166825,2343,0x53,0xC0,Read,ACK
3.9717165,2343,0x53,0xBD,Read,ACK
3.971764625,2343,0x53,0x00,Read,ACK
3.97182025,2343,0x53,0xAB,Read,NAK
3.980605875,2344,0xD4,0xA6,Write,ACK
3.980727125,2345,0xD5,0x13,Read,ACK
3.980775125,2345,0xD5,0x0F,Read,NAK
3.980906125,2346,0xD4,0xA8,Write,ACK
3.9810265,2347,0xD5,0xD7,Read,ACK
3.9810745,2347,0xD5,0xFF,Read,ACK
3.9811225,2347,0xD5,0x93,Read,ACK
3.9811705,2347,0xD5,0xFF,Read,ACK
3.9812185,2347,0xD5,0xE5,Read,ACK
3.981274125,2347,0xD5,0xFF,Read,NAK
3.981404125,2348,0x52,0x02,Write,ACK
3.9815245,2349,0x53,0x00,Read,ACK
3.9815725,2349,0x53,0x00,Read,ACK
3.9816205,2349,0x53,0x4F,Read,ACK
3.981668375,2349,0x53,0xC0,Read,ACK
3.98171675,2349,0x53,0xBD,Read,ACK
3.98176475,2349,0x53,0x00,Read,ACK
3.981820375,2349,0x53,0xAB,Read,NAK
3.990604375,2350,0xD4,0xA6,Write,ACK
3.990725625,2351,0xD5,0x13,Read,ACK
3.990773625,2351,0xD5,0x0F,Read,NAK
3.990904625,2352,0xD4,0xA8,Write,ACK
3.991025,2353,0xD5,0xD1,Read,ACK
3.991073,2353,0xD5,0xFF,Read,ACK
3.991121,2353,0xD5,0x9E,Read,ACK
3.991169,2353,0xD5,0xFF,Read,ACK
3.991217,2353,0xD5,0xEB,Read,ACK
3.991272625,2353,0xD5,0xFF,Read,NAK
3.991402625,2354,0x52,0x02,Write,ACK
3.991523,2355,0x53,0x00,Read,ACK
3.991571,2355,0x53,0x00,Read,ACK
3.991619125,2355,0x53,0x4F,Read,ACK
3.991667,2355,0x53,0xC0,Read,ACK
3.99171525,2355,0x53,0xBD,Read,ACK
3.99176325,2355,0x53,0x00,Read,ACK
3.991819,2355,0x53,0xAB,Read,NAK
4.00060425,2356,0xD4,0xA6,Write,ACK
4.0007255,2357,0xD5,0x13,Read,ACK
4.0007735,2357,0xD5,0x0F,Read,NAK
4.0009045,2358,0xD4,0xA8,Write,ACK
4.001024875,2359,0xD5,0xD5,Read,ACK
4.001072875,2359,0xD5,0xFF,Read,ACK
4.001120875,2359,0xD5,0xAD,Read,ACK
4.001168875,2359,0xD5,0xFF,Read,ACK
4.001216875,2359,0xD5,0xF0,Read,ACK
4.0012725,2359,0xD5,0xFF,Read,NAK
4.0014025,2360,0x52,0x02,Write,ACK
4.001522875,2361,0x53,0x00,Read,ACK
4.001570875,2361,0x53,0x00,Read,ACK
4.001619125,2361,0x53,0x4F,Read,ACK
4.001667125,2361,0x53,0xC0,Read,ACK
4.0017155,2361,0x53,0xBD,Read,ACK
4.0017635,2361,0x53,0x00,Read,ACK
4.001819125,2361,0x53,0xAB,Read,NAK
4.010604375,2362,0xD4,0xA6,Write,ACK
4.01072575,2363,0xD5,0x13,Read,ACK
4.01077375,2363,0xD5,0x0F,Read,NAK
4.01090475,2364,0xD4,0xA8,Write,ACK
4.011025,2365,0xD5,0xDD,Read,ACK
4.011073,2365,0xD5,0xFF,Read,ACK
4.011121,2365,0xD5,0xB3,Read,ACK
4.011169,2365,0xD5,0xFF,Read,ACK
4.011217,2365,0xD5,0xF1,Read,ACK
4.01127275,2365,0xD5,0xFF,Read,NAK
4.01140275,2366,0x52,0x02,Write,ACK
4.011523,2367,0x53,0x00,Read,ACK
4.011571,2367,0x53,0x00,Read,ACK
4.01161925,2367,0x53,0x4F,Read,ACK
4.011667375,2367,0x53,0xC0,Read,ACK
4.011715625,2367,0x53,0xBD,Read,ACK
4.011763625,2367,0x53,0x00,Read,ACK
4.011819375,2367,0x53,0xAB,Read,NAK
4.020603625,2368,0xD4,0xA6,Write,ACK
4.020724875,2369,0xD5,0x13,Read,ACK
4.020772875,2369,0xD5,0x0F,Read,NAK
4.020903875,2370,0xD4,0xA8,Write,ACK
4.02102425,2371,0xD5,0xDD,Read,ACK
4.02107225,2371,0xD5,0xFF,Read,ACK
4.02112025,2371,0xD5,0xAB,Read,ACK
4.02116825,2371,0xD5,0xFF,Read,ACK
4.02121625,2371,0xD5,0xEF,Read,ACK
4.021271875,2371,0xD5,0xFF,Read,NAK
4.021401875,2372,0x52,0x02,Write,ACK
4.02152225,2373,0x53,0x00,Read,ACK
4.02157025,2373,0x53,0x00,Read,ACK
4.021618375,2373,0x53,0x4F,Read,ACK
4.02166625,2373,0x53,0xC0,Read,ACK
4.0217145,2373,0x53,0xBD,Read,ACK
4.0217625,2373,0x53,0x00,Read,ACK
4.02181825,2373,0x53,0xAB,Read,NAK
4.030603125,2374,0xD4,0xA6,Write,ACK
4.0307245,2375,0xD5,0x13,Read,ACK
4.0307725,2375,0xD5,0x0F,Read,NAK
4.0309035,2376,0xD4,0xA8,Write,ACK
4.03102375,2377,0xD5,0xD7,Read,ACK
4.03107175,2377,0xD5,0xFF,Read,ACK
4.03111975,2377,0xD5,0x9E,Read,ACK
4.03116775,2377,0xD5,0xFF,Read,ACK
4.03121575,2377,0xD5,0xEC,Read,ACK
4.031271375,2377,0xD5,0xFF,Read,NAK
4.031401375,2378,0x52,0x02,Write,ACK
4.03152175,2379,0x53,0x00,Read,ACK
4.03156975,2379,0x53,0x00,Read,ACK
4.031617875,2379,0x53,0x4F,Read,ACK
4.03166575,2379,0x53,0xC0,Read,ACK
4.031714,2379,0x53,0xBD,Read,ACK
4.031762125,2379,0x53,0x00,Read,ACK
4.03181775,2379,0x53,0xAB,Read,NAK
4.040602,2380,0xD4,0xA6,Write,ACK
4.040723375,2381,0xD5,0x13,Read,ACK
4.040771375,2381,0xD5,0x0F,Read,NAK
4.04090225,2382,0xD4,0xA8,Write,ACK
4.041022625,2383,0xD5,0xD5,Read,ACK
4.041070625,2383,0xD5,0xFF,Read,ACK
4.041118625,2383,0xD5,0x99,Read,ACK
4.041166625,2383,0xD5,0xFF,Read,ACK
4.041214625,2383,0xD5,0xEB,Read,ACK
4.04127025,2383,0xD5,0xFF,Read,NAK
4.04140025,2384,0x52,0x02,Write,ACK
4.041520625,2385,0x53,0x00,Read,ACK
4.041568625,2385,0x53,0x00,Read,ACK
4.041616875,2385,0x53,0x4F,Read,ACK
4.041664875,2385,0x53,0xC0,Read,ACK
4.041713375,2385,0x53,0xBD,Read,ACK
4.04176125,2385,0x53,0x00,Read,ACK
4.041816875,2385,0x53,0xAB,Read,NAK
4.0506015,2386,0xD4,0xA6,Write,ACK
4.050722875,2387,0xD5,0x13,Read,ACK
4.050770875,2387,0xD5,0x0F,Read,NAK
4.050901875,2388,0xD4,0xA8,Write,ACK
4.051022125,2389,0xD5,0xD8,Read,ACK
4.051070125,2389,0xD5,0xFF,Read,ACK
4.051118125,2389,0xD5,0xA0,Read,ACK
4.051166125,2389,0xD5,0xFF,Read,ACK
4.051214125,2389,0xD5,0xEC,Read,ACK
4.051269875,2389,0xD5,0xFF,Read,NAK
4.051399875,2390,0x52,0x02,Write,ACK
4.051520125,2391,0x53,0x00,Read,ACK
4.051568125,2391,0x53,0x00,Read,ACK
4.05161625,2391,0x53,0x4F,Read,ACK
4.051664125,2391,0x53,0xC0,Read,ACK
4.0517125,2391,0x53,0xBD,Read,ACK
4.0517605,2391,0x53,0x00,Read,ACK
4.051816125,2391,0x53,0xAB,Read,NAK
4.06060275,2392,0xD4,0xA6,Write,ACK
4.060724,2393,0xD5,0x13,Read,ACK
4.060772,2393,0xD5,0x0F,Read,NAK
4.060903,2394,0xD4,0xA8,Write,ACK
4.061023375,2395,0xD5,0xD7,Read,ACK
4.061071375,2395,0xD5,0xFF,Read,ACK
4.061119375,2395,0xD5,0xAB,Read,ACK
4.061167375,2395,0xD5,0xFF,Read,ACK
4.061215375,2395,0xD5,0xEF,Read,ACK
4.061271,2395,0xD5,0xFF,Read,NAK
4.061401,2396,0x52,0x02,Write,ACK
4.061521375,2397,0x53,0x00,Read,ACK
4.061569375,2397,0x53,0x00,Read,ACK
4.0616175,2397,0x53,0x4F,Read,ACK
4.061665375,2397,0x53,0xC0,Read,ACK
4.061713625,2397,0x53,0xBD,Read,ACK
4.061761625,2397,0x53,0x00,Read,ACK
4.061817375,2397,0x53,0xAB,Read,NAK
4.070598875,2398,0xD4,0xA6,Write,ACK
4.07072025,2399,0xD5,0x13,Read,ACK
4.07076825,2399,0xD5,0x0F,Read,NAK
4.07089925,2400,0xD4,0xA8,Write,ACK
4.0710195,2401,0xD5,0xCD,Read,ACK
4.0710675,2401,0xD5,0xFF,Read,ACK
4.0711155,2401,0xD5,0xA9,Read,ACK
4.0711635,2401,0xD5,0xFF,Read,ACK
4.0712115,2401,0xD5,0xF1,Read,ACK
4.07126725,2401,0xD5,0xFF,Read,NAK
4.07139725,2402,0x52,0x02,Write,ACK
4.0715175,2403,0x53,0x00,Read,ACK
4.0715655,2403,0x53,0x00,Read,ACK
4.071613625,2403,0x53,0x4F,Read,ACK
4.0716615,2403,0x53,0xC0,Read,ACK
4.071709875,2403,0x53,0xBD,Read,ACK
4.071757875,2403,0x53,0x00,Read,ACK
4.0718135,2403,0x53,0xAB,Read,NAK
4.08060075,2404,0xD4,0xA6,Write,ACK
4.080722125,2405,0xD5,0x13,Read,ACK
4.080770125,2405,0xD5,0x0F,Read,NAK
4.080901125,2406,0xD4,0xA8,Write,ACK
4.081021375,2407,0xD5,0xC3,Read,ACK
4.081069375,2407,0xD5,0xFF,Read,ACK
4.081117375,2407,0xD5,0x96,Read,ACK
4.081165375,2407,0xD5,0xFF,Read,ACK
4.081213375,2407,0xD5,0xEF,Read,ACK
4.081269125,2407,0xD5,0xFF,Read,NAK
4.081399125,2408,0x52,0x02,Write,ACK
4.081519375,2409,0x53,0x00,Read,ACK
4.081567375,2409,0x53,0x00,Read,ACK
4.081615625,2409,0x53,0x4F,Read,ACK
4.08166375,2409,0x53,0xC0,Read,ACK
4.081712,2409,0x53,0xBD,Read,ACK
4.08176,2409,0x53,0x00,Read,ACK
4.08181575,2409,0x53,0xAB,Read,NAK
4.0906,2410,0xD4,0xA6,Write,ACK
4.09072125,2411,0xD5,0x13,Read,ACK
4.09076925,2411,0xD5,0x0F,Read,NAK
4.09090025,2412,0xD4,0xA8,Write,ACK
4.091020625,2413,0xD5,0xC4,Read,ACK
4.091068625,2413,0xD5,0xFF,Read,ACK
4.091116625,2413,0xD5,0x81,Read,ACK
4.091164625,2413,0xD5,0xFF,Read,ACK
4.091212625,2413,0xD5,0xEA,Read,ACK
4.09126825,2413,0xD5,0xFF,Read,NAK
4.09139825,2414,0x52,0x02,Write,ACK
4.091518625,2415,0x53,0x00,Read,ACK
4.091566625,2415,0x53,0x00,Read,ACK
4.09161475,2415,0x53,0x4F,Read,ACK
4.091662625,2415,0x53,0xC0,Read,ACK
4.091710875,2415,0x53,0xBD,Read,ACK
4.091758875,2415,0x53,0x00,Read,ACK
4.091814625,2415,0x53,0xAB,Read,NAK
4.1005985,2416,0xD4,0xA6,Write,ACK
4.100719875,2417,0xD5,0x13,Read,ACK
4.100767875,2417,0xD5,0x0F,Read,NAK
4.10089875,2418,0xD4,0xA8,Write,ACK
4.101019125,2419,0xD5,0xCF,Read,ACK
4.101067125,2419,0xD5,0xFF,Read,ACK
4.101115125,2419,0xD5,0x7D,Read,ACK
4.101163125,2419,0xD5,0xFF,Read,ACK
4.101211125,2419,0xD5,0xE3,Read,ACK
4.10126675,2419,0xD5,0xFF,Read,NAK
4.10139675,2420,0x52,0x02,Write,ACK
4.101517125,2421,0x53,0x00,Read,ACK
4.101565125,2421,0x53,0x00,Read,ACK
4.10161325,2421,0x53,0x4F,Read,ACK
4.101661125,2421,0x53,0xC0,Read,ACK
4.101709375,2421,0x53,0xBD,Read,ACK
4.101757375,2421,0x53,0x00,Read,ACK
4.101813125,2421,0x53,0xAB,Read,NAK
4.110599,2422,0xD4,0xA6,Write,ACK
4.110720375,2423,0xD5,0x13,Read,ACK
4.110768375,2423,0xD5,0x0F,Read,NAK
4.110899375,2424,0xD4,0xA8,Write,ACK
4.111019625,2425,0xD5,0xDB,Read,ACK
4.111067625,2425,0xD5,0xFF,Read,ACK
4.111115625,2425,0xD5,0x8C,Read,ACK
4.111163625,2425,0xD5,0xFF,Read,ACK
4.111211625,2425,0xD5,0xE1,Read,ACK
4.111267375,2425,0xD5,0xFF,Read,NAK
4.111397375,2426,0x52,0x02,Write,ACK
4.111517625,2427,0x53,0x00,Read,ACK
4.111565625,2427,0x53,0x00,Read,ACK
4.11161375,2427,0x53,0x4F,Read,ACK
4.111661625,2427,0x53,0xC0,Read,ACK
4.111709875,2427,0x53,0xBD,Read,ACK
4.111758,2427,0x53,0x00,Read,ACK
4.111813625,2427,0x53,0xAB,Read,NAK
4.12059825,2428,0xD4,0xA6,Write,ACK
4.1207195,2429,0xD5,0x13,Read,ACK
4.1207675,2429,0xD5,0x00,Read,NAK
4.1209015,2430,0x52,0x02,Write,ACK
4.121021875,2431,0x53,0x00,Read,ACK
4.121069875,2431,0x53,0x00,Read,ACK
4.121118,2431,0x53,0x4F,Read,ACK
4.121166125,2431,0x53,0xC0,Read,ACK
4.121214375,2431,0x53,0xBD,Read,ACK
4.1212625,2431,0x53,0x00,Read,ACK
4.121318125,2431,0x53,0xAB,Read,NAK
4.130597375,2432,0xD4,0xA6,Write,ACK
4.13071875,2433,0xD5,0x13,Read,ACK
4.13076675,2433,0xD5,0x0F,Read,NAK
4.13089775,2434,0xD4,0xA8,Write,ACK
4.131018,2435,0xD5,0xDF,Read,ACK
4.131066,2435,0xD5,0xFF,Read,ACK
4.131114,2435,0xD5,0x9B,Read,ACK
4.131162,2435,0xD5,0xFF,Read,ACK
4.13121,2435,0xD5,0xE2,Read,ACK
4.13126575,2435,0xD5,0xFF,Read,NAK
4.13139575,2436,0x52,0x02,Write,ACK
4.131516,2437,0x53,0x00,Read,ACK
4.131564,2437,0x53,0x00,Read,ACK
4.131612375,2437,0x53,0x4F,Read,ACK
4.131660375,2437,0x53,0xC0,Read,ACK
4.131708625,2437,0x53,0xBD,Read,ACK
4.131756625,2437,0x53,0x00,Read,ACK
4.131812375,2437,0x53,0xAB,Read,NAK
4.140597625,2438,0xD4,0xA6,Write,ACK
4.140718875,2439,0xD5,0x13,Read,ACK
4.140766875,2439,0xD5,0x0F,Read,NAK
4.140897875,2440,0xD4,0xA8,Write,ACK
4.14101825,2441,0xD5,0xE0,Read,ACK
4.14106625,2441,0xD5,0xFF,Read,ACK
4.14111425,2441,0xD5,0x9E,Read,ACK
4.14116225,2441,0xD5,0xFF,Read,ACK
4.14121025,2441,0xD5,0xE4,Read,ACK
4.141265875,2441,0xD5,0xFF,Read,NAK
4.141395875,2442,0x52,0x02,Write,ACK
4.14151625,2443,0x53,0x00,Read,ACK
4.14156425,2443,0x53,0x00,Read,ACK
4.1416125,2443,0x53,0x4F,Read,ACK
4.1416605,2443,0x53,0xC0,Read,ACK
4.141708875,2443,0x53,0xBD,Read,ACK
4.141756875,2443,0x53,0x00,Read,ACK
4.1418125,2443,0x53,0xAB,Read,NAK
4.1505975,2444,0xD4,0xA6,Write,ACK
4.15071875,2445,0xD5,0x13,Read,ACK
4.15076675,2445,0xD5,0x0F,Read,NAK
4.15089775,2446,0xD4,0xA8,Write,ACK
4.151018125,2447,0xD5,0xE2,Read,ACK
4.151066125,2447,0xD5,0xFF,Read,ACK
4.151114125,2447,0xD5,0x9B,Read,ACK
4.151162125,2447,0xD5,0xFF,Read,ACK
4.151210125,2447,0xD5,0xE5,Read,ACK
4.15126575,2447,0xD5,0xFF,Read,NAK
4.15139575,2448,0x52,0x02,Write,ACK
4.151516125,2449,0x53,0x00,Read,ACK
4.151564125,2449,0x53,0x00,Read,ACK
4.15161225,2449,0x53,0x4F,Read,ACK
4.151660375,2449,0x53,0xC0,Read,ACK
4.151708625,2449,0x53,0xBD,Read,ACK
4.15175675,2449,0x53,0x00,Read,ACK
4.151812375,2449,0x53,0xAB,Read,NAK
4.160597,2450,0xD4,0xA6,Write,ACK
4.160718375,2451,0xD5,0x13,Read,ACK
4.160766375,2451,0xD5,0x0F,Read,NAK
4.16089725,2452,0xD4,0xA8,Write,ACK
4.161017625,2453,0xD5,0xE4,Read,ACK
4.161065625,2453,0xD5,0xFF,Read,ACK
4.161113625,2453,0xD5,0x9C,Read,ACK
4.161161625,2453,0xD5,0xFF,Read,ACK
4.161209625,2453,0xD5,0xE5,Read,ACK
4.16126525,2453,0xD5,0xFF,Read,NAK
4.16139525,2454,0x52,0x02,Write,ACK
4.161515625,2455,0x53,0x00,Read,ACK
4.161563625,2455,0x53,0x00,Read,ACK
4.161611875,2455,0x53,0x4F,Read,ACK
4.161659875,2455,0x53,0xC0,Read,ACK
4.161708125,2455,0x53,0xBD,Read,ACK
4.16175625,2455,0x53,0x00,Read,ACK
4.161811875,2455,0x53,0xAB,Read,NAK
4.170596125,2456,0xD4,0xA6,Write,ACK
4.1707175,2457,0xD5,0x13,Read,ACK
4.1707655,2457,0xD5,0x0F,Read,NAK
4.1708965,2458,0xD4,0xA8,Write,ACK
4.171016875,2459,0xD5,0xE3,Read,ACK
4.171064875,2459,0xD5,0xFF,Read,ACK
4.171112875,2459,0xD5,0xA0,Read,ACK
4.171160875,2459,0xD5,0xFF,Read,ACK
4.171208875,2459,0xD5,0xE6,Read,ACK
4.1712645,2459,0xD5,0xFF,Read,NAK
4.1713945,2460,0x52,0x02,Write,ACK
4.17151475,2461,0x53,0x00,Read,ACK
4.17156275,2461,0x53,0x00,Read,ACK
4.171611125,2461,0x53,0x4F,Read,ACK
4.171659125,2461,0x53,0xC0,Read,ACK
4.171707375,2461,0x53,0xBD,Read,ACK
4.1717555,2461,0x53,0x00,Read,ACK
4.171811125,2461,0x53,0xAB,Read,NAK
4.18059675,2462,0xD4,0xA6,Write,ACK
4.180718,2463,0xD5,0x13,Read,ACK
4.180766,2463,0xD5,0x0F,Read,NAK
4.180897,2464,0xD4,0xA8,Write,ACK
4.181017375,2465,0xD5,0xDF,Read,ACK
4.181065375,2465,0xD5,0xFF,Read,ACK
4.181113375,2465,0xD5,0xA2,Read,ACK
4.181161375,2465,0xD5,0xFF,Read,ACK
4.181209375,2465,0xD5,0xE6,Read,ACK
4.181265,2465,0xD5,0xFF,Read,NAK
4.181395,2466,0x52,0x02,Write,ACK
4.181515375,2467,0x53,0x00,Read,ACK
4.181563375,2467,0x53,0x00,Read,ACK
4.181611375,2467,0x53,0x4F,Read,ACK
4.181659375,2467,0x53,0xC0,Read,ACK
4.181707625,2467,0x53,0xBD,Read,ACK
4.181755625,2467,0x53,0x00,Read,ACK
4.181811375,2467,0x53,0xAB,Read,NAK
4.19059625,2468,0xD4,0xA6,Write,ACK
4.190717625,2469,0xD5,0x13,Read,ACK
4.190765625,2469,0xD5,0x0F,Read,NAK
4.1908965,2470,0xD4,0xA8,Write,ACK
4.191016875,2471,0xD5,0xDB,Read,ACK
4.191064875,2471,0xD5,0xFF,Read,ACK
4.191112875,2471,0xD5,0xA4,Read,ACK
4.191160875,2471,0xD5,0xFF,Read,ACK
4.191208875,2471,0xD5,0xE8,Read,ACK
4.1912645,2471,0xD5,0xFF,Read,NAK
4.1913945,2472,0x52,0x02,Write,ACK
4.191514875,2473,0x53,0x00,Read,ACK
4.191562875,2473,0x53,0x00,Read,ACK
4.191611,2473,0x53,0x4F,Read,ACK
4.191659125,2473,0x53,0xC0,Read,ACK
4.1917075,2473,0x53,0xBD,Read,ACK
4.1917555,2473,0x53,0x00,Read,ACK
4.191811125,2473,0x53,0xAB,Read,NAK
4.20059575,2474,0xD4,0xA6,Write,ACK
4.200717125,2475,0xD5,0x13,Read,ACK
4.200765125,2475,0xD5,0x0F,Read,NAK
4.200896125,2476,0xD4,0xA8,Write,ACK
4.201016375,2477,0xD5,0xD7,Read,ACK
4.201064375,2477,0xD5,0xFF,Read,ACK
4.201112375,2477,0xD5,0xA8,Read,ACK
4.201160375,2477,0xD5,0xFF,Read,ACK
4.201208375,2477,0xD5,0xED,Read,ACK
4.201264125,2477,0xD5,0xFF,Read,NAK
4.201394125,2478,0x52,0x02,Write,ACK
4.201514375,2479,0x53,0x00,Read,ACK
4.201562375,2479,0x53,0x00,Read,ACK
4.20161075,2479,0x53,0x4F,Read,ACK
4.20165875,2479,0x53,0xC0,Read,ACK
4.201707,2479,0x53,0xBD,Read,ACK
4.201755,2479,0x53,0x00,Read,ACK
4.20181075,2479,0x53,0xAB,Read,NAK
4.210595625,2480,0xD4,0xA6,Write,ACK
4.210717,2481,0xD5,0x13,Read,ACK
4.210765,2481,0xD5,0x0F,Read,NAK
4.210896,2482,0xD4,0xA8,Write,ACK
4.21101625,2483,0xD5,0xD1,Read,ACK
4.21106425,2483,0xD5,0xFF,Read,ACK
4.21111225,2483,0xD5,0xA9,Read,ACK
4.21116025,2483,0xD5,0xFF,Read,ACK
4.21120825,2483,0xD5,0xF5,Read,ACK
4.211263875,2483,0xD5,0xFF,Read,NAK
4.211393875,2484,0x52,0x02,Write,ACK
4.21151425,2485,0x53,0x00,Read,ACK
4.21156225,2485,0x53,0x00,Read,ACK
4.211610375,2485,0x53,0x4F,Read,ACK
4.21165825,2485,0x53,0xC0,Read,ACK
4.211706625,2485,0x53,0xBD,Read,ACK
4.211754625,2485,0x53,0x00,Read,ACK
4.21181025,2485,0x53,0xAB,Read,NAK
4.220594875,2486,0xD4,0xA6,Write,ACK
4.220716125,2487,0xD5,0x13,Read,ACK
4.220764125,2487,0xD5,0x0F,Read,NAK
4.220895125,2488,0xD4,0xA8,Write,ACK
4.2210155,2489,0xD5,0xC8,Read,ACK
4.2210635,2489,0xD5,0xFF,Read,ACK
4.2211115,2489,0xD5,0xA6,Read,ACK
4.2211595,2489,0xD5,0xFF,Read,ACK
4.2212075,2489,0xD5,0xF9,Read,ACK
4.221263125,2489,0xD5,0xFF,Read,NAK
4.221393125,2490,0x52,0x02,Write,ACK
4.2215135,2491,0x53,0x00,Read,ACK
4.2215615,2491,0x53,0x00,Read,ACK
4.221609625,2491,0x53,0x4F,Read,ACK
4.22165775,2491,0x53,0xC0,Read,ACK
4.221706125,2491,0x53,0xBD,Read,ACK
4.221754125,2491,0x53,0x00,Read,ACK
4.22180975,2491,0x53,0xAB,Read,NAK
4.230594375,2492,0xD4,0xA6,Write,ACK
4.230715625,2493,0xD5,0x13,Read,ACK
4.230763625,2493,0xD5,0x0F,Read,NAK
4.230894625,2494,0xD4,0xA8,Write,ACK
4.231015,2495,0xD5,0xC5,Read,ACK
4.231063,2495,0xD5,0xFF,Read,ACK
4.231111,2495,0xD5,0xA6,Read,ACK
4.231159,2495,0xD5,0xFF,Read,ACK
4.231207,2495,0xD5,0xF4,Read,ACK
4.231262625,2495,0xD5,0xFF,Read,NAK
4.231392625,2496,0x52,0x02,Write,ACK
4.231513,2497,0x53,0x00,Read,ACK
4.231561,2497,0x53,0x00,Read,ACK
4.231609125,2497,0x53,0x4F,Read,ACK
4.23165725,2497,0x53,0xC0,Read,ACK
4.2317055,2497,0x53,0xBD,Read,ACK
4.231753625,2497,0x53,0x00,Read,ACK
4.23180925,2497,0x53,0xAB,Read,NAK
4.2405935,2498,0xD4,0xA6,Write,ACK
4.240714875,2499,0xD5,0x13,Read,ACK
4.240762875,2499,0xD5,0x0F,Read,NAK
4.240893875,2500,0xD4,0xA8,Write,ACK
4.24101425,2501,0xD5,0xCE,Read,ACK
4.241062125,2501,0xD5,0xFF,Read,ACK
4.241110125,2501,0xD5,0xAC,Read,ACK
4.241158125,2501,0xD5,0xFF,Read,ACK
4.241206125,2501,0xD5,0xE9,Read,ACK
4.241261875,2501,0xD5,0xFF,Read,NAK
4.241391875,2502,0x52,0x02,Write,ACK
4.241512125,2503,0x53,0x00,Read,ACK
4.241560125,2503,0x53,0x00,Read,ACK
4.241608375,2503,0x53,0x4F,Read,ACK
4.2416565,2503,0x53,0xC0,Read,ACK
4.24170475,2503,0x53,0xBD,Read,ACK
4.241752875,2503,0x53,0x00,Read,ACK
4.2418085,2503,0x53,0xAB,Read,NAK
4.250593125,2504,0xD4,0xA6,Write,ACK
4.250714375,2505,0xD5,0x13,Read,ACK
4.250762375,2505,0xD5,0x0F,Read,NAK
4.250893375,2506,0xD4,0xA8,Write,ACK
4.25101375,2507,0xD5,0xDE,Read,ACK
4.25106175,2507,0xD5,0xFF,Read,ACK
4.25110975,2507,0xD5,0xB2,Read,ACK
4.25115775,2507,0xD5,0xFF,Read,ACK
4.25120575,2507,0xD5,0xE2,Read,ACK
4.251261375,2507,0xD5,0xFF,Read,NAK
4.251391375,2508,0x52,0x02,Write,ACK
4.25151175,2509,0x53,0x00,Read,ACK
4.25155975,2509,0x53,0x00,Read,ACK
4.251607875,2509,0x53,0x4F,Read,ACK
4.251656,2509,0x53,0xC0,Read,ACK
4.251704375,2509,0x53,0xBD,Read,ACK
4.251752375,2509,0x53,0x00,Read,ACK
4.251808,2509,0x53,0xAB,Read,NAK
4.260592625,2510,0xD4,0xA6,Write,ACK
4.260713875,2511,0xD5,0x13,Read,ACK
4.260761875,2511,0xD5,0x0F,Read,NAK
4.260892875,2512,0xD4,0xA8,Write,ACK
4.26101325,2513,0xD5,0xE8,Read,ACK
4.26106125,2513,0xD5,0xFF,Read,ACK
4.26110925,2513,0xD5,0xB0,Read,ACK
4.26115725,2513,0xD5,0xFF,Read,ACK
4.26120525,2513,0xD5,0xE0,Read,ACK
4.261260875,2513,0xD5,0xFF,Read,NAK
4.261390875,2514,0x52,0x02,Write,ACK
4.26151125,2515,0x53,0x00,Read,ACK
4.26155925,2515,0x53,0x00,Read,ACK
4.261607375,2515,0x53,0x4F,Read,ACK
4.2616555,2515,0x53,0xC0,Read,ACK
4.26170375,2515,0x53,0xBD,Read,ACK
4.261751875,2515,0x53,0x00,Read,ACK
4.2618075,2515,0x53,0xAB,Read,NAK
4.27059175,2516,0xD4,0xA6,Write,ACK
4.270713125,2517,0xD5,0x13,Read,ACK
4.270761125,2517,0xD5,0x0F,Read,NAK
4.270892125,2518,0xD4,0xA8,Write,ACK
4.2710125,2519,0xD5,0xE6,Read,ACK
4.271060375,2519,0xD5,0xFF,Read,ACK
4.271108375,2519,0xD5,0xA7,Read,ACK
4.271156375,2519,0xD5,0xFF,Read,ACK
4.271204375,2519,0xD5,0xE1,Read,ACK
4.271260125,2519,0xD5,0xFF,Read,NAK
4.271390125,2520,0x52,0x02,Write,ACK
4.271510375,2521,0x53,0x00,Read,ACK
4.271558375,2521,0x53,0x00,Read,ACK
4.2716065,2521,0x53,0x4F,Read,ACK
4.271654375,2521,0x53,0xC0,Read,ACK
4.271702625,2521,0x53,0xBD,Read,ACK
4.27175075,2521,0x53,0x00,Read,ACK
4.271806375,2521,0x53,0xAB,Read,NAK
4.280591625,2522,0xD4,0xA6,Write,ACK
4.280713,2523,0xD5,0x13,Read,ACK
4.280761,2523,0xD5,0x0F,Read,NAK
4.280892,2524,0xD4,0xA8,Write,ACK
4.28101225,2525,0xD5,0xDD,Read,ACK
4.28106025,2525,0xD5,0xFF,Read,ACK
4.28110825,2525,0xD5,0xA0,Read,ACK
4.28115625,2525,0xD5,0xFF,Read,ACK
4.28120425,2525,0xD5,0xE3,Read,ACK
4.28126,2525,0xD5,0xFF,Read,NAK
4.28139,2526,0x52,0x02,Write,ACK
4.28151025,2527,0x53,0x00,Read,ACK
4.28155825,2527,0x53,0x00,Read,ACK
4.281606375,2527,0x53,0x4F,Read,ACK
4.281654625,2527,0x53,0xC0,Read,ACK
4.281703,2527,0x53,0xBD,Read,ACK
4.281750875,2527,0x53,0x00,Read,ACK
4.281806625,2527,0x53,0xAB,Read,NAK
4.2905915,2528,0xD4,0xA6,Write,ACK
4.290712875,2529,0xD5,0x13,Read,ACK
4.290760875,2529,0xD5,0x0F,Read,NAK
4.290891875,2530,0xD4,0xA8,Write,ACK
4.291012125,2531,0xD5,0xD7,Read,ACK
4.291060125,2531,0xD5,0xFF,Read,ACK
4.291108125,2531,0xD5,0x9D,Read,ACK
4.291156125,2531,0xD5,0xFF,Read,ACK
4.291204125,2531,0xD5,0xE5,Read,ACK
4.291259875,2531,0xD5,0xFF,Read,NAK
4.291389875,2532,0x52,0x02,Write,ACK
4.291510125,2533,0x53,0x00,Read,ACK
4.291558125,2533,0x53,0x00,Read,ACK
4.29160625,2533,0x53,0x4F,Read,ACK
4.291654125,2533,0x53,0xC0,Read,ACK
4.291702375,2533,0x53,0xBD,Read,ACK
4.2917505,2533,0x53,0x00,Read,ACK
4.291806125,2533,0x53,0xAB,Read,NAK
4.300591,2534,0xD4,0xA6,Write,ACK
4.300712375,2535,0xD5,0x13,Read,ACK
4.300760375,2535,0xD5,0x00,Read,NAK
4.300894375,2536,0x52,0x02,Write,ACK
4.30101475,2537,0x53,0x00,Read,ACK
4.30106275,2537,0x53,0x00,Read,ACK
4.301110875,2537,0x53,0x4F,Read,ACK
4.301159,2537,0x53,0xC0,Read,ACK
4.30120725,2537,0x53,0xBD,Read,ACK
4.301255375,2537,0x53,0x00,Read,ACK
4.301311,2537,0x53,0xAB,Read,NAK
4.310590875,2538,0xD4,0xA6,Write,ACK
4.31071225,2539,0xD5,0x13,Read,ACK
4.31076025,2539,0xD5,0x0F,Read,NAK
4.31089125,2540,0xD4,0xA8,Write,ACK
4.3110115,2541,0xD5,0xD8,Read,ACK
4.3110595,2541,0xD5,0xFF,Read,ACK
4.3111075,2541,0xD5,0x9A,Read,ACK
4.3111555,2541,0xD5,0xFF,Read,ACK
4.3112035,2541,0xD5,0xE8,Read,ACK
4.31125925,2541,0xD5,0xFF,Read,NAK
4.31138925,2542,0x52,0x02,Write,ACK
4.3115095,2543,0x53,0x00,Read,ACK
4.3115575,2543,0x53,0x00,Read,ACK
4.31160575,2543,0x53,0x4F,Read,ACK
4.311653875,2543,0x53,0xC0,Read,ACK
4.31170225,2543,0x53,0xBD,Read,ACK
4.311750125,2543,0x53,0x00,Read,ACK
4.311805875,2543,0x53,0xAB,Read,NAK
4.320590125,2544,0xD4,0xA6,Write,ACK
4.320711375,2545,0xD5,0x13,Read,ACK
4.320759375,2545,0xD5,0x0F,Read,NAK
4.320890375,2546,0xD4,0xA8,Write,ACK
4.32101075,2547,0xD5,0xDC,Read,ACK
4.32105875,2547,0xD5,0xFF,Read,ACK
4.32110675,2547,0xD5,0x97,Read,ACK
4.32115475,2547,0xD5,0xFF,Read,ACK
4.32120275,2547,0xD5,0xEE,Read,ACK
4.321258375,2547,0xD5,0xFF,Read,NAK
4.321388375,2548,0x52,0x02,Write,ACK
4.32150875,2549,0x53,0x00,Read,ACK
4.32155675,2549,0x53,0x00,Read,ACK
4.321604875,2549,0x53,0x4F,Read,ACK
4.32165275,2549,0x53,0xC0,Read,ACK
4.321701,2549,0x53,0xBD,Read,ACK
4.321749,2549,0x53,0x00,Read,ACK
4.32180475,2549,0x53,0xAB,Read,NAK
4.330589625,2550,0xD4,0xA6,Write,ACK
4.330711,2551,0xD5,0x13,Read,ACK
4.330759,2551,0xD5,0x0F,Read,NAK
4.33089,2552,0xD4,0xA8,Write,ACK
4.33101025,2553,0xD5,0xE3,Read,ACK
4.33105825,2553,0xD5,0xFF,Read,ACK
4.33110625,2553,0xD5,0x95,Read,ACK
4.33115425,2553,0xD5,0xFF,Read,ACK
4.33120225,2553,0xD5,0xF2,Read,ACK
4.331257875,2553,0xD5,0xFF,Read,NAK
4.331387875,2554,0x52,0x02,Write,ACK
4.33150825,2555,0x53,0x00,Read,ACK
4.33155625,2555,0x53,0x00,Read,ACK
4.331604375,2555,0x53,0x4F,Read,ACK
4.33165225,2555,0x53,0xC0,Read,ACK
4.3317005,2555,0x53,0xBD,Read,ACK
4.331748625,2555,0x53,0x00,Read,ACK
4.33180425,2555,0x53,0xAB,Read,NAK
4.3405895,2556,0xD4,0xA6,Write,ACK
4.340710875,2557,0xD5,0x13,Read,ACK
4.340758875,2557,0xD5,0x0F,Read,NAK
4.34088975,2558,0xD4,0xA8,Write,ACK
4.341010125,2559,0xD5,0xE9,Read,ACK
4.341058125,2559,0xD5,0xFF,Read,ACK
4.341106125,2559,0xD5,0x98,Read,ACK
4.341154125,2559,0xD5,0xFF,Read,ACK
4.341202125,2559,0xD5,0xF2,Read,ACK
4.34125775,2559,0xD5,0xFF,Read,NAK
4.34138775,2560,0x52,0x02,Write,ACK
4.341508125,2561,0x53,0x00,Read,ACK
4.341556125,2561,0x53,0x00,Read,ACK
4.34160425,2561,0x53,0x4F,Read,ACK
4.341652125,2561,0x53,0xC0,Read,ACK
4.341700375,2561,0x53,0xBD,Read,ACK
4.341748375,2561,0x53,0x00,Read,ACK
4.341804125,2561,0x53,0xAB,Read,NAK
4.350589,2562,0xD4,0xA6,Write,ACK
4.350710375,2563,0xD5,0x13,Read,ACK
4.350758375,2563,0xD5,0x0F,Read,NAK
4.350889375,2564,0xD4,0xA8,Write,ACK
4.351009625,2565,0xD5,0xEA,Read,ACK
4.351057625,2565,0xD5,0xFF,Read,ACK
4.351105625,2565,0xD5,0x9D,Read,ACK
4.351153625,2565,0xD5,0xFF,Read,ACK
4.351201625,2565,0xD5,0xF3,Read,ACK
4.351257375,2565,0xD5,0xFF,Read,NAK
4.351387375,2566,0x52,0x02,Write,ACK
4.351507625,2567,0x53,0x00,Read,ACK
4.351555625,2567,0x53,0x00,Read,ACK
4.351603875,2567,0x53,0x4F,Read,ACK
4.351652,2567,0x53,0xC0,Read,ACK
4.35170025,2567,0x53,0xBD,Read,ACK
4.35174825,2567,0x53,0x00,Read,ACK
4.351804,2567,0x53,0xAB,Read,NAK
4.36058825,2568,0xD4,0xA6,Write,ACK
4.3607095,2569,0xD5,0x13,Read,ACK
4.3607575,2569,0xD5,0x0F,Read,NAK
4.3608885,2570,0xD4,0xA8,Write,ACK
4.361008875,2571,0xD5,0xE2,Read,ACK
4.361056875,2571,0xD5,0xFF,Read,ACK
4.361104875,2571,0xD5,0xA1,Read,ACK
4.361152875,2571,0xD5,0xFF,Read,ACK
4.361200875,2571,0xD5,0xFB,Read,ACK
4.3612565,2571,0xD5,0xFF,Read,NAK
4.3613865,2572,0x52,0x02,Write,ACK
4.361506875,2573,0x53,0x00,Read,ACK
4.361554875,2573,0x53,0x00,Read,ACK
4.361603,2573,0x53,0x4F,Read,ACK
4.361651125,2573,0x53,0xC0,Read,ACK
4.361699375,2573,0x53,0xBD,Read,ACK
4.3617475,2573,0x53,0x00,Read,ACK
4.361803125,2573,0x53,0xAB,Read,NAK
4.370587375,2574,0xD4,0xA6,Write,ACK
4.37070875,2575,0xD5,0x13,Read,ACK
4.37075675,2575,0xD5,0x0F,Read,NAK
4.37088775,2576,0xD4,0xA8,Write,ACK
4.371008,2577,0xD5,0xD8,Read,ACK
4.371056,2577,0xD5,0xFF,Read,ACK
4.371104,2577,0xD5,0x9F,Read,ACK
4.371152,2577,0xD5,0xFF,Read,ACK
4.3712,2577,0xD5,0x07,Read,ACK
4.37125575,2577,0xD5,0x00,Read,NAK
4.37138575,2578,0x52,0x02,Write,ACK
4.371506,2579,0x53,0x00,Read,ACK
4.371554,2579,0x53,0x00,Read,ACK
4.37160225,2579,0x53,0x4F,Read,ACK
4.371650375,2579,0x53,0xC0,Read,ACK
4.371698625,2579,0x53,0xBD,Read,ACK
4.371746625,2579,0x53,0x00,Read,ACK
4.371802375,2579,0x53,0xAB,Read,NAK
4.38058725,2580,0xD4,0xA6,Write,ACK
4.380708625,2581,0xD5,0x13,Read,ACK
4.380756625,2581,0xD5,0x0F,Read,NAK
4.380887625,2582,0xD4,0xA8,Write,ACK
4.381007875,2583,0xD5,0xD9,Read,ACK
4.381055875,2583,0xD5,0xFF,Read,ACK
4.381103875,2583,0xD5,0x98,Read,ACK
4.381151875,2583,0xD5,0xFF,Read,ACK
4.381199875,2583,0xD5,0x0C,Read,ACK
4.381255625,2583,0xD5,0x00,Read,NAK
4.381385625,2584,0x52,0x02,Write,ACK
4.381505875,2585,0x53,0x00,Read,ACK
4.381553875,2585,0x53,0x00,Read,ACK
4.381602,2585,0x53,0x4F,Read,ACK
4.381649875,2585,0x53,0xC0,Read,ACK
4.381698125,2585,0x53,0xBD,Read,ACK
4.38174625,2585,0x53,0x00,Read,ACK
4.381801875,2585,0x53,0xAB,Read,NAK
4.39058575,2586,0xD4,0xA6,Write,ACK
4.390707125,2587,0xD5,0x13,Read,ACK
4.390755125,2587,0xD5,0x0F,Read,NAK
4.390886125,2588,0xD4,0xA8,Write,ACK
4.3910065,2589,0xD5,0xE5,Read,ACK
4.391054375,2589,0xD5,0xFF,Read,ACK
4.391102375,2589,0xD5,0x97,Read,ACK
4.391150375,2589,0xD5,0xFF,Read,ACK
4.391198375,2589,0xD5,0x03,Read,ACK
4.391254125,2589,0xD5,0x00,Read,NAK
4.391384125,2590,0x52,0x02,Write,ACK
4.391504375,2591,0x53,0x00,Read,ACK
4.391552375,2591,0x53,0x00,Read,ACK
4.391600625,2591,0x53,0x4F,Read,ACK
4.39164875,2591,0x53,0xC0,Read,ACK
4.391697,2591,0x53,0xBD,Read,ACK
4.391745125,2591,0x53,0x00,Read,ACK
4.39180075,2591,0x53,0xAB,Read,NAK
4.400586,2592,0xD4,0xA6,Write,ACK
4.400707375,2593,0xD5,0x13,Read,ACK
4.400755375,2593,0xD5,0x0F,Read,NAK
4.40088625,2594,0xD4,0xA8,Write,ACK
4.401006625,2595,0xD5,0xF1,Read,ACK
4.401054625,2595,0xD5,0xFF,Read,ACK
4.401102625,2595,0xD5,0x9E,Read,ACK
4.401150625,2595,0xD5,0xFF,Read,ACK
4.401198625,2595,0xD5,0xF5,Read,ACK
4.40125425,2595,0xD5,0xFF,Read,NAK
4.40138425,2596,0x52,0x02,Write,ACK
4.401504625,2597,0x53,0x00,Read,ACK
4.401552625,2597,0x53,0x00,Read,ACK
4.401600875,2597,0x53,0x4F,Read,ACK
4.401648875,2597,0x53,0xC0,Read,ACK
4.40169725,2597,0x53,0xBD,Read,ACK
4.40174525,2597,0x53,0x00,Read,ACK
4.401800875,2597,0x53,0xAB,Read,NAK
4.4105855,2598,0xD4,0xA6,Write,ACK
4.410706875,2599,0xD5,0x13,Read,ACK
4.410754875,2599,0xD5,0x0F,Read,NAK
4.410885875,2600,0xD4,0xA8,Write,ACK
4.411006125,2601,0xD5,0xF3,Read,ACK
4.411054125,2601,0xD5,0xFF,Read,ACK
4.411102125,2601,0xD5,0xA6,Read,ACK
4.411150125,2601,0xD5,0xFF,Read,ACK
4.411198125,2601,0xD5,0xE9,Read,ACK
4.411253875,2601,0xD5,0xFF,Read,NAK
4.411383875,2602,0x52,0x02,Write,ACK
4.411504125,2603,0x53,0x00,Read,ACK
4.411552125,2603,0x53,0x00,Read,ACK
4.41160025,2603,0x53,0x4F,Read,ACK
4.4116485,2603,0x53,0xC0,Read,ACK
4.41169675,2603,0x53,0xBD,Read,ACK
4.41174475,2603,0x53,0x00,Read,ACK
4.4118005,2603,0x53,0xAB,Read,NAK
4.420585,2604,0xD4,0xA6,Write,ACK
4.420706375,2605,0xD5,0x13,Read,ACK
4.420754375,2605,0xD5,0x0F,Read,NAK
4.420885375,2606,0xD4,0xA8,Write,ACK
4.42100575,2607,0xD5,0xEE,Read,ACK
4.421053625,2607,0xD5,0xFF,Read,ACK
4.421101625,2607,0xD5,0xA5,Read,ACK
4.421149625,2607,0xD5,0xFF,Read,ACK
4.421197625,2607,0xD5,0xE4,Read,ACK
4.421253375,2607,0xD5,0xFF,Read,NAK
4.421383375,2608,0x52,0x02,Write,ACK
4.421503625,2609,0x53,0x00,Read,ACK
4.421551625,2609,0x53,0x00,Read,ACK
4.42159975,2609,0x53,0x4F,Read,ACK
4.421647625,2609,0x53,0xC0,Read,ACK
4.421696,2609,0x53,0xBD,Read,ACK
4.421744,2609,0x53,0x00,Read,ACK
4.421799625,2609,0x53,0xAB,Read,NAK
4.430584625,2610,0xD4,0xA6,Write,ACK
4.430705875,2611,0xD5,0x13,Read,ACK
4.430753875,2611,0xD5,0x0F,Read,NAK
4.430884875,2612,0xD4,0xA8,Write,ACK
4.43100525,2613,0xD5,0xEA,Read,ACK
4.43105325,2613,0xD5,0xFF,Read,ACK
4.43110125,2613,0xD5,0x9E,Read,ACK
4.43114925,2613,0xD5,0xFF,Read,ACK
4.43119725,2613,0xD5,0xE2,Read,ACK
4.431252875,2613,0xD5,0xFF,Read,NAK
4.431382875,2614,0x52,0x02,Write,ACK
4.43150325,2615,0x53,0x00,Read,ACK
4.43155125,2615,0x53,0x00,Read,ACK
4.431599375,2615,0x53,0x4F,Read,ACK
4.431647125,2615,0x53,0xC0,Read,ACK
4.431695625,2615,0x53,0xBD,Read,ACK
4.4317435,2615,0x53,0x00,Read,ACK
4.431799125,2615,0x53,0xAB,Read,NAK
4.44058375,2616,0xD4,0xA6,Write,ACK
4.440705125,2617,0xD5,0x13,Read,ACK
4.440753125,2617,0xD5,0x0F,Read,NAK
4.440884125,2618,0xD4,0xA8,Write,ACK
4.441004375,2619,0xD5,0xE9,Read,ACK
4.441052375,2619,0xD5,0xFF,Read,ACK
4.441100375,2619,0xD5,0x9B,Read,ACK
4.441148375,2619,0xD5,0xFF,Read,ACK
4.441196375,2619,0xD5,0xE3,Read,ACK
4.441252125,2619,0xD5,0xFF,Read,NAK
4.441382125,2620,0x52,0x02,Write,ACK
4.441502375,2621,0x53,0x00,Read,ACK
4.441550375,2621,0x53,0x00,Read,ACK
4.4415985,2621,0x53,0x4F,Read,ACK
4.44164675,2621,0x53,0xC0,Read,ACK
4.441695,2621,0x53,0xBD,Read,ACK
4.441743,2621,0x53,0x00,Read,ACK
4.44179875,2621,0x53,0xAB,Read,NAK
4.450583,2622,0xD4,0xA6,Write,ACK
4.45070425,2623,0xD5,0x13,Read,ACK
4.45075225,2623,0xD5,0x0F,Read,NAK
4.45088325,2624,0xD4,0xA8,Write,ACK
4.451003625,2625,0xD5,0xEA,Read,ACK
4.451051625,2625,0xD5,0xFF,Read,ACK
4.451099625,2625,0xD5,0xA0,Read,ACK
4.451147625,2625,0xD5,0xFF,Read,ACK
4.451195625,2625,0xD5,0xE5,Read,ACK
4.45125125,2625,0xD5,0xFF,Read,NAK
4.45138125,2626,0x52,0x02,Write,ACK
4.451501625,2627,0x53,0x00,Read,ACK
4.451549625,2627,0x53,0x00,Read,ACK
4.451597625,2627,0x53,0x4F,Read,ACK
4.451645625,2627,0x53,0xC0,Read,ACK
4.451693875,2627,0x53,0xBD,Read,ACK
4.451741875,2627,0x53,0x00,Read,ACK
4.451797625,2627,0x53,0xAB,Read,NAK
4.460582875,2628,0xD4,0xA6,Write,ACK
4.460704125,2629,0xD5,0x13,Read,ACK
4.460752125,2629,0xD5,0x0F,Read,NAK
4.460883125,2630,0xD4,0xA8,Write,ACK
4.4610035,2631,0xD5,0xE8,Read,ACK
4.4610515,2631,0xD5,0xFF,Read,ACK
4.4610995,2631,0xD5,0xA6,Read,ACK
4.4611475,2631,0xD5,0xFF,Read,ACK
4.4611955,2631,0xD5,0xEA,Read,ACK
4.461251125,2631,0xD5,0xFF,Read,NAK
4.461381125,2632,0x52,0x02,Write,ACK
4.4615015,2633,0x53,0x00,Read,ACK
4.4615495,2633,0x53,0x00,Read,ACK
4.461597625,2633,0x53,0x4F,Read,ACK
4.46164575,2633,0x53,0xC0,Read,ACK
4.461694,2633,0x53,0xBD,Read,ACK
4.461742125,2633,0x53,0x00,Read,ACK
4.46179775,2633,0x53,0xAB,Read,NAK
4.470582,2634,0xD4,0xA6,Write,ACK
4.470703375,2635,0xD5,0x13,Read,ACK
4.470751375,2635,0xD5,0x0F,Read,NAK
4.470882375,2636,0xD4,0xA8,Write,ACK
4.471002625,2637,0xD5,0xE3,Read,ACK
4.471050625,2637,0xD5,0xFF,Read,ACK
4.471098625,2637,0xD5,0xA7,Read,ACK
4.471146625,2637,0xD5,0xFF,Read,ACK
4.471194625,2637,0xD5,0xEF,Read,ACK
4.471250375,2637,0xD5,0xFF,Read,NAK
4.471380375,2638,0x52,0x02,Write,ACK
4.471500625,2639,0x53,0x00,Read,ACK
4.471548625,2639,0x53,0x00,Read,ACK
4.47159675,2639,0x53,0x4F,Read,ACK
4.471645,2639,0x53,0xC0,Read,ACK
4.47169325,2639,0x53,0xBD,Read,ACK
4.47174125,2639,0x53,0x00,Read,ACK
4.471797,2639,0x53,0xAB,Read,NAK
4.48058225,2640,0xD4,0xA6,Write,ACK
4.4807035,2641,0xD5,0x13,Read,ACK
4.4807515,2641,0xD5,0x00,Read,NAK
4.4808855,2642,0x52,0x02,Write,ACK
4.481005875,2643,0x53,0x00,Read,ACK
4.481053875,2643,0x53,0x00,Read,ACK
4.481102,2643,0x53,0x4F,Read,ACK
4.481150125,2643,0x53,0xC0,Read,ACK
4.4811985,2643,0x53,0xBD,Read,ACK
4.4812465,2643,0x53,0x00,Read,ACK
4.481302125,2643,0x53,0xAB,Read,NAK
4.49058175,2644,0xD4,0xA6,Write,ACK
4.490703125,2645,0xD5,0x13,Read,ACK
4.490751125,2645,0xD5,0x0F,Read,NAK
4.490882,2646,0xD4,0xA8,Write,ACK
4.491002375,2647,0xD5,0xDA,Read,ACK
4.491050375,2647,0xD5,0xFF,Read,ACK
4.491098375,2647,0xD5,0xA2,Read,ACK
4.491146375,2647,0xD5,0xFF,Read,ACK
4.491194375,2647,0xD5,0xF2,Read,ACK
4.49125,2647,0xD5,0xFF,Read,NAK
4.49138,2648,0x52,0x02,Write,ACK
4.491500375,2649,0x53,0x00,Read,ACK
4.491548375,2649,0x53,0x00,Read,ACK
4.4915965,2649,0x53,0x4F,Read,ACK
4.491644375,2649,0x53,0xC0,Read,ACK
4.491692625,2649,0x53,0xBD,Read,ACK
4.491740625,2649,0x53,0x00,Read,ACK
4.491796375,2649,0x53,0xAB,Read,NAK
4.50058125,2650,0xD4,0xA6,Write,ACK
4.500702625,2651,0xD5,0x13,Read,ACK
4.500750625,2651,0xD5,0x0F,Read,NAK
4.500881625,2652,0xD4,0xA8,Write,ACK
4.501001875,2653,0xD5,0xD2,Read,ACK
4.501049875,2653,0xD5,0xFF,Read,ACK
4.501097875,2653,0xD5,0x9D,Read,ACK
4.501145875,2653,0xD5,0xFF,Read,ACK
4.501193875,2653,0xD5,0xF1,Read,ACK
4.501249625,2653,0xD5,0xFF,Read,NAK
4.501379625,2654,0x52,0x02,Write,ACK
4.501499875,2655,0x53,0x00,Read,ACK
4.501547875,2655,0x53,0x00,Read,ACK
4.501596,2655,0x53,0x4F,Read,ACK
4.50164425,2655,0x53,0xC0,Read,ACK
4.5016925,2655,0x53,0xBD,Read,ACK
4.5017405,2655,0x53,0x00,Read,ACK
4.50179625,2655,0x53,0xAB,Read,NAK
4.51058075,2656,0xD4,0xA6,Write,ACK
4.510702125,2657,0xD5,0x13,Read,ACK
4.510750125,2657,0xD5,0x0F,Read,NAK
4.510881125,2658,0xD4,0xA8,Write,ACK
4.5110015,2659,0xD5,0xCC,Read,ACK
4.5110495,2659,0xD5,0xFF,Read,ACK
4.511097375,2659,0xD5,0x9C,Read,ACK
4.511145375,2659,0xD5,0xFF,Read,ACK
4.511193375,2659,0xD5,0xEC,Read,ACK
4.511249125,2659,0xD5,0xFF,Read,NAK
4.511379125,2660,0x52,0x02,Write,ACK
4.511499375,2661,0x53,0x00,Read,ACK
4.511547375,2661,0x53,0x00,Read,ACK
4.511595625,2661,0x53,0x4F,Read,ACK
4.51164375,2661,0x53,0xC0,Read,ACK
4.511692,2661,0x53,0xBD,Read,ACK
4.511740125,2661,0x53,0x00,Read,ACK
4.51179575,2661,0x53,0xAB,Read,NAK
4.520580375,2662,0xD4,0xA6,Write,ACK
4.520701625,2663,0xD5,0x13,Read,ACK
4.520749625,2663,0xD5,0x0F,Read,NAK
4.520880625,2664,0xD4,0xA8,Write,ACK
4.521001,2665,0xD5,0xC9,Read,ACK
4.521049,2665,0xD5,0xFF,Read,ACK
4.521097,2665,0xD5,0xA3,Read,ACK
4.521145,2665,0xD5,0xFF,Read,ACK
4.521193,2665,0xD5,0xE7,Read,ACK
4.521248625,2665,0xD5,0xFF,Read,NAK
4.521378625,2666,0x52,0x02,Write,ACK
4.521499,2667,0x53,0x00,Read,ACK
4.521547,2667,0x53,0x00,Read,ACK
4.52159525,2667,0x53,0x4F,Read,ACK
4.52164325,2667,0x53,0xC0,Read,ACK
4.5216915,2667,0x53,0xBD,Read,ACK
4.521739625,2667,0x53,0x00,Read,ACK
4.52179525,2667,0x53,0xAB,Read,NAK
4.530580125,2668,0xD4,0xA6,Write,ACK
4.5307015,2669,0xD5,0x13,Read,ACK
4.5307495,2669,0xD5,0x0F,Read,NAK
4.5308805,2670,0xD4,0xA8,Write,ACK
4.531000875,2671,0xD5,0xC5,Read,ACK
4.531048875,2671,0xD5,0xFF,Read,ACK
4.531096875,2671,0xD5,0xAE,Read,ACK
4.531144875,2671,0xD5,0xFF,Read,ACK
4.531192875,2671,0xD5,0xE5,Read,ACK
4.5312485,2671,0xD5,0xFF,Read,NAK
4.5313785,2672,0x52,0x02,Write,ACK
4.53149875,2673,0x53,0x00,Read,ACK
4.53154675,2673,0x53,0x00,Read,ACK
4.531594875,2673,0x53,0x4F,Read,ACK
4.53164275,2673,0x53,0xC0,Read,ACK
4.531691125,2673,0x53,0xBD,Read,ACK
4.531739125,2673,0x53,0x00,Read,ACK
4.53179475,2673,0x53,0xAB,Read,NAK
4.54057975,2674,0xD4,0xA6,Write,ACK
4.540701,2675,0xD5,0x13,Read,ACK
4.540749,2675,0xD5,0x0F,Read,NAK
4.54088,2676,0xD4,0xA8,Write,ACK
4.541000375,2677,0xD5,0xC1,Read,ACK
4.541048375,2677,0xD5,0xFF,Read,ACK
4.541096375,2677,0xD5,0xB2,Read,ACK
4.541144375,2677,0xD5,0xFF,Read,ACK
4.541192375,2677,0xD5,0xE9,Read,ACK
4.541248,2677,0xD5,0xFF,Read,NAK
4.541378,2678,0x52,0x02,Write,ACK
4.541498375,2679,0x53,0x00,Read,ACK
4.541546375,2679,0x53,0x00,Read,ACK
4.5415945,2679,0x53,0x4F,Read,ACK
4.541642625,2679,0x53,0xC0,Read,ACK
4.541691,2679,0x53,0xBD,Read,ACK
4.541739,2679,0x53,0x00,Read,ACK
4.541794625,2679,0x53,0xAB,Read,NAK
4.550578875,2680,0xD4,0xA6,Write,ACK
4.55070025,2681,0xD5,0x13,Read,ACK
4.55074825,2681,0xD5,0x0F,Read,NAK
4.55087925,2682,0xD4,0xA8,Write,ACK
4.5509995,2683,0xD5,0xC1,Read,ACK
4.5510475,2683,0xD5,0xFF,Read,ACK
4.5510955,2683,0xD5,0xAC,Read,ACK
4.5511435,2683,0xD5,0xFF,Read,ACK
4.5511915,2683,0xD5,0xEE,Read,ACK
4.55124725,2683,0xD5,0xFF,Read,NAK
4.55137725,2684,0x52,0x02,Write,ACK
4.5514975,2685,0x53,0x00,Read,ACK
4.5515455,2685,0x53,0x00,Read,ACK
4.55159375,2685,0x53,0x4F,Read,ACK
4.551641875,2685,0x53,0xC0,Read,ACK
4.55169025,2685,0x53,0xBD,Read,ACK
4.551738125,2685,0x53,0x00,Read,ACK
4.551793875,2685,0x53,0xAB,Read,NAK
4.560578375,2686,0xD4,0xA6,Write,ACK
4.56069975,2687,0xD5,0x13,Read,ACK
4.56074775,2687,0xD5,0x0F,Read,NAK
4.56087875,2688,0xD4,0xA8,Write,ACK
4.560999125,2689,0xD5,0xCA,Read,ACK
4.561047125,2689,0xD5,0xFF,Read,ACK
4.561095125,2689,0xD5,0xA4,Read,ACK
4.561143125,2689,0xD5,0xFF,Read,ACK
4.561191125,2689,0xD5,0xF0,Read,ACK
4.56124675,2689,0xD5,0xFF,Read,NAK
4.56137675,2690,0x52,0x02,Write,ACK
4.561497,2691,0x53,0x00,Read,ACK
4.561545,2691,0x53,0x00,Read,ACK
4.56159325,2691,0x53,0x4F,Read,ACK
4.561641375,2691,0x53,0xC0,Read,ACK
4.561689625,2691,0x53,0xBD,Read,ACK
4.56173775,2691,0x53,0x00,Read,ACK
4.561793375,2691,0x53,0xAB,Read,NAK
4.570578,2692,0xD4,0xA6,Write,ACK
4.57069925,2693,0xD5,0x13,Read,ACK
4.57074725,2693,0xD5,0x0F,Read,NAK
4.57087825,2694,0xD4,0xA8,Write,ACK
4.570998625,2695,0xD5,0xD5,Read,ACK
4.571046625,2695,0xD5,0xFF,Read,ACK
4.571094625,2695,0xD5,0xA0,Read,ACK
4.571142625,2695,0xD5,0xFF,Read,ACK
4.571190625,2695,0xD5,0xEF,Read,ACK
4.57124625,2695,0xD5,0xFF,Read,NAK
4.57137625,2696,0x52,0x02,Write,ACK
4.571496625,2697,0x53,0x00,Read,ACK
4.571544625,2697,0x53,0x00,Read,ACK
4.57159275,2697,0x53,0x4F,Read,ACK
4.571640875,2697,0x53,0xC0,Read,ACK
4.571689125,2697,0x53,0xBD,Read,ACK
4.57173725,2697,0x53,0x00,Read,ACK
4.571792875,2697,0x53,0xAB,Read,NAK
4.5805775,2698,0xD4,0xA6,Write,ACK
4.580698875,2699,0xD5,0x13,Read,ACK
4.580746875,2699,0xD5,0x0F,Read,NAK
4.58087775,2700,0xD4,0xA8,Write,ACK
4.580998125,2701,0xD5,0xDE,Read,ACK
4.581046125,2701,0xD5,0xFF,Read,ACK
4.581094125,2701,0xD5,0xA6,Read,ACK
4.581142125,2701,0xD5,0xFF,Read,ACK
4.581190125,2701,0xD5,0xEC,Read,ACK
4.58124575,2701,0xD5,0xFF,Read,NAK
4.58137575,2702,0x52,0x02,Write,ACK
4.581496125,2703,0x53,0x00,Read,ACK
4.581544125,2703,0x53,0x00,Read,ACK
4.581592375,2703,0x53,0x4F,Read,ACK
4.581640375,2703,0x53,0xC0,Read,ACK
4.581688875,2703,0x53,0xBD,Read,ACK
4.58173675,2703,0x53,0x00,Read,ACK
4.581792375,2703,0x53,0xAB,Read,NAK
4.590576625,2704,0xD4,0xA6,Write,ACK
4.590698,2705,0xD5,0x13,Read,ACK
4.590746,2705,0xD5,0x0F,Read,NAK
4.590877,2706,0xD4,0xA8,Write,ACK
4.590997375,2707,0xD5,0xE5,Read,ACK
4.591045375,2707,0xD5,0xFF,Read,ACK
4.591093375,2707,0xD5,0xB1,Read,ACK
4.591141375,2707,0xD5,0xFF,Read,ACK
4.591189375,2707,0xD5,0xEA,Read,ACK
4.591245,2707,0xD5,0xFF,Read,NAK
4.591375,2708,0x52,0x02,Write,ACK
4.59149525,2709,0x53,0x00,Read,ACK
4.59154325,2709,0x53,0x00,Read,ACK
4.591591375,2709,0x53,0x4F,Read,ACK
4.59163925,2709,0x53,0xC0,Read,ACK
4.591687625,2709,0x53,0xBD,Read,ACK
4.591735625,2709,0x53,0x00,Read,ACK
4.59179125,2709,0x53,0xAB,Read,NAK
4.600575875,2710,0xD4,0xA6,Write,ACK
4.60069725,2711,0xD5,0x13,Read,ACK
4.60074525,2711,0xD5,0x0F,Read,NAK
4.60087625,2712,0xD4,0xA8,Write,ACK
4.6009965,2713,0xD5,0xED,Read,ACK
4.6010445,2713,0xD5,0xFF,Read,ACK
4.6010925,2713,0xD5,0xBC,Read,ACK
4.6011405,2713,0xD5,0xFF,Read,ACK
4.6011885,2713,0xD5,0xE9,Read,ACK
4.601244125,2713,0xD5,0xFF,Read,NAK
4.601374125,2714,0x52,0x02,Write,ACK
4.6014945,2715,0x53,0x00,Read,ACK
4.6015425,2715,0x53,0x00,Read,ACK
4.601590625,2715,0x53,0x4F,Read,ACK
4.6016385,2715,0x53,0xC0,Read,ACK
4.60168675,2715,0x53,0xBD,Read,ACK
4.601734875,2715,0x53,0x00,Read,ACK
4.6017905,2715,0x53,0xAB,Read,NAK
4.61057575,2716,0xD4,0xA6,Write,ACK
4.610697125,2717,0xD5,0x13,Read,ACK
4.610745125,2717,0xD5,0x0F,Read,NAK
4.610876,2718,0xD4,0xA8,Write,ACK
4.610996375,2719,0xD5,0xF6,Read,ACK
4.611044375,2719,0xD5,0xFF,Read,ACK
4.611092375,2719,0xD5,0xC0,Read,ACK
4.611140375,2719,0xD5,0xFF,Read,ACK
4.611188375,2719,0xD5,0xE9,Read,ACK
4.611244,2719,0xD5,0xFF,Read,NAK
4.611374,2720,0x52,0x02,Write,ACK
4.611494375,2721,0x53,0x00,Read,ACK
4.611542375,2721,0x53,0x00,Read,ACK
4.611590625,2721,0x53,0x4F,Read,ACK
4.611638625,2721,0x53,0xC0,Read,ACK
4.611687,2721,0x53,0xBD,Read,ACK
4.611735,2721,0x53,0x00,Read,ACK
4.611790625,2721,0x53,0xAB,Read,NAK
4.620574875,2722,0xD4,0xA6,Write,ACK
4.62069625,2723,0xD5,0x13,Read,ACK
4.62074425,2723,0xD5,0x0F,Read,NAK
4.62087525,2724,0xD4,0xA8,Write,ACK
4.620995625,2725,0xD5,0xFC,Read,ACK
4.621043625,2725,0xD5,0xFF,Read,ACK
4.621091625,2725,0xD5,0xBD,Read,ACK
4.621139625,2725,0xD5,0xFF,Read,ACK
4.621187625,2725,0xD5,0xEB,Read,ACK
4.62124325,2725,0xD5,0xFF,Read,NAK
4.62137325,2726,0x52,0x02,Write,ACK
4.6214935,2727,0x53,0x00,Read,ACK
4.6215415,2727,0x53,0x00,Read,ACK
4.62158975,2727,0x53,0x4F,Read,ACK
4.621637875,2727,0x53,0xC0,Read,ACK
4.621686125,2727,0x53,0xBD,Read,ACK
4.62173425,2727,0x53,0x00,Read,ACK
4.621789875,2727,0x53,0xAB,Read,NAK
4.6305745,2728,0xD4,0xA6,Write,ACK
4.63069575,2729,0xD5,0x13,Read,ACK
4.63074375,2729,0xD5,0x0F,Read,NAK
4.63087475,2730,0xD4,0xA8,Write,ACK
4.630995125,2731,0xD5,0xFB,Read,ACK
4.631043125,2731,0xD5,0xFF,Read,ACK
4.631091125,2731,0xD5,0xB5,Read,ACK
4.631139125,2731,0xD5,0xFF,Read,ACK
4.631187125,2731,0xD5,0xED,Read,ACK
4.63124275,2731,0xD5,0xFF,Read,NAK
4.63137275,2732,0x52,0x02,Write,ACK
4.631493125,2733,0x53,0x00,Read,ACK
4.6315415,2733,0x53,0x00,Read,ACK
4.631589625,2733,0x53,0x4F,Read,ACK
4.63163775,2733,0x53,0xC0,Read,ACK
4.631686,2733,0x53,0xBD,Read,ACK
4.631734125,2733,0x53,0x00,Read,ACK
4.63178975,2733,0x53,0xAB,Read,NAK
4.640575,2734,0xD4,0xA6,Write,ACK
4.640696375,2735,0xD5,0x13,Read,ACK
4.640744375,2735,0xD5,0x0F,Read,NAK
4.64087525,2736,0xD4,0xA8,Write,ACK
4.640995625,2737,0xD5,0xF4,Read,ACK
4.641043625,2737,0xD5,0xFF,Read,ACK
4.641091625,2737,0xD5,0xB1,Read,ACK
4.641139625,2737,0xD5,0xFF,Read,ACK
4.641187625,2737,0xD5,0xEC,Read,ACK
4.64124325,2737,0xD5,0xFF,Read,NAK
4.64137325,2738,0x52,0x02,Write,ACK
4.641493625,2739,0x53,0x00,Read,ACK
4.641541625,2739,0x53,0x00,Read,ACK
4.64158975,2739,0x53,0x4F,Read,ACK
4.641637625,2739,0x53,0xC0,Read,ACK
4.641685875,2739,0x53,0xBD,Read,ACK
4.641733875,2739,0x53,0x00,Read,ACK
4.641789625,2739,0x53,0xAB,Read,NAK
4.6505745,2740,0xD4,0xA6,Write,ACK
4.650695875,2741,0xD5,0x13,Read,ACK
4.650743875,2741,0xD5,0x0F,Read,NAK
4.650874875,2742,0xD4,0xA8,Write,ACK
4.650995125,2743,0xD5,0xEA,Read,ACK
4.651043125,2743,0xD5,0xFF,Read,ACK
4.651091125,2743,0xD5,0xB1,Read,ACK
4.651139125,2743,0xD5,0xFF,Read,ACK
4.651187125,2743,0xD5,0xEA,Read,ACK
4.651242875,2743,0xD5,0xFF,Read,NAK
4.651372875,2744,0x52,0x02,Write,ACK
4.651493125,2745,0x53,0x00,Read,ACK
4.651541125,2745,0x53,0x00,Read,ACK
4.65158925,2745,0x53,0x4F,Read,ACK
4.651637125,2745,0x53,0xC0,Read,ACK
4.651685375,2745,0x53,0xBD,Read,ACK
4.6517335,2745,0x53,0x00,Read,ACK
4.651789125,2745,0x53,0xAB,Read,NAK
4.660574375,2746,0xD4,0xA6,Write,ACK
4.66069575,2747,0xD5,0x13,Read,ACK
4.66074375,2747,0xD5,0x00,Read,NAK
4.66087775,2748,0x52,0x02,Write,ACK
4.660998,2749,0x53,0x00,Read,ACK
4.661046,2749,0x53,0x00,Read,ACK
4.661094125,2749,0x53,0x4F,Read,ACK
4.661142375,2749,0x53,0xC0,Read,ACK
4.661190625,2749,0x53,0xBD,Read,ACK
4.661238625,2749,0x53,0x00,Read,ACK
4.661294375,2749,0x53,0xAB,Read,NAK
4.670573625,2750,0xD4,0xA6,Write,ACK
4.670694875,2751,0xD5,0x13,Read,ACK
4.670742875,2751,0xD5,0x0F,Read,NAK
4.670873875,2752,0xD4,0xA8,Write,ACK
4.67099425,2753,0xD5,0xDD,Read,ACK
4.67104225,2753,0xD5,0xFF,Read,ACK
4.67109025,2753,0xD5,0xB4,Read,ACK
4.67113825,2753,0xD5,0xFF,Read,ACK
4.67118625,2753,0xD5,0xEA,Read,ACK
4.671241875,2753,0xD5,0xFF,Read,NAK
4.671371875,2754,0x52,0x02,Write,ACK
4.67149225,2755,0x53,0x00,Read,ACK
4.67154025,2755,0x53,0x00,Read,ACK
4.671588375,2755,0x53,0x4F,Read,ACK
4.6716365,2755,0x53,0xC0,Read,ACK
4.671684875,2755,0x53,0xBD,Read,ACK
4.671732875,2755,0x53,0x00,Read,ACK
4.6717885,2755,0x53,0xAB,Read,NAK
4.680572375,2756,0xD4,0xA6,Write,ACK
4.68069375,2757,0xD5,0x13,Read,ACK
4.68074175,2757,0xD5,0x0F,Read,NAK
4.68087275,2758,0xD4,0xA8,Write,ACK
4.680993125,2759,0xD5,0xD2,Read,ACK
4.681041125,2759,0xD5,0xFF,Read,ACK
4.681089125,2759,0xD5,0xB5,Read,ACK
4.681137125,2759,0xD5,0xFF,Read,ACK
4.681185125,2759,0xD5,0xF0,Read,ACK
4.68124075,2759,0xD5,0xFF,Read,NAK
4.68137075,2760,0x52,0x02,Write,ACK
4.681491,2761,0x53,0x00,Read,ACK
4.681539,2761,0x53,0x00,Read,ACK
4.681587125,2761,0x53,0x4F,Read,ACK
4.681635,2761,0x53,0xC0,Read,ACK
4.681683375,2761,0x53,0xBD,Read,ACK
4.681731375,2761,0x53,0x00,Read,ACK
4.681787,2761,0x53,0xAB,Read,NAK
4.690572,2762,0xD4,0xA6,Write,ACK
4.69069325,2763,0xD5,0x13,Read,ACK
4.69074125,2763,0xD5,0x0F,Read,NAK
4.69087225,2764,0xD4,0xA8,Write,ACK
4.690992625,2765,0xD5,0xCE,Read,ACK
4.691040625,2765,0xD5,0xFF,Read,ACK
4.691088625,2765,0xD5,0xB2,Read,ACK
4.691136625,2765,0xD5,0xFF,Read,ACK
4.691184625,2765,0xD5,0xF5,Read,ACK
4.69124025,2765,0xD5,0xFF,Read,NAK
4.69137025,2766,0x52,0x02,Write,ACK
4.691490625,2767,0x53,0x00,Read,ACK
4.691538625,2767,0x53,0x00,Read,ACK
4.69158675,2767,0x53,0x4F,Read,ACK
4.691634625,2767,0x53,0xC0,Read,ACK
4.691682875,2767,0x53,0xBD,Read,ACK
4.691730875,2767,0x53,0x00,Read,ACK
4.691786625,2767,0x53,0xAB,Read,NAK
4.700571875,2768,0xD4,0xA6,Write,ACK
4.700693125,2769,0xD5,0x13,Read,ACK
4.700741125,2769,0xD5,0x0F,Read,NAK
4.700872125,2770,0xD4,0xA8,Write,ACK
4.7009925,2771,0xD5,0xD2,Read,ACK
4.7010405,2771,0xD5,0xFF,Read,ACK
4.7010885,2771,0xD5,0xAB,Read,ACK
4.7011365,2771,0xD5,0xFF,Read,ACK
4.7011845,2771,0xD5,0xF5,Read,ACK
4.701240125,2771,0xD5,0xFF,Read,NAK
4.701370125,2772,0x52,0x02,Write,ACK
4.7014905,2773,0x53,0x00,Read,ACK
4.7015385,2773,0x53,0x00,Read,ACK
4.701586625,2773,0x53,0x4F,Read,ACK
4.70163475,2773,0x53,0xC0,Read,ACK
4.701683,2773,0x53,0xBD,Read,ACK
4.701731125,2773,0x53,0x00,Read,ACK
4.70178675,2773,0x53,0xAB,Read,NAK
4.710571375,2774,0xD4,0xA6,Write,ACK
4.710692625,2775,0xD5,0x13,Read,ACK
4.710740625,2775,0xD5,0x0F,Read,NAK
4.710871625,2776,0xD4,0xA8,Write,ACK
4.710992,2777,0xD5,0xD8,Read,ACK
4.71104,2777,0xD5,0xFF,Read,ACK
4.711088,2777,0xD5,0xA1,Read,ACK
4.711136,2777,0xD5,0xFF,Read,ACK
4.711184,2777,0xD5,0xF0,Read,ACK
4.711239625,2777,0xD5,0xFF,Read,NAK
4.711369625,2778,0x52,0x02,Write,ACK
4.71149,2779,0x53,0x00,Read,ACK
4.711538,2779,0x53,0x00,Read,ACK
4.711586125,2779,0x53,0x4F,Read,ACK
4.71163425,2779,0x53,0xC0,Read,ACK
4.711682625,2779,0x53,0xBD,Read,ACK
4.711730625,2779,0x53,0x00,Read,ACK
4.71178625,2779,0x53,0xAB,Read,NAK
4.72057025,2780,0xD4,0xA6,Write,ACK
4.7206915,2781,0xD5,0x13,Read,ACK
4.7207395,2781,0xD5,0x0F,Read,NAK
4.7208705,2782,0xD4,0xA8,Write,ACK
4.720990875,2783,0xD5,0xD8,Read,ACK
4.721038875,2783,0xD5,0xFF,Read,ACK
4.721086875,2783,0xD5,0x94,Read,ACK
4.721134875,2783,0xD5,0xFF,Read,ACK
4.721182875,2783,0xD5,0xED,Read,ACK
4.7212385,2783,0xD5,0xFF,Read,NAK
4.7213685,2784,0x52,0x02,Write,ACK
4.721488875,2785,0x53,0x00,Read,ACK
4.721536875,2785,0x53,0x00,Read,ACK
4.721585,2785,0x53,0x4F,Read,ACK
4.721633125,2785,0x53,0xC0,Read,ACK
4.7216815,2785,0x53,0xBD,Read,ACK
4.7217295,2785,0x53,0x00,Read,ACK
4.721785125,2785,0x53,0xAB,Read,NAK
4.730570125,2786,0xD4,0xA6,Write,ACK
4.730691375,2787,0xD5,0x13,Read,ACK
4.730739375,2787,0xD5,0x0F,Read,NAK
4.730870375,2788,0xD4,0xA8,Write,ACK
4.73099075,2789,0xD5,0xD1,Read,ACK
4.73103875,2789,0xD5,0xFF,Read,ACK
4.73108675,2789,0xD5,0x8E,Read,ACK
4.73113475,2789,0xD5,0xFF,Read,ACK
4.73118275,2789,0xD5,0xF0,Read,ACK
4.731238375,2789,0xD5,0xFF,Read,NAK
4.731368375,2790,0x52,0x02,Write,ACK
4.73148875,2791,0x53,0x00,Read,ACK
4.73153675,2791,0x53,0x00,Read,ACK
4.731585,2791,0x53,0x4F,Read,ACK
4.731633,2791,0x53,0xC0,Read,ACK
4.73168125,2791,0x53,0xBD,Read,ACK
4.731729375,2791,0x53,0x00,Read,ACK
4.731785,2791,0x53,0xAB,Read,NAK
4.740569875,2792,0xD4,0xA6,Write,ACK
4.74069125,2793,0xD5,0x13,Read,ACK
4.74073925,2793,0xD5,0x0F,Read,NAK
4.74087025,2794,0xD4,0xA8,Write,ACK
4.740990625,2795,0xD5,0xC8,Read,ACK
4.741038625,2795,0xD5,0xFF,Read,ACK
4.741086625,2795,0xD5,0x94,Read,ACK
4.741134625,2795,0xD5,0xFF,Read,ACK
4.741182625,2795,0xD5,0xF4,Read,ACK
4.74123825,2795,0xD5,0xFF,Read,NAK
4.74136825,2796,0x52,0x02,Write,ACK
4.7414885,2797,0x53,0x00,Read,ACK
4.7415365,2797,0x53,0x00,Read,ACK
4.741584625,2797,0x53,0x4F,Read,ACK
4.7416325,2797,0x53,0xC0,Read,ACK
4.741680875,2797,0x53,0xBD,Read,ACK
4.741728875,2797,0x53,0x00,Read,ACK
4.7417845,2797,0x53,0xAB,Read,NAK
4.75056875,2798,0xD4,0xA6,Write,ACK
4.750690125,2799,0xD5,0x13,Read,ACK
4.750738125,2799,0xD5,0x0F,Read,NAK
4.750869125,2800,0xD4,0xA8,Write,ACK
4.7509895,2801,0xD5,0xC4,Read,ACK
4.7510375,2801,0xD5,0xFF,Read,ACK
4.751085375,2801,0xD5,0xA1,Read,ACK
4.751133375,2801,0xD5,0xFF,Read,ACK
4.751181375,2801,0xD5,0xF9,Read,ACK
4.751237125,2801,0xD5,0xFF,Read,NAK
4.751367125,2802,0x52,0x02,Write,ACK
4.751487375,2803,0x53,0x00,Read,ACK
4.751535375,2803,0x53,0x00,Read,ACK
4.751583625,2803,0x53,0x4F,Read,ACK
4.75163175,2803,0x53,0xC0,Read,ACK
4.75168,2803,0x53,0xBD,Read,ACK
4.751728125,2803,0x53,0x00,Read,ACK
4.75178375,2803,0x53,0xAB,Read,NAK
4.760567625,2804,0xD4,0xA6,Write,ACK
4.760689,2805,0xD5,0x13,Read,ACK
4.760737,2805,0xD5,0x0F,Read,NAK
4.760868,2806,0xD4,0xA8,Write,ACK
4.76098825,2807,0xD5,0xC7,Read,ACK
4.76103625,2807,0xD5,0xFF,Read,ACK
4.76108425,2807,0xD5,0xAA,Read,ACK
4.76113225,2807,0xD5,0xFF,Read,ACK
4.76118025,2807,0xD5,0x01,Read,ACK
4.761236,2807,0xD5,0x00,Read,NAK
4.761366,2808,0x52,0x02,Write,ACK
4.76148625,2809,0x53,0x00,Read,ACK
4.76153425,2809,0x53,0x00,Read,ACK
4.761582375,2809,0x53,0x4F,Read,ACK
4.76163025,2809,0x53,0xC0,Read,ACK
4.7616785,2809,0x53,0xBD,Read,ACK
4.761726625,2809,0x53,0x00,Read,ACK
4.76178225,2809,0x53,0xAB,Read,NAK
4.770568125,2810,0xD4,0xA6,Write,ACK
4.7706895,2811,0xD5,0x13,Read,ACK
4.7707375,2811,0xD5,0x0F,Read,NAK
4.7708685,2812,0xD4,0xA8,Write,ACK
4.770988875,2813,0xD5,0xCB,Read,ACK
4.771036875,2813,0xD5,0xFF,Read,ACK
4.771084875,2813,0xD5,0xAC,Read,ACK
4.771132875,2813,0xD5,0xFF,Read,ACK
4.771180875,2813,0xD5,0x08,Read,ACK
4.7712365,2813,0xD5,0x00,Read,NAK
4.7713665,2814,0x52,0x02,Write,ACK
4.77148675,2815,0x53,0x00,Read,ACK
4.77153475,2815,0x53,0x00,Read,ACK
4.771583,2815,0x53,0x4F,Read,ACK
4.771631125,2815,0x53,0xC0,Read,ACK
4.771679375,2815,0x53,0xBD,Read,ACK
4.7717275,2815,0x53,0x00,Read,ACK
4.771783125,2815,0x53,0xAB,Read,NAK
4.78056775,2816,0xD4,0xA6,Write,ACK
4.780689,2817,0xD5,0x13,Read,ACK
4.780737,2817,0xD5,0x0F,Read,NAK
4.780868,2818,0xD4,0xA8,Write,ACK
4.780988375,2819,0xD5,0xCD,Read,ACK
4.781036375,2819,0xD5,0xFF,Read,ACK
4.781084375,2819,0xD5,0xA8,Read,ACK
4.781132375,2819,0xD5,0xFF,Read,ACK
4.781180375,2819,0xD5,0x09,Read,ACK
4.781236,2819,0xD5,0x00,Read,NAK
4.781366,2820,0x52,0x02,Write,ACK
4.781486375,2821,0x53,0x00,Read,ACK
4.781534375,2821,0x53,0x00,Read,ACK
4.7815825,2821,0x53,0x4F,Read,ACK
4.781630375,2821,0x53,0xC0,Read,ACK
4.7816785,2821,0x53,0xBD,Read,ACK
4.781726625,2821,0x53,0x00,Read,ACK
4.781782375,2821,0x53,0xAB,Read,NAK
4.790567625,2822,0xD4,0xA6,Write,ACK
4.790688875,2823,0xD5,0x13,Read,ACK
4.790736875,2823,0xD5,0x0F,Read,NAK
4.790867875,2824,0xD4,0xA8,Write,ACK
4.79098825,2825,0xD5,0xCD,Read,ACK
4.79103625,2825,0xD5,0xFF,Read,ACK
4.79108425,2825,0xD5,0xA0,Read,ACK
4.79113225,2825,0xD5,0xFF,Read,ACK
4.79118025,2825,0xD5,0x04,Read,ACK
4.791235875,2825,0xD5,0x00,Read,NAK
4.791365875,2826,0x52,0x02,Write,ACK
4.79148625,2827,0x53,0x00,Read,ACK
4.79153425,2827,0x53,0x00,Read,ACK
4.791582375,2827,0x53,0x4F,Read,ACK
4.7916305,2827,0x53,0xC0,Read,ACK
4.79167875,2827,0x53,0xBD,Read,ACK
4.791726875,2827,0x53,0x00,Read,ACK
4.7917825,2827,0x53,0xAB,Read,NAK
4.800566125,2828,0xD4,0xA6,Write,ACK
4.800687375,2829,0xD5,0x13,Read,ACK
4.800735375,2829,0xD5,0x0F,Read,NAK
4.800866375,2830,0xD4,0xA8,Write,ACK
4.80098675,2831,0xD5,0xD0,Read,ACK
4.80103475,2831,0xD5,0xFF,Read,ACK
4.80108275,2831,0xD5,0x93,Read,ACK
4.80113075,2831,0xD5,0xFF,Read,ACK
4.80117875,2831,0xD5,0x00,Read,ACK
4.801234375,2831,0xD5,0x00,Read,NAK
4.801364375,2832,0x52,0x02,Write,ACK
4.80148475,2833,0x53,0x00,Read,ACK
4.80153275,2833,0x53,0x00,Read,ACK
4.801580875,2833,0x53,0x4F,Read,ACK
4.801629,2833,0x53,0xC0,Read,ACK
4.80167725,2833,0x53,0xBD,Read,ACK
4.801725375,2833,0x53,0x00,Read,ACK
4.801781,2833,0x53,0xAB,Read,NAK
4.810551625,2834,0xD4,0xA6,Write,ACK
4.810673,2835,0xD5,0x13,Read,ACK
4.810721,2835,0xD5,0x0F,Read,NAK
4.810852,2836,0xD4,0xA8,Write,ACK
4.81097225,2837,0xD5,0xD6,Read,ACK
4.81102025,2837,0xD5,0xFF,Read,ACK
4.81106825,2837,0xD5,0x88,Read,ACK
4.81111625,2837,0xD5,0xFF,Read,ACK
4.81116425,2837,0xD5,0x00,Read,ACK
4.811219875,2837,0xD5,0x00,Read,NAK
4.811349875,2838,0x52,0x02,Write,ACK
4.81147025,2839,0x53,0x00,Read,ACK
4.81151825,2839,0x53,0x00,Read,ACK
4.811566375,2839,0x53,0x4F,Read,ACK
4.81161425,2839,0x53,0xC0,Read,ACK
4.8116625,2839,0x53,0xBD,Read,ACK
4.811710625,2839,0x53,0x00,Read,ACK
4.81176625,2839,0x53,0xAB,Read,NAK
4.820550125,2840,0xD4,0xA6,Write,ACK
4.8206715,2841,0xD5,0x13,Read,ACK
4.8207195,2841,0xD5,0x0F,Read,NAK
4.8208505,2842,0xD4,0xA8,Write,ACK
4.82097075,2843,0xD5,0xDA,Read,ACK
4.82101875,2843,0xD5,0xFF,Read,ACK
4.82106675,2843,0xD5,0x83,Read,ACK
4.82111475,2843,0xD5,0xFF,Read,ACK
4.82116275,2843,0xD5,0x01,Read,ACK
4.8212185,2843,0xD5,0x00,Read,NAK
4.8213485,2844,0x52,0x02,Write,ACK
4.82146875,2845,0x53,0x00,Read,ACK
4.82151675,2845,0x53,0x00,Read,ACK
4.821564875,2845,0x53,0x4F,Read,ACK
4.82161275,2845,0x53,0xC0,Read,ACK
4.821661,2845,0x53,0xBD,Read,ACK
4.821709125,2845,0x53,0x00,Read,ACK
4.82176475,2845,0x53,0xAB,Read,NAK
4.830563375,2846,0xD4,0xA6,Write,ACK
4.830684625,2847,0xD5,0x13,Read,ACK
4.830732625,2847,0xD5,0x0F,Read,NAK
4.830863625,2848,0xD4,0xA8,Write,ACK
4.830984,2849,0xD5,0xDE,Read,ACK
4.831032,2849,0xD5,0xFF,Read,ACK
4.83108,2849,0xD5,0x84,Read,ACK
4.831128,2849,0xD5,0xFF,Read,ACK
4.831176,2849,0xD5,0xFD,Read,ACK
4.831231625,2849,0xD5,0xFF,Read,NAK
4.831361625,2850,0x52,0x02,Write,ACK
4.831482,2851,0x53,0x00,Read,ACK
4.83153,2851,0x53,0x00,Read,ACK
4.831578125,2851,0x53,0x4F,Read,ACK
4.831626,2851,0x53,0xC0,Read,ACK
4.83167425,2851,0x53,0xBD,Read,ACK
4.83172225,2851,0x53,0x00,Read,ACK
4.831778,2851,0x53,0xAB,Read,NAK
4.84056325,2852,0xD4,0xA6,Write,ACK
4.8406845,2853,0xD5,0x13,Read,ACK
4.8407325,2853,0xD5,0x00,Read,NAK
4.8408665,2854,0x52,0x02,Write,ACK
4.840986875,2855,0x53,0x00,Read,ACK
4.841034875,2855,0x53,0x00,Read,ACK
4.841083,2855,0x53,0x4F,Read,ACK
4.841131125,2855,0x53,0xC0,Read,ACK
4.8411795,2855,0x53,0xBD,Read,ACK
4.8412275,2855,0x53,0x00,Read,ACK
4.841283125,2855,0x53,0xAB,Read,NAK
4.850563375,2856,0xD4,0xA6,Write,ACK
4.85068475,2857,0xD5,0x13,Read,ACK
4.85073275,2857,0xD5,0x0F,Read,NAK
4.85086375,2858,0xD4,0xA8,Write,ACK
4.850984,2859,0xD5,0xE2,Read,ACK
4.851032,2859,0xD5,0xFF,Read,ACK
4.85108,2859,0xD5,0x87,Read,ACK
4.851128,2859,0xD5,0xFF,Read,ACK
4.851176,2859,0xD5,0xF3,Read,ACK
4.85123175,2859,0xD5,0xFF,Read,NAK
4.85136175,2860,0x52,0x02,Write,ACK
4.851482,2861,0x53,0x00,Read,ACK
4.85153,2861,0x53,0x00,Read,ACK
4.851578125,2861,0x53,0x4F,Read,ACK
4.851626,2861,0x53,0xC0,Read,ACK
4.851674375,2861,0x53,0xBD,Read,ACK
4.851722375,2861,0x53,0x00,Read,ACK
4.851778,2861,0x53,0xAB,Read,NAK
4.860563875,2862,0xD4,0xA6,Write,ACK
4.86068525,2863,0xD5,0x13,Read,ACK
4.86073325,2863,0xD5,0x0F,Read,NAK
4.86086425,2864,0xD4,0xA8,Write,ACK
4.860984625,2865,0xD5,0xE5,Read,ACK
4.861032625,2865,0xD5,0xFF,Read,ACK
4.861080625,2865,0xD5,0x8C,Read,ACK
4.861128625,2865,0xD5,0xFF,Read,ACK
4.861176625,2865,0xD5,0xEB,Read,ACK
4.86123225,2865,0xD5,0xFF,Read,NAK
4.86136225,2866,0x52,0x02,Write,ACK
4.8614825,2867,0x53,0x00,Read,ACK
4.8615305,2867,0x53,0x00,Read,ACK
4.86157875,2867,0x53,0x4F,Read,ACK
4.861626875,2867,0x53,0xC0,Read,ACK
4.861675125,2867,0x53,0xBD,Read,ACK
4.86172325,2867,0x53,0x00,Read,ACK
4.861778875,2867,0x53,0xAB,Read,NAK
4.87056375,2868,0xD4,0xA6,Write,ACK
4.870685125,2869,0xD5,0x13,Read,ACK
4.870733125,2869,0xD5,0x0F,Read,NAK
4.870864125,2870,0xD4,0xA8,Write,ACK
4.8709845,2871,0xD5,0xE7,Read,ACK
4.8710325,2871,0xD5,0xFF,Read,ACK
4.871080375,2871,0xD5,0x94,Read,ACK
4.871128375,2871,0xD5,0xFF,Read,ACK
4.871176375,2871,0xD5,0xE9,Read,ACK
4.871232125,2871,0xD5,0xFF,Read,NAK
4.871362125,2872,0x52,0x02,Write,ACK
4.871482375,2873,0x53,0x00,Read,ACK
4.871530375,2873,0x53,0x00,Read,ACK
4.87157875,2873,0x53,0x4F,Read,ACK
4.87162675,2873,0x53,0xC0,Read,ACK
4.871675,2873,0x53,0xBD,Read,ACK
4.871723125,2873,0x53,0x00,Read,ACK
4.87177875,2873,0x53,0xAB,Read,NAK
4.880563,2874,0xD4,0xA6,Write,ACK
4.880684375,2875,0xD5,0x13,Read,ACK
4.880732375,2875,0xD5,0x0F,Read,NAK
4.88086325,2876,0xD4,0xA8,Write,ACK
4.880983625,2877,0xD5,0xE8,Read,ACK
4.881031625,2877,0xD5,0xFF,Read,ACK
4.881079625,2877,0xD5,0x9A,Read,ACK
4.881127625,2877,0xD5,0xFF,Read,ACK
4.881175625,2877,0xD5,0xE9,Read,ACK
4.88123125,2877,0xD5,0xFF,Read,NAK
4.88136125,2878,0x52,0x02,Write,ACK
4.881481625,2879,0x53,0x00,Read,ACK
4.881529625,2879,0x53,0x00,Read,ACK
4.88157775,2879,0x53,0x4F,Read,ACK
4.881626,2879,0x53,0xC0,Read,ACK
4.88167425,2879,0x53,0xBD,Read,ACK
4.88172225,2879,0x53,0x00,Read,ACK
4.881777875,2879,0x53,0xAB,Read,NAK
4.890562875,2880,0xD4,0xA6,Write,ACK
4.890684125,2881,0xD5,0x13,Read,ACK
4.890732125,2881,0xD5,0x0F,Read,NAK
4.890863125,2882,0xD4,0xA8,Write,ACK
4.8909835,2883,0xD5,0xE6,Read,ACK
4.8910315,2883,0xD5,0xFF,Read,ACK
4.8910795,2883,0xD5,0x9F,Read,ACK
4.8911275,2883,0xD5,0xFF,Read,ACK
4.8911755,2883,0xD5,0xE8,Read,ACK
4.891231125,2883,0xD5,0xFF,Read,NAK
4.891361125,2884,0x52,0x02,Write,ACK
4.8914815,2885,0x53,0x00,Read,ACK
4.8915295,2885,0x53,0x00,Read,ACK
4.891577625,2885,0x53,0x4F,Read,ACK
4.8916255,2885,0x53,0xC0,Read,ACK
4.89167375,2885,0x53,0xBD,Read,ACK
4.89172175,2885,0x53,0x00,Read,ACK
4.8917775,2885,0x53,0xAB,Read,NAK
4.900562375,2886,0xD4,0xA6,Write,ACK
4.90068375,2887,0xD5,0x13,Read,ACK
4.90073175,2887,0xD5,0x0F,Read,NAK
4.90086275,2888,0xD4,0xA8,Write,ACK
4.900983,2889,0xD5,0xE0,Read,ACK
4.901031,2889,0xD5,0xFF,Read,ACK
4.901079,2889,0xD5,0xA3,Read,ACK
4.901127,2889,0xD5,0xFF,Read,ACK
4.901175,2889,0xD5,0xE7,Read,ACK
4.901230625,2889,0xD5,0xFF,Read,NAK
4.901360625,2890,0x52,0x02,Write,ACK
4.901481,2891,0x53,0x00,Read,ACK
4.901529,2891,0x53,0x00,Read,ACK
4.901577125,2891,0x53,0x4F,Read,ACK
4.901625,2891,0x53,0xC0,Read,ACK
4.90167325,2891,0x53,0xBD,Read,ACK
4.901721375,2891,0x53,0x00,Read,ACK
4.901777,2891,0x53,0xAB,Read,NAK
4.91056225,2892,0xD4,0xA6,Write,ACK
4.910683625,2893,0xD5,0x13,Read,ACK
4.910731625,2893,0xD5,0x0F,Read,NAK
4.9108625,2894,0xD4,0xA8,Write,ACK
4.910982875,2895,0xD5,0xD5,Read,ACK
4.911030875,2895,0xD5,0xFF,Read,ACK
4.911078875,2895,0xD5,0xA6,Read,ACK
4.911126875,2895,0xD5,0xFF,Read,ACK
4.911174875,2895,0xD5,0xE9,Read,ACK
4.9112305,2895,0xD5,0xFF,Read,NAK
4.9113605,2896,0x52,0x02,Write,ACK
4.911480875,2897,0x53,0x00,Read,ACK
4.911528875,2897,0x53,0x00,Read,ACK
4.911577,2897,0x53,0x4F,Read,ACK
4.91162525,2897,0x53,0xC0,Read,ACK
4.9116735,2897,0x53,0xBD,Read,ACK
4.9117215,2897,0x53,0x00,Read,ACK
4.911777125,2897,0x53,0xAB,Read,NAK
4.920561375,2898,0xD4,0xA6,Write,ACK
4.92068275,2899,0xD5,0x13,Read,ACK
4.92073075,2899,0xD5,0x0F,Read,NAK
4.92086175,2900,0xD4,0xA8,Write,ACK
4.920982125,2901,0xD5,0xCE,Read,ACK
4.921030125,2901,0xD5,0xFF,Read,ACK
4.921078125,2901,0xD5,0xA5,Read,ACK
4.921126125,2901,0xD5,0xFF,Read,ACK
4.921174125,2901,0xD5,0xED,Read,ACK
4.92122975,2901,0xD5,0xFF,Read,NAK
4.92135975,2902,0x52,0x02,Write,ACK
4.92148,2903,0x53,0x00,Read,ACK
4.921528,2903,0x53,0x00,Read,ACK
4.921576125,2903,0x53,0x4F,Read,ACK
4.921624,2903,0x53,0xC0,Read,ACK
4.921672375,2903,0x53,0xBD,Read,ACK
4.921720375,2903,0x53,0x00,Read,ACK
4.921776,2903,0x53,0xAB,Read,NAK
4.930561625,2904,0xD4,0xA6,Write,ACK
4.930683,2905,0xD5,0x13,Read,ACK
4.930731,2905,0xD5,0x0F,Read,NAK
4.930862,2906,0xD4,0xA8,Write,ACK
4.93098225,2907,0xD5,0xCE,Read,ACK
4.93103025,2907,0xD5,0xFF,Read,ACK
4.93107825,2907,0xD5,0xA2,Read,ACK
4.93112625,2907,0xD5,0xFF,Read,ACK
4.93117425,2907,0xD5,0xF0,Read,ACK
4.931229875,2907,0xD5,0xFF,Read,NAK
4.931359875,2908,0x52,0x02,Write,ACK
4.93148025,2909,0x53,0x00,Read,ACK
4.93152825,2909,0x53,0x00,Read,ACK
4.931576375,2909,0x53,0x4F,Read,ACK
4.931624625,2909,0x53,0xC0,Read,ACK
4.931672875,2909,0x53,0xBD,Read,ACK
4.931720875,2909,0x53,0x00,Read,ACK
4.931776625,2909,0x53,0xAB,Read,NAK
4.9405615,2910,0xD4,0xA6,Write,ACK
4.940682875,2911,0xD5,0x13,Read,ACK
4.940730875,2911,0xD5,0x0F,Read,NAK
4.94086175,2912,0xD4,0xA8,Write,ACK
4.940982125,2913,0xD5,0xD5,Read,ACK
4.941030125,2913,0xD5,0xFF,Read,ACK
4.941078125,2913,0xD5,0xA5,Read,ACK
4.941126125,2913,0xD5,0xFF,Read,ACK
4.941174125,2913,0xD5,0xED,Read,ACK
4.94122975,2913,0xD5,0xFF,Read,NAK
4.94135975,2914,0x52,0x02,Write,ACK
4.941480125,2915,0x53,0x00,Read,ACK
4.941528125,2915,0x53,0x00,Read,ACK
4.94157625,2915,0x53,0x4F,Read,ACK
4.9416245,2915,0x53,0xC0,Read,ACK
4.94167275,2915,0x53,0xBD,Read,ACK
4.94172075,2915,0x53,0x00,Read,ACK
4.941776375,2915,0x53,0xAB,Read,NAK
4.950560625,2916,0xD4,0xA6,Write,ACK
4.950682,2917,0xD5,0x13,Read,ACK
4.95073,2917,0xD5,0x0F,Read,NAK
4.950861,2918,0xD4,0xA8,Write,ACK
4.950981375,2919,0xD5,0xDA,Read,ACK
4.951029375,2919,0xD5,0xFF,Read,ACK
4.951077375,2919,0xD5,0xAF,Read,ACK
4.951125375,2919,0xD5,0xFF,Read,ACK
4.951173375,2919,0xD5,0xE5,Read,ACK
4.951229,2919,0xD5,0xFF,Read,NAK
4.951359,2920,0x52,0x02,Write,ACK
4.95147925,2921,0x53,0x00,Read,ACK
4.95152725,2921,0x53,0x00,Read,ACK
4.9515755,2921,0x53,0x4F,Read,ACK
4.951623625,2921,0x53,0xC0,Read,ACK
4.951672,2921,0x53,0xBD,Read,ACK
4.95172,2921,0x53,0x00,Read,ACK
4.951775625,2921,0x53,0xAB,Read,NAK
4.960558875,2922,0xD4,0xA6,Write,ACK
4.96068025,2923,0xD5,0x13,Read,ACK
4.96072825,2923,0xD5,0x0F,Read,NAK
4.96085925,2924,0xD4,0xA8,Write,ACK
4.9609795,2925,0xD5,0xDA,Read,ACK
4.9610275,2925,0xD5,0xFF,Read,ACK
4.9610755,2925,0xD5,0xB5,Read,ACK
4.9611235,2925,0xD5,0xFF,Read,ACK
4.9611715,2925,0xD5,0xE2,Read,ACK
4.961227125,2925,0xD5,0xFF,Read,NAK
4.961357125,2926,0x52,0x02,Write,ACK
4.9614775,2927,0x53,0x00,Read,ACK
4.9615255,2927,0x53,0x00,Read,ACK
4.961573625,2927,0x53,0x4F,Read,ACK
4.9616215,2927,0x53,0xC0,Read,ACK
4.96166975,2927,0x53,0xBD,Read,ACK
4.961717875,2927,0x53,0x00,Read,ACK
4.9617735,2927,0x53,0xAB,Read,NAK
4.970559375,2928,0xD4,0xA6,Write,ACK
4.97068075,2929,0xD5,0x13,Read,ACK
4.97072875,2929,0xD5,0x0F,Read,NAK
4.97085975,2930,0xD4,0xA8,Write,ACK
4.97098,2931,0xD5,0xD4,Read,ACK
4.971028,2931,0xD5,0xFF,Read,ACK
4.971076,2931,0xD5,0xB0,Read,ACK
4.971124,2931,0xD5,0xFF,Read,ACK
4.971172,2931,0xD5,0xE7,Read,ACK
4.97122775,2931,0xD5,0xFF,Read,NAK
4.97135775,2932,0x52,0x02,Write,ACK
4.971478,2933,0x53,0x00,Read,ACK
4.971526,2933,0x53,0x00,Read,ACK
4.97157425,2933,0x53,0x4F,Read,ACK
4.971622375,2933,0x53,0xC0,Read,ACK
4.971670625,2933,0x53,0xBD,Read,ACK
4.97171875,2933,0x53,0x00,Read,ACK
4.971774375,2933,0x53,0xAB,Read,NAK
4.980558625,2934,0xD4,0xA6,Write,ACK
4.980679875,2935,0xD5,0x13,Read,ACK
4.980727875,2935,0xD5,0x0F,Read,NAK
4.980858875,2936,0xD4,0xA8,Write,ACK
4.98097925,2937,0xD5,0xD1,Read,ACK
4.98102725,2937,0xD5,0xFF,Read,ACK
4.98107525,2937,0xD5,0xA4,Read,ACK
4.98112325,2937,0xD5,0xFF,Read,ACK
4.98117125,2937,0xD5,0xF1,Read,ACK
4.981226875,2937,0xD5,0xFF,Read,NAK
4.981356875,2938,0x52,0x02,Write,ACK
4.98147725,2939,0x53,0x00,Read,ACK
4.98152525,2939,0x53,0x00,Read,ACK
4.981573375,2939,0x53,0x4F,Read,ACK
4.98162125,2939,0x53,0xC0,Read,ACK
4.9816695,2939,0x53,0xBD,Read,ACK
4.9817175,2939,0x53,0x00,Read,ACK
4.98177325,2939,0x53,0xAB,Read,NAK
4.9905585,2940,0xD4,0xA6,Write,ACK
4.99067975,2941,0xD5,0x13,Read,ACK
4.99072775,2941,0xD5,0x0F,Read,NAK
4.99085875,2942,0xD4,0xA8,Write,ACK
4.990979125,2943,0xD5,0xD5,Read,ACK
4.991027125,2943,0xD5,0xFF,Read,ACK
4.991075125,2943,0xD5,0x9D,Read,ACK
4.991123125,2943,0xD5,0xFF,Read,ACK
4.991171125,2943,0xD5,0xF5,Read,ACK
4.99122675,2943,0xD5,0xFF,Read,NAK
4.99135675,2944,0x52,0x02,Write,ACK
4.991477125,2945,0x53,0x00,Read,ACK
4.991525125,2945,0x53,0x00,Read,ACK
4.99157325,2945,0x53,0x4F,Read,ACK
4.991621375,2945,0x53,0xC0,Read,ACK
4.991669625,2945,0x53,0xBD,Read,ACK
4.99171775,2945,0x53,0x00,Read,ACK
4.991773375,2945,0x53,0xAB,Read,NAK
5.000557625,2946,0xD4,0xA6,Write,ACK
5.000679,2947,0xD5,0x13,Read,ACK
5.000727,2947,0xD5,0x0F,Read,NAK
5.000858,2948,0xD4,0xA8,Write,ACK
5.00097825,2949,0xD5,0xDC,Read,ACK
5.00102625,2949,0xD5,0xFF,Read,ACK
5.00107425,2949,0xD5,0x9D,Read,ACK
5.00112225,2949,0xD5,0xFF,Read,ACK
5.00117025,2949,0xD5,0xF4,Read,ACK
5.001226,2949,0xD5,0xFF,Read,NAK
5.001356,2950,0x52,0x02,Write,ACK
5.00147625,2951,0x53,0x00,Read,ACK
5.00152425,2951,0x53,0x00,Read,ACK
5.0015725,2951,0x53,0x4F,Read,ACK
5.001620625,2951,0x53,0xC0,Read,ACK
5.001668875,2951,0x53,0xBD,Read,ACK
5.001717,2951,0x53,0x00,Read,ACK
5.001772625,2951,0x53,0xAB,Read,NAK
5.010557125,2952,0xD4,0xA6,Write,ACK
5.0106785,2953,0xD5,0x13,Read,ACK
5.0107265,2953,0xD5,0x0F,Read,NAK
5.0108575,2954,0xD4,0xA8,Write,ACK
5.010977875,2955,0xD5,0xDB,Read,ACK
5.011025875,2955,0xD5,0xFF,Read,ACK
5.011073875,2955,0xD5,0x9D,Read,ACK
5.011121875,2955,0xD5,0xFF,Read,ACK
5.011169875,2955,0xD5,0xF2,Read,ACK
5.0112255,2955,0xD5,0xFF,Read,NAK
5.0113555,2956,0x52,0x02,Write,ACK
5.01147575,2957,0x53,0x00,Read,ACK
5.01152375,2957,0x53,0x00,Read,ACK
5.011572,2957,0x53,0x4F,Read,ACK
5.011620125,2957,0x53,0xC0,Read,ACK
5.011668375,2957,0x53,0xBD,Read,ACK
5.0117165,2957,0x53,0x00,Read,ACK
5.011772125,2957,0x53,0xAB,Read,NAK
5.02055675,2958,0xD4,0xA6,Write,ACK
5.020678,2959,0xD5,0x13,Read,ACK
5.020726,2959,0xD5,0x00,Read,NAK
5.02086,2960,0x52,0x02,Write,ACK
5.020980375,2961,0x53,0x00,Read,ACK
5.021028375,2961,0x53,0x00,Read,ACK
5.0210765,2961,0x53,0x4F,Read,ACK
5.021124625,2961,0x53,0xC0,Read,ACK
5.021173,2961,0x53,0xBD,Read,ACK
5.021221,2961,0x53,0x00,Read,ACK
5.021276625,2961,0x53,0xAB,Read,NAK
5.030554625,2962,0xD4,0xA6,Write,ACK
5.030675875,2963,0xD5,0x13,Read,ACK
5.030723875,2963,0xD5,0x0F,Read,NAK
5.030854875,2964,0xD4,0xA8,Write,ACK
5.03097525,2965,0xD5,0xCD,Read,ACK
5.03102325,2965,0xD5,0xFF,Read,ACK
5.03107125,2965,0xD5,0x9D,Read,ACK
5.03111925,2965,0xD5,0xFF,Read,ACK
5.03116725,2965,0xD5,0xF4,Read,ACK
5.031222875,2965,0xD5,0xFF,Read,NAK
5.031352875,2966,0x52,0x02,Write,ACK
5.03147325,2967,0x53,0x00,Read,ACK
5.03152125,2967,0x53,0x00,Read,ACK
5.03156925,2967,0x53,0x4F,Read,ACK
5.03161725,2967,0x53,0xC0,Read,ACK
5.031665375,2967,0x53,0xBD,Read,ACK
5.0317135,2967,0x53,0x00,Read,ACK
5.031769125,2967,0x53,0xAB,Read,NAK
5.040553375,2968,0xD4,0xA6,Write,ACK
5.04067475,2969,0xD5,0x13,Read,ACK
5.04072275,2969,0xD5,0x0F,Read,NAK
5.04085375,2970,0xD4,0xA8,Write,ACK
5.040974125,2971,0xD5,0xBF,Read,ACK
5.041022125,2971,0xD5,0xFF,Read,ACK
5.041070125,2971,0xD5,0x9E,Read,ACK
5.041118125,2971,0xD5,0xFF,Read,ACK
5.041166125,2971,0xD5,0xF8,Read,ACK
5.04122175,2971,0xD5,0xFF,Read,NAK
5.04135175,2972,0x52,0x02,Write,ACK
5.041472,2973,0x53,0x00,Read,ACK
5.04152,2973,0x53,0x00,Read,ACK
5.04156825,2973,0x53,0x4F,Read,ACK
5.041616375,2973,0x53,0xC0,Read,ACK
5.041664625,2973,0x53,0xBD,Read,ACK
5.04171275,2973,0x53,0x00,Read,ACK
5.041768375,2973,0x53,0xAB,Read,NAK
5.050554,2974,0xD4,0xA6,Write,ACK
5.05067525,2975,0xD5,0x13,Read,ACK
5.05072325,2975,0xD5,0x0F,Read,NAK
5.05085425,2976,0xD4,0xA8,Write,ACK
5.050974625,2977,0xD5,0xBD,Read,ACK
5.051022625,2977,0xD5,0xFF,Read,ACK
5.051070625,2977,0xD5,0x9F,Read,ACK
5.051118625,2977,0xD5,0xFF,Read,ACK
5.051166625,2977,0xD5,0xFB,Read,ACK
5.05122225,2977,0xD5,0xFF,Read,NAK
5.05135225,2978,0x52,0x02,Write,ACK
5.051472625,2979,0x53,0x00,Read,ACK
5.051520625,2979,0x53,0x00,Read,ACK
5.05156875,2979,0x53,0x4F,Read,ACK
5.051616625,2979,0x53,0xC0,Read,ACK
5.051664875,2979,0x53,0xBD,Read,ACK
5.051712875,2979,0x53,0x00,Read,ACK
5.051768625,2979,0x53,0xAB,Read,NAK
5.060554875,2980,0xD4,0xA6,Write,ACK
5.060676125,2981,0xD5,0x13,Read,ACK
5.060724125,2981,0xD5,0x0F,Read,NAK
5.060855125,2982,0xD4,0xA8,Write,ACK
5.0609755,2983,0xD5,0xC9,Read,ACK
5.0610235,2983,0xD5,0xFF,Read,ACK
5.0610715,2983,0xD5,0x9E,Read,ACK
5.0611195,2983,0xD5,0xFF,Read,ACK
5.0611675,2983,0xD5,0xFC,Read,ACK
5.061223125,2983,0xD5,0xFF,Read,NAK
5.061353125,2984,0x52,0x02,Write,ACK
5.0614735,2985,0x53,0x00,Read,ACK
5.0615215,2985,0x53,0x00,Read,ACK
5.0615695,2985,0x53,0x4F,Read,ACK
5.0616175,2985,0x53,0xC0,Read,ACK
5.061665875,2985,0x53,0xBD,Read,ACK
5.06171375,2985,0x53,0x00,Read,ACK
5.061769375,2985,0x53,0xAB,Read,NAK
5.070554,2986,0xD4,0xA6,Write,ACK
5.070675375,2987,0xD5,0x13,Read,ACK
5.070723375,2987,0xD5,0x0F,Read,NAK
5.070854375,2988,0xD4,0xA8,Write,ACK
5.070974625,2989,0xD5,0xD7,Read,ACK
5.071022625,2989,0xD5,0xFF,Read,ACK
5.071070625,2989,0xD5,0x9D,Read,ACK
5.071118625,2989,0xD5,0xFF,Read,ACK
5.071166625,2989,0xD5,0xFD,Read,ACK
5.071222375,2989,0xD5,0xFF,Read,NAK
5.071352375,2990,0x52,0x02,Write,ACK
5.071472625,2991,0x53,0x00,Read,ACK
5.071520625,2991,0x53,0x00,Read,ACK
5.07156875,2991,0x53,0x4F,Read,ACK
5.071616625,2991,0x53,0xC0,Read,ACK
5.071664875,2991,0x53,0xBD,Read,ACK
5.071713,2991,0x53,0x00,Read,ACK
5.071768625,2991,0x53,0xAB,Read,NAK
5.080551875,2992,0xD4,0xA6,Write,ACK
5.08067325,2993,0xD5,0x13,Read,ACK
5.08072125,2993,0xD5,0x0F,Read,NAK
5.08085225,2994,0xD4,0xA8,Write,ACK
5.0809725,2995,0xD5,0xD9,Read,ACK
5.0810205,2995,0xD5,0xFF,Read,ACK
5.0810685,2995,0xD5,0x98,Read,ACK
5.0811165,2995,0xD5,0xFF,Read,ACK
5.0811645,2995,0xD5,0xFF,Read,ACK
5.081220125,2995,0xD5,0xFF,Read,NAK
5.081350125,2996,0x52,0x02,Write,ACK
5.0814705,2997,0x53,0x00,Read,ACK
5.0815185,2997,0x53,0x00,Read,ACK
5.081566625,2997,0x53,0x4F,Read,ACK
5.081614875,2997,0x53,0xC0,Read,ACK
5.08166325,2997,0x53,0xBD,Read,ACK
5.081711125,2997,0x53,0x00,Read,ACK
5.081766875,2997,0x53,0xAB,Read,NAK
5.090553125,2998,0xD4,0xA6,Write,ACK
5.090674375,2999,0xD5,0x13,Read,ACK
5.090722375,2999,0xD5,0x0F,Read,NAK
5.090853375,3000,0xD4,0xA8,Write,ACK
5.09097375,3001,0xD5,0xCE,Read,ACK
5.09102175,3001,0xD5,0xFF,Read,ACK
5.09106975,3001,0xD5,0x90,Read,ACK
5.09111775,3001,0xD5,0xFF,Read,ACK
5.09116575,3001,0xD5,0xFD,Read,ACK
5.091221375,3001,0xD5,0xFF,Read,NAK
5.091351375,3002,0x52,0x02,Write,ACK
5.09147175,3003,0x53,0x00,Read,ACK
5.09151975,3003,0x53,0x00,Read,ACK
5.091567875,3003,0x53,0x4F,Read,ACK
5.091616,3003,0x53,0xC0,Read,ACK
5.09166425,3003,0x53,0xBD,Read,ACK
5.091712375,3003,0x53,0x00,Read,ACK
5.091768,3003,0x53,0xAB,Read,NAK
5.100552625,3004,0xD4,0xA6,Write,ACK
5.100673875,3005,0xD5,0x13,Read,ACK
5.100721875,3005,0xD5,0x0F,Read,NAK
5.100852875,3006,0xD4,0xA8,Write,ACK
5.10097325,3007,0xD5,0xC1,Read,ACK
5.10102125,3007,0xD5,0xFF,Read,ACK
5.10106925,3007,0xD5,0x88,Read,ACK
5.10111725,3007,0xD5,0xFF,Read,ACK
5.10116525,3007,0xD5,0xF7,Read,ACK
5.101220875,3007,0xD5,0xFF,Read,NAK
5.101350875,3008,0x52,0x02,Write,ACK
5.10147125,3009,0x53,0x00,Read,ACK
5.10151925,3009,0x53,0x00,Read,ACK
5.101567375,3009,0x53,0x4F,Read,ACK
5.1016155,3009,0x53,0xC0,Read,ACK
5.101663875,3009,0x53,0xBD,Read,ACK
5.101711875,3009,0x53,0x00,Read,ACK
5.1017675,3009,0x53,0xAB,Read,NAK
5.1105515,3010,0xD4,0xA6,Write,ACK
5.11067275,3011,0xD5,0x13,Read,ACK
5.11072075,3011,0xD5,0x0F,Read,NAK
5.11085175,3012,0xD4,0xA8,Write,ACK
5.110972125,3013,0xD5,0xC0,Read,ACK
5.111020125,3013,0xD5,0xFF,Read,ACK
5.111068125,3013,0xD5,0x8A,Read,ACK
5.111116125,3013,0xD5,0xFF,Read,ACK
5.111164125,3013,0xD5,0xF1,Read,ACK
5.11121975,3013,0xD5,0xFF,Read,NAK
5.11134975,3014,0x52,0x02,Write,ACK
5.111470125,3015,0x53,0x00,Read,ACK
5.111518125,3015,0x53,0x00,Read,ACK
5.11156625,3015,0x53,0x4F,Read,ACK
5.111614375,3015,0x53,0xC0,Read,ACK
5.111662875,3015,0x53,0xBD,Read,ACK
5.11171075,3015,0x53,0x00,Read,ACK
5.111766375,3015,0x53,0xAB,Read,NAK
5.120551375,3016,0xD4,0xA6,Write,ACK
5.120672625,3017,0xD5,0x13,Read,ACK
5.120720625,3017,0xD5,0x0F,Read,NAK
5.120851625,3018,0xD4,0xA8,Write,ACK
5.120972,3019,0xD5,0xCB,Read,ACK
5.12102,3019,0xD5,0xFF,Read,ACK
5.121068,3019,0xD5,0x95,Read,ACK
5.121116,3019,0xD5,0xFF,Read,ACK
5.121164,3019,0xD5,0xF0,Read,ACK
5.121219625,3019,0xD5,0xFF,Read,NAK
5.121349625,3020,0x52,0x02,Write,ACK
5.12147,3021,0x53,0x00,Read,ACK
5.121518,3021,0x53,0x00,Read,ACK
5.121566125,3021,0x53,0x4F,Read,ACK
5.12161425,3021,0x53,0xC0,Read,ACK
5.121662625,3021,0x53,0xBD,Read,ACK
5.121710625,3021,0x53,0x00,Read,ACK
5.12176625,3021,0x53,0xAB,Read,NAK
5.1305515,3022,0xD4,0xA6,Write,ACK
5.130672875,3023,0xD5,0x13,Read,ACK
5.130720875,3023,0xD5,0x0F,Read,NAK
5.130851875,3024,0xD4,0xA8,Write,ACK
5.130972125,3025,0xD5,0xD9,Read,ACK
5.131020125,3025,0xD5,0xFF,Read,ACK
5.131068125,3025,0xD5,0x9F,Read,ACK
5.131116125,3025,0xD5,0xFF,Read,ACK
5.131164125,3025,0xD5,0xF3,Read,ACK
5.131219875,3025,0xD5,0xFF,Read,NAK
5.131349875,3026,0x52,0x02,Write,ACK
5.131470125,3027,0x53,0x00,Read,ACK
5.131518125,3027,0x53,0x00,Read,ACK
5.131566375,3027,0x53,0x4F,Read,ACK
5.1316145,3027,0x53,0xC0,Read,ACK
5.13166275,3027,0x53,0xBD,Read,ACK
5.13171075,3027,0x53,0x00,Read,ACK
5.1317665,3027,0x53,0xAB,Read,NAK
5.140551375,3028,0xD4,0xA6,Write,ACK
5.14067275,3029,0xD5,0x13,Read,ACK
5.14072075,3029,0xD5,0x0F,Read,NAK
5.14085175,3030,0xD4,0xA8,Write,ACK
5.140972,3031,0xD5,0xE3,Read,ACK
5.14102,3031,0xD5,0xFF,Read,ACK
5.141068,3031,0xD5,0xA2,Read,ACK
5.141116,3031,0xD5,0xFF,Read,ACK
5.141164,3031,0xD5,0xF5,Read,ACK
5.141219625,3031,0xD5,0xFF,Read,NAK
5.141349625,3032,0x52,0x02,Write,ACK
5.14147,3033,0x53,0x00,Read,ACK
5.141518,3033,0x53,0x00,Read,ACK
5.141566125,3033,0x53,0x4F,Read,ACK
5.141614,3033,0x53,0xC0,Read,ACK
5.14166225,3033,0x53,0xBD,Read,ACK
5.141710375,3033,0x53,0x00,Read,ACK
5.141766,3033,0x53,0xAB,Read,NAK
5.150550625,3034,0xD4,0xA6,Write,ACK
5.150671875,3035,0xD5,0x13,Read,ACK
5.150719875,3035,0xD5,0x0F,Read,NAK
5.150850875,3036,0xD4,0xA8,Write,ACK
5.15097125,3037,0xD5,0xE7,Read,ACK
5.15101925,3037,0xD5,0xFF,Read,ACK
5.15106725,3037,0xD5,0xA4,Read,ACK
5.15111525,3037,0xD5,0xFF,Read,ACK
5.15116325,3037,0xD5,0xF4,Read,ACK
5.151218875,3037,0xD5,0xFF,Read,NAK
5.151348875,3038,0x52,0x02,Write,ACK
5.15146925,3039,0x53,0x00,Read,ACK
5.15151725,3039,0x53,0x00,Read,ACK
5.151565375,3039,0x53,0x4F,Read,ACK
5.15161325,3039,0x53,0xC0,Read,ACK
5.1516615,3039,0x53,0xBD,Read,ACK
5.1517095,3039,0x53,0x00,Read,ACK
5.151765125,3039,0x53,0xAB,Read,NAK
5.160550125,3040,0xD4,0xA6,Write,ACK
5.160671375,3041,0xD5,0x13,Read,ACK
5.160719375,3041,0xD5,0x0F,Read,NAK
5.160850375,3042,0xD4,0xA8,Write,ACK
5.16097075,3043,0xD5,0xE6,Read,ACK
5.16101875,3043,0xD5,0xFF,Read,ACK
5.16106675,3043,0xD5,0xAA,Read,ACK
5.16111475,3043,0xD5,0xFF,Read,ACK
5.16116275,3043,0xD5,0xF1,Read,ACK
5.161218375,3043,0xD5,0xFF,Read,NAK
5.161348375,3044,0x52,0x02,Write,ACK
5.16146875,3045,0x53,0x00,Read,ACK
5.16151675,3045,0x53,0x00,Read,ACK
5.161565,3045,0x53,0x4F,Read,ACK
5.161613,3045,0x53,0xC0,Read,ACK
5.161661375,3045,0x53,0xBD,Read,ACK
5.161709375,3045,0x53,0x00,Read,ACK
5.161765,3045,0x53,0xAB,Read,NAK
5.17055025,3046,0xD4,0xA6,Write,ACK
5.170671625,3047,0xD5,0x13,Read,ACK
5.170719625,3047,0xD5,0x0F,Read,NAK
5.170850625,3048,0xD4,0xA8,Write,ACK
5.170971,3049,0xD5,0xE4,Read,ACK
5.171019,3049,0xD5,0xFF,Read,ACK
5.171067,3049,0xD5,0xB2,Read,ACK
5.171114875,3049,0xD5,0xFF,Read,ACK
5.171162875,3049,0xD5,0xEB,Read,ACK
5.171218625,3049,0xD5,0xFF,Read,NAK
5.171348625,3050,0x52,0x02,Write,ACK
5.171468875,3051,0x53,0x00,Read,ACK
5.171516875,3051,0x53,0x00,Read,ACK
5.171565,3051,0x53,0x4F,Read,ACK
5.17161325,3051,0x53,0xC0,Read,ACK
5.1716615,3051,0x53,0xBD,Read,ACK
5.171709625,3051,0x53,0x00,Read,ACK
5.17176525,3051,0x53,0xAB,Read,NAK
5.1805495,3052,0xD4,0xA6,Write,ACK
5.180670875,3053,0xD5,0x13,Read,ACK
5.180718875,3053,0xD5,0x0F,Read,NAK
5.18084975,3054,0xD4,0xA8,Write,ACK
5.180970125,3055,0xD5,0xE3,Read,ACK
5.181018125,3055,0xD5,0xFF,Read,ACK
5.181066125,3055,0xD5,0xB5,Read,ACK
5.181114125,3055,0xD5,0xFF,Read,ACK
5.181162125,3055,0xD5,0xE6,Read,ACK
5.18121775,3055,0xD5,0xFF,Read,NAK
5.18134775,3056,0x52,0x02,Write,ACK
5.181468125,3057,0x53,0x00,Read,ACK
5.181516125,3057,0x53,0x00,Read,ACK
5.1815645,3057,0x53,0x4F,Read,ACK
5.1816125,3057,0x53,0xC0,Read,ACK
5.18166075,3057,0x53,0xBD,Read,ACK
5.18170875,3057,0x53,0x00,Read,ACK
5.181764375,3057,0x53,0xAB,Read,NAK
5.190548375,3058,0xD4,0xA6,Write,ACK
5.190669625,3059,0xD5,0x13,Read,ACK
5.190717625,3059,0xD5,0x0F,Read,NAK
5.190848625,3060,0xD4,0xA8,Write,ACK
5.190969,3061,0xD5,0xE3,Read,ACK
5.191017,3061,0xD5,0xFF,Read,ACK
5.191065,3061,0xD5,0xB1,Read,ACK
5.191113,3061,0xD5,0xFF,Read,ACK
5.191161,3061,0xD5,0xE2,Read,ACK
5.191216625,3061,0xD5,0xFF,Read,NAK
5.191346625,3062,0x52,0x02,Write,ACK
5.191467,3063,0x53,0x00,Read,ACK
5.191515,3063,0x53,0x00,Read,ACK
5.191563125,3063,0x53,0x4F,Read,ACK
5.191611,3063,0x53,0xC0,Read,ACK
5.19165925,3063,0x53,0xBD,Read,ACK
5.19170725,3063,0x53,0x00,Read,ACK
5.191763,3063,0x53,0xAB,Read,NAK
5.20054825,3064,0xD4,0xA6,Write,ACK
5.2006695,3065,0xD5,0x13,Read,ACK
5.2007175,3065,0xD5,0x00,Read,NAK
5.2008515,3066,0x52,0x02,Write,ACK
5.200971875,3067,0x53,0x00,Read,ACK
5.201019875,3067,0x53,0x00,Read,ACK
5.201068,3067,0x53,0x4F,Read,ACK
5.201116125,3067,0x53,0xC0,Read,ACK
5.2011645,3067,0x53,0xBD,Read,ACK
5.20121425,3067,0x53,0x00,Read,ACK
5.201269875,3067,0x53,0xAB,Read,NAK
5.210548125,3068,0xD4,0xA6,Write,ACK
5.210669375,3069,0xD5,0x13,Read,ACK
5.210717375,3069,0xD5,0x0F,Read,NAK
5.210848375,3070,0xD4,0xA8,Write,ACK
5.21096875,3071,0xD5,0xDF,Read,ACK
5.21101675,3071,0xD5,0xFF,Read,ACK
5.21106475,3071,0xD5,0xA6,Read,ACK
5.21111275,3071,0xD5,0xFF,Read,ACK
5.21116075,3071,0xD5,0xE5,Read,ACK
5.211216375,3071,0xD5,0xFF,Read,NAK
5.211346375,3072,0x52,0x02,Write,ACK
5.21146675,3073,0x53,0x00,Read,ACK
5.21151475,3073,0x53,0x00,Read,ACK
5.211562875,3073,0x53,0x4F,Read,ACK
5.21161075,3073,0x53,0xC0,Read,ACK
5.211659,3073,0x53,0xBD,Read,ACK
5.211707,3073,0x53,0x00,Read,ACK
5.211762625,3073,0x53,0xAB,Read,NAK
5.22054725,3074,0xD4,0xA6,Write,ACK
5.220668625,3075,0xD5,0x13,Read,ACK
5.220716625,3075,0xD5,0x0F,Read,NAK
5.220847625,3076,0xD4,0xA8,Write,ACK
5.220967875,3077,0xD5,0xD4,Read,ACK
5.221015875,3077,0xD5,0xFF,Read,ACK
5.221063875,3077,0xD5,0x99,Read,ACK
5.221111875,3077,0xD5,0xFF,Read,ACK
5.221159875,3077,0xD5,0xEB,Read,ACK
5.221215625,3077,0xD5,0xFF,Read,NAK
5.221345625,3078,0x52,0x02,Write,ACK
5.221465875,3079,0x53,0x00,Read,ACK
5.221513875,3079,0x53,0x00,Read,ACK
5.221562,3079,0x53,0x4F,Read,ACK
5.221609875,3079,0x53,0xC0,Read,ACK
5.22165825,3079,0x53,0xBD,Read,ACK
5.22170625,3079,0x53,0x00,Read,ACK
5.221761875,3079,0x53,0xAB,Read,NAK
5.230547125,3080,0xD4,0xA6,Write,ACK
5.2306685,3081,0xD5,0x13,Read,ACK
5.2307165,3081,0xD5,0x0F,Read,NAK
5.2308475,3082,0xD4,0xA8,Write,ACK
5.23096775,3083,0xD5,0xC9,Read,ACK
5.23101575,3083,0xD5,0xFF,Read,ACK
5.23106375,3083,0xD5,0x92,Read,ACK
5.23111175,3083,0xD5,0xFF,Read,ACK
5.23115975,3083,0xD5,0xEF,Read,ACK
5.231215375,3083,0xD5,0xFF,Read,NAK
5.231345375,3084,0x52,0x02,Write,ACK
5.23146575,3085,0x53,0x00,Read,ACK
5.23151375,3085,0x53,0x00,Read,ACK
5.231561875,3085,0x53,0x4F,Read,ACK
5.231610125,3085,0x53,0xC0,Read,ACK
5.231658375,3085,0x53,0xBD,Read,ACK
5.231706375,3085,0x53,0x00,Read,ACK
5.231762125,3085,0x53,0xAB,Read,NAK
5.240546375,3086,0xD4,0xA6,Write,ACK
5.240667625,3087,0xD5,0x13,Read,ACK
5.240715625,3087,0xD5,0x0F,Read,NAK
5.240846625,3088,0xD4,0xA8,Write,ACK
5.240967,3089,0xD5,0xC7,Read,ACK
5.241015,3089,0xD5,0xFF,Read,ACK
5.241063,3089,0xD5,0x97,Read,ACK
5.241111,3089,0xD5,0xFF,Read,ACK
5.241159,3089,0xD5,0xEE,Read,ACK
5.241214625,3089,0xD5,0xFF,Read,NAK
5.241344625,3090,0x52,0x02,Write,ACK
5.241465,3091,0x53,0x00,Read,ACK
5.241513,3091,0x53,0x00,Read,ACK
5.241561125,3091,0x53,0x4F,Read,ACK
5.24160925,3091,0x53,0xC0,Read,ACK
5.241657625,3091,0x53,0xBD,Read,ACK
5.241705625,3091,0x53,0x00,Read,ACK
5.24176125,3091,0x53,0xAB,Read,NAK
5.250545875,3092,0xD4,0xA6,Write,ACK
5.250667125,3093,0xD5,0x13,Read,ACK
5.250715125,3093,0xD5,0x0F,Read,NAK
5.250846125,3094,0xD4,0xA8,Write,ACK
5.2509665,3095,0xD5,0xD0,Read,ACK
5.2510145,3095,0xD5,0xFF,Read,ACK
5.2510625,3095,0xD5,0xA2,Read,ACK
5.2511105,3095,0xD5,0xFF,Read,ACK
5.2511585,3095,0xD5,0xEC,Read,ACK
5.251214125,3095,0xD5,0xFF,Read,NAK
5.251344125,3096,0x52,0x02,Write,ACK
5.2514645,3097,0x53,0x00,Read,ACK
5.2515125,3097,0x53,0x00,Read,ACK
5.25156075,3097,0x53,0x4F,Read,ACK
5.25160875,3097,0x53,0xC0,Read,ACK
5.251657125,3097,0x53,0xBD,Read,ACK
5.251705125,3097,0x53,0x00,Read,ACK
5.25176075,3097,0x53,0xAB,Read,NAK
5.26054575,3098,0xD4,0xA6,Write,ACK
5.260667,3099,0xD5,0x13,Read,ACK
5.260715,3099,0xD5,0x0F,Read,NAK
5.260846,3100,0xD4,0xA8,Write,ACK
5.260966375,3101,0xD5,0xD9,Read,ACK
5.261014375,3101,0xD5,0xFF,Read,ACK
5.261062375,3101,0xD5,0xA7,Read,ACK
5.261110375,3101,0xD5,0xFF,Read,ACK
5.261158375,3101,0xD5,0xEB,Read,ACK
5.261214,3101,0xD5,0xFF,Read,NAK
5.261344,3102,0x52,0x02,Write,ACK
5.261464375,3103,0x53,0x00,Read,ACK
5.261512375,3103,0x53,0x00,Read,ACK
5.2615605,3103,0x53,0x4F,Read,ACK
5.261608375,3103,0x53,0xC0,Read,ACK
5.261656625,3103,0x53,0xBD,Read,ACK
5.261704625,3103,0x53,0x00,Read,ACK
5.261760375,3103,0x53,0xAB,Read,NAK
5.270544625,3104,0xD4,0xA6,Write,ACK
5.270665875,3105,0xD5,0x13,Read,ACK
5.270713875,3105,0xD5,0x0F,Read,NAK
5.270844875,3106,0xD4,0xA8,Write,ACK
5.27096525,3107,0xD5,0xDE,Read,ACK
5.27101325,3107,0xD5,0xFF,Read,ACK
5.27106125,3107,0xD5,0xA4,Read,ACK
5.27110925,3107,0xD5,0xFF,Read,ACK
5.27115725,3107,0xD5,0xEE,Read,ACK
5.271212875,3107,0xD5,0xFF,Read,NAK
5.271342875,3108,0x52,0x02,Write,ACK
5.27146325,3109,0x53,0x00,Read,ACK
5.27151125,3109,0x53,0x00,Read,ACK
5.271559375,3109,0x53,0x4F,Read,ACK
5.2716075,3109,0x53,0xC0,Read,ACK
5.27165575,3109,0x53,0xBD,Read,ACK
5.271703875,3109,0x53,0x00,Read,ACK
5.2717595,3109,0x53,0xAB,Read,NAK
5.28054475,3110,0xD4,0xA6,Write,ACK
5.280666125,3111,0xD5,0x13,Read,ACK
5.280714125,3111,0xD5,0x0F,Read,NAK
5.280845125,3112,0xD4,0xA8,Write,ACK
5.280965375,3113,0xD5,0xE0,Read,ACK
5.281013375,3113,0xD5,0xFF,Read,ACK
5.281061375,3113,0xD5,0x9E,Read,ACK
5.281109375,3113,0xD5,0xFF,Read,ACK
5.281157375,3113,0xD5,0xEF,Read,ACK
5.281213125,3113,0xD5,0xFF,Read,NAK
5.281343125,3114,0x52,0x02,Write,ACK
5.281463375,3115,0x53,0x00,Read,ACK
5.281511375,3115,0x53,0x00,Read,ACK
5.2815595,3115,0x53,0x4F,Read,ACK
5.281607375,3115,0x53,0xC0,Read,ACK
5.281655625,3115,0x53,0xBD,Read,ACK
5.28170375,3115,0x53,0x00,Read,ACK
5.281759375,3115,0x53,0xAB,Read,NAK
5.290544,3116,0xD4,0xA6,Write,ACK
5.29066525,3117,0xD5,0x13,Read,ACK
5.29071325,3117,0xD5,0x0F,Read,NAK
5.29084425,3118,0xD4,0xA8,Write,ACK
5.290964625,3119,0xD5,0xE3,Read,ACK
5.291012625,3119,0xD5,0xFF,Read,ACK
5.291060625,3119,0xD5,0x9B,Read,ACK
5.291108625,3119,0xD5,0xFF,Read,ACK
5.291156625,3119,0xD5,0xED,Read,ACK
5.29121225,3119,0xD5,0xFF,Read,NAK
5.29134225,3120,0x52,0x02,Write,ACK
5.291462625,3121,0x53,0x00,Read,ACK
5.291510625,3121,0x53,0x00,Read,ACK
5.29155875,3121,0x53,0x4F,Read,ACK
5.291606875,3121,0x53,0xC0,Read,ACK
5.29165525,3121,0x53,0xBD,Read,ACK
5.29170325,3121,0x53,0x00,Read,ACK
5.291758875,3121,0x53,0xAB,Read,NAK
5.300543125,3122,0xD4,0xA6,Write,ACK
5.3006645,3123,0xD5,0x13,Read,ACK
5.3007125,3123,0xD5,0x0F,Read,NAK
5.3008435,3124,0xD4,0xA8,Write,ACK
5.30096375,3125,0xD5,0xEA,Read,ACK
5.30101175,3125,0xD5,0xFF,Read,ACK
5.30105975,3125,0xD5,0x9B,Read,ACK
5.30110775,3125,0xD5,0xFF,Read,ACK
5.30115575,3125,0xD5,0xE9,Read,ACK
5.3012115,3125,0xD5,0xFF,Read,NAK
5.3013415,3126,0x52,0x02,Write,ACK
5.30146175,3127,0x53,0x00,Read,ACK
5.30150975,3127,0x53,0x00,Read,ACK
5.301558,3127,0x53,0x4F,Read,ACK
5.301606125,3127,0x53,0xC0,Read,ACK
5.301654375,3127,0x53,0xBD,Read,ACK
5.3017025,3127,0x53,0x00,Read,ACK
5.301758125,3127,0x53,0xAB,Read,NAK
5.310543,3128,0xD4,0xA6,Write,ACK
5.310664375,3129,0xD5,0x13,Read,ACK
5.310712375,3129,0xD5,0x0F,Read,NAK
5.310843375,3130,0xD4,0xA8,Write,ACK
5.310963625,3131,0xD5,0xEF,Read,ACK
5.311011625,3131,0xD5,0xFF,Read,ACK
5.311059625,3131,0xD5,0x9B,Read,ACK
5.311107625,3131,0xD5,0xFF,Read,ACK
5.311155625,3131,0xD5,0xE6,Read,ACK
5.311211375,3131,0xD5,0xFF,Read,NAK
5.311341375,3132,0x52,0x02,Write,ACK
5.311461625,3133,0x53,0x00,Read,ACK
5.311509625,3133,0x53,0x00,Read,ACK
5.311558,3133,0x53,0x4F,Read,ACK
5.311606,3133,0x53,0xC0,Read,ACK
5.31165425,3133,0x53,0xBD,Read,ACK
5.31170225,3133,0x53,0x00,Read,ACK
5.311758,3133,0x53,0xAB,Read,NAK
5.32054225,3134,0xD4,0xA6,Write,ACK
5.3206635,3135,0xD5,0x13,Read,ACK
5.3207115,3135,0xD5,0x0F,Read,NAK
5.3208425,3136,0xD4,0xA8,Write,ACK
5.320962875,3137,0xD5,0xF2,Read,ACK
5.321010875,3137,0xD5,0xFF,Read,ACK
5.321058875,3137,0xD5,0x9B,Read,ACK
5.321106875,3137,0xD5,0xFF,Read,ACK
5.321154875,3137,0xD5,0xE7,Read,ACK
5.3212105,3137,0xD5,0xFF,Read,NAK
5.3213405,3138,0x52,0x02,Write,ACK
5.321460875,3139,0x53,0x00,Read,ACK
5.321508875,3139,0x53,0x00,Read,ACK
5.321557,3139,0x53,0x4F,Read,ACK
5.321605125,3139,0x53,0xC0,Read,ACK
5.3216535,3139,0x53,0xBD,Read,ACK
5.3217015,3139,0x53,0x00,Read,ACK
5.321757125,3139,0x53,0xAB,Read,NAK
5.330541125,3140,0xD4,0xA6,Write,ACK
5.330662375,3141,0xD5,0x13,Read,ACK
5.330710375,3141,0xD5,0x0F,Read,NAK
5.330841375,3142,0xD4,0xA8,Write,ACK
5.33096175,3143,0xD5,0xF3,Read,ACK
5.33100975,3143,0xD5,0xFF,Read,ACK
5.33105775,3143,0xD5,0x9D,Read,ACK
5.33110575,3143,0xD5,0xFF,Read,ACK
5.33115375,3143,0xD5,0xEC,Read,ACK
5.331209375,3143,0xD5,0xFF,Read,NAK
5.331339375,3144,0x52,0x02,Write,ACK
5.33145975,3145,0x53,0x00,Read,ACK
5.33150775,3145,0x53,0x00,Read,ACK
5.331555875,3145,0x53,0x4F,Read,ACK
5.33160375,3145,0x53,0xC0,Read,ACK
5.331652125,3145,0x53,0xBD,Read,ACK
5.3317,3145,0x53,0x00,Read,ACK
5.331755625,3145,0x53,0xAB,Read,NAK
5.340540625,3146,0xD4,0xA6,Write,ACK
5.340661875,3147,0xD5,0x13,Read,ACK
5.340709875,3147,0xD5,0x0F,Read,NAK
5.340840875,3148,0xD4,0xA8,Write,ACK
5.34096125,3149,0xD5,0xF4,Read,ACK
5.34100925,3149,0xD5,0xFF,Read,ACK
5.34105725,3149,0xD5,0xA0,Read,ACK
5.34110525,3149,0xD5,0xFF,Read,ACK
5.34115325,3149,0xD5,0xF1,Read,ACK
5.341208875,3149,0xD5,0xFF,Read,NAK
5.341338875,3150,0x52,0x02,Write,ACK
5.34145925,3151,0x53,0x00,Read,ACK
5.34150725,3151,0x53,0x00,Read,ACK
5.341555375,3151,0x53,0x4F,Read,ACK
5.34160325,3151,0x53,0xC0,Read,ACK
5.3416515,3151,0x53,0xBD,Read,ACK
5.3416995,3151,0x53,0x00,Read,ACK
5.34175525,3151,0x53,0xAB,Read,NAK
5.3505415,3152,0xD4,0xA6,Write,ACK
5.35066275,3153,0xD5,0x13,Read,ACK
5.35071075,3153,0xD5,0x0F,Read,NAK
5.35084175,3154,0xD4,0xA8,Write,ACK
5.350962125,3155,0xD5,0xF2,Read,ACK
5.351010125,3155,0xD5,0xFF,Read,ACK
5.351058125,3155,0xD5,0xA1,Read,ACK
5.351106125,3155,0xD5,0xFF,Read,ACK
5.351154125,3155,0xD5,0xF4,Read,ACK
5.35120975,3155,0xD5,0xFF,Read,NAK
5.35133975,3156,0x52,0x02,Write,ACK
5.351460125,3157,0x53,0x00,Read,ACK
5.351508125,3157,0x53,0x00,Read,ACK
5.35155625,3157,0x53,0x4F,Read,ACK
5.351604375,3157,0x53,0xC0,Read,ACK
5.35165275,3157,0x53,0xBD,Read,ACK
5.35170075,3157,0x53,0x00,Read,ACK
5.351756375,3157,0x53,0xAB,Read,NAK
5.360541,3158,0xD4,0xA6,Write,ACK
5.360662375,3159,0xD5,0x13,Read,ACK
5.360710375,3159,0xD5,0x0F,Read,NAK
5.36084125,3160,0xD4,0xA8,Write,ACK
5.360961625,3161,0xD5,0xEC,Read,ACK
5.361009625,3161,0xD5,0xFF,Read,ACK
5.361057625,3161,0xD5,0xA1,Read,ACK
5.361105625,3161,0xD5,0xFF,Read,ACK
5.361153625,3161,0xD5,0xF5,Read,ACK
5.36120925,3161,0xD5,0xFF,Read,NAK
5.36133925,3162,0x52,0x02,Write,ACK
5.361459625,3163,0x53,0x00,Read,ACK
5.361507625,3163,0x53,0x00,Read,ACK
5.361555875,3163,0x53,0x4F,Read,ACK
5.361604,3163,0x53,0xC0,Read,ACK
5.36165225,3163,0x53,0xBD,Read,ACK
5.36170025,3163,0x53,0x00,Read,ACK
5.361755875,3163,0x53,0xAB,Read,NAK
5.370540125,3164,0xD4,0xA6,Write,ACK
5.3706615,3165,0xD5,0x13,Read,ACK
5.3707095,3165,0xD5,0x0F,Read,NAK
5.3708405,3166,0xD4,0xA8,Write,ACK
5.370960875,3167,0xD5,0xE2,Read,ACK
5.371008875,3167,0xD5,0xFF,Read,ACK
5.371056875,3167,0xD5,0xA4,Read,ACK
5.371104875,3167,0xD5,0xFF,Read,ACK
5.371152875,3167,0xD5,0xF3,Read,ACK
5.3712085,3167,0xD5,0xFF,Read,NAK
5.3713385,3168,0x52,0x02,Write,ACK
5.371458875,3169,0x53,0x00,Read,ACK
5.37150675,3169,0x53,0x00,Read,ACK
5.371555,3169,0x53,0x4F,Read,ACK
5.371603125,3169,0x53,0xC0,Read,ACK
5.3716515,3169,0x53,0xBD,Read,ACK
5.3716995,3169,0x53,0x00,Read,ACK
5.371755125,3169,0x53,0xAB,Read,NAK
5.38053975,3170,0xD4,0xA6,Write,ACK
5.380661,3171,0xD5,0x13,Read,ACK
5.380709,3171,0xD5,0x00,Read,NAK
5.380843,3172,0x52,0x02,Write,ACK
5.380963375,3173,0x53,0x00,Read,ACK
5.381011375,3173,0x53,0x00,Read,ACK
5.3810595,3173,0x53,0x4F,Read,ACK
5.38110775,3173,0x53,0xC0,Read,ACK
5.381155875,3173,0x53,0xBD,Read,ACK
5.381204,3173,0x53,0x00,Read,ACK
5.381259625,3173,0x53,0xAB,Read,NAK
5.39053925,3174,0xD4,0xA6,Write,ACK
5.390660625,3175,0xD5,0x13,Read,ACK
5.390708625,3175,0xD5,0x0F,Read,NAK
5.3908395,3176,0xD4,0xA8,Write,ACK
5.390959875,3177,0xD5,0xD5,Read,ACK
5.391007875,3177,0xD5,0xFF,Read,ACK
5.391055875,3177,0xD5,0xAA,Read,ACK
5.391103875,3177,0xD5,0xFF,Read,ACK
5.391151875,3177,0xD5,0xEF,Read,ACK
5.3912075,3177,0xD5,0xFF,Read,NAK
5.3913375,3178,0x52,0x02,Write,ACK
5.391457875,3179,0x53,0x00,Read,ACK
5.391505875,3179,0x53,0x00,Read,ACK
5.391554,3179,0x53,0x4F,Read,ACK
5.39160225,3179,0x53,0xC0,Read,ACK
5.3916505,3179,0x53,0xBD,Read,ACK
5.3916985,3179,0x53,0x00,Read,ACK
5.391754125,3179,0x53,0xAB,Read,NAK
5.400538375,3180,0xD4,0xA6,Write,ACK
5.40065975,3181,0xD5,0x13,Read,ACK
5.40070775,3181,0xD5,0x0F,Read,NAK
5.40083875,3182,0xD4,0xA8,Write,ACK
5.400959125,3183,0xD5,0xC8,Read,ACK
5.401007125,3183,0xD5,0xFF,Read,ACK
5.401055125,3183,0xD5,0xB1,Read,ACK
5.401103125,3183,0xD5,0xFF,Read,ACK
5.401151125,3183,0xD5,0xEA,Read,ACK
5.40120675,3183,0xD5,0xFF,Read,NAK
5.40133675,3184,0x52,0x02,Write,ACK
5.401457125,3185,0x53,0x00,Read,ACK
5.401505125,3185,0x53,0x00,Read,ACK
5.40155325,3185,0x53,0x4F,Read,ACK
5.401601375,3185,0x53,0xC0,Read,ACK
5.401649625,3185,0x53,0xBD,Read,ACK
5.40169775,3185,0x53,0x00,Read,ACK
5.401753375,3185,0x53,0xAB,Read,NAK
5.410538625,3186,0xD4,0xA6,Write,ACK
5.41066,3187,0xD5,0x13,Read,ACK
5.410708,3187,0xD5,0x0F,Read,NAK
5.410839,3188,0xD4,0xA8,Write,ACK
5.41095925,3189,0xD5,0xC1,Read,ACK
5.41100725,3189,0xD5,0xFF,Read,ACK
5.41105525,3189,0xD5,0xB4,Read,ACK
5.41110325,3189,0xD5,0xFF,Read,ACK
5.41115125,3189,0xD5,0xE4,Read,ACK
5.411206875,3189,0xD5,0xFF,Read,NAK
5.411336875,3190,0x52,0x02,Write,ACK
5.41145725,3191,0x53,0x00,Read,ACK
5.41150525,3191,0x53,0x00,Read,ACK
5.4115535,3191,0x53,0x4F,Read,ACK
5.411601625,3191,0x53,0xC0,Read,ACK
5.411649875,3191,0x53,0xBD,Read,ACK
5.411697875,3191,0x53,0x00,Read,ACK
5.411753625,3191,0x53,0xAB,Read,NAK
5.420537875,3192,0xD4,0xA6,Write,ACK
5.420659125,3193,0xD5,0x13,Read,ACK
5.420707125,3193,0xD5,0x0F,Read,NAK
5.420838125,3194,0xD4,0xA8,Write,ACK
5.4209585,3195,0xD5,0xC4,Read,ACK
5.4210065,3195,0xD5,0xFF,Read,ACK
5.4210545,3195,0xD5,0xB5,Read,ACK
5.4211025,3195,0xD5,0xFF,Read,ACK
5.4211505,3195,0xD5,0xDE,Read,ACK
5.421206125,3195,0xD5,0xFF,Read,NAK
5.421336125,3196,0x52,0x02,Write,ACK
5.4214565,3197,0x53,0x00,Read,ACK
5.4215045,3197,0x53,0x00,Read,ACK
5.421552625,3197,0x53,0x4F,Read,ACK
5.42160075,3197,0x53,0xC0,Read,ACK
5.421649125,3197,0x53,0xBD,Read,ACK
5.421697125,3197,0x53,0x00,Read,ACK
5.42175275,3197,0x53,0xAB,Read,NAK
5.430537,3198,0xD4,0xA6,Write,ACK
5.430658375,3199,0xD5,0x13,Read,ACK
5.430706375,3199,0xD5,0x0F,Read,NAK
5.430837375,3200,0xD4,0xA8,Write,ACK
5.430957625,3201,0xD5,0xD1,Read,ACK
5.431005625,3201,0xD5,0xFF,Read,ACK
5.431053625,3201,0xD5,0xB7,Read,ACK
5.431101625,3201,0xD5,0xFF,Read,ACK
5.431149625,3201,0xD5,0xDA,Read,ACK
5.431205375,3201,0xD5,0xFF,Read,NAK
5.431335375,3202,0x52,0x02,Write,ACK
5.431455625,3203,0x53,0x00,Read,ACK
5.431503625,3203,0x53,0x00,Read,ACK
5.431551875,3203,0x53,0x4F,Read,ACK
5.4316,3203,0x53,0xC0,Read,ACK
5.43164825,3203,0x53,0xBD,Read,ACK
5.43169625,3203,0x53,0x00,Read,ACK
5.431752,3203,0x53,0xAB,Read,NAK
5.44053725,3204,0xD4,0xA6,Write,ACK
5.4406585,3205,0xD5,0x13,Read,ACK
5.4407065,3205,0xD5,0x0F,Read,NAK
5.4408375,3206,0xD4,0xA8,Write,ACK
5.440957875,3207,0xD5,0xDF,Read,ACK
5.441005875,3207,0xD5,0xFF,Read,ACK
5.441053875,3207,0xD5,0xB9,Read,ACK
5.441101875,3207,0xD5,0xFF,Read,ACK
5.441149875,3207,0xD5,0xDA,Read,ACK
5.4412055,3207,0xD5,0xFF,Read,NAK
5.4413355,3208,0x52,0x02,Write,ACK
5.441455875,3209,0x53,0x00,Read,ACK
5.441503875,3209,0x53,0x00,Read,ACK
5.441552,3209,0x53,0x4F,Read,ACK
5.441599875,3209,0x53,0xC0,Read,ACK
5.441648,3209,0x53,0xBD,Read,ACK
5.441696125,3209,0x53,0x00,Read,ACK
5.441751875,3209,0x53,0xAB,Read,NAK
5.450536375,3210,0xD4,0xA6,Write,ACK
5.45065775,3211,0xD5,0x13,Read,ACK
5.45070575,3211,0xD5,0x0F,Read,NAK
5.45083675,3212,0xD4,0xA8,Write,ACK
5.450957,3213,0xD5,0xE4,Read,ACK
5.451005,3213,0xD5,0xFF,Read,ACK
5.451053,3213,0xD5,0xB5,Read,ACK
5.451101,3213,0xD5,0xFF,Read,ACK
5.451149,3213,0xD5,0xDF,Read,ACK
5.45120475,3213,0xD5,0xFF,Read,NAK
5.45133475,3214,0x52,0x02,Write,ACK
5.451455,3215,0x53,0x00,Read,ACK
5.451503,3215,0x53,0x00,Read,ACK
5.451551125,3215,0x53,0x4F,Read,ACK
5.451599,3215,0x53,0xC0,Read,ACK
5.451647375,3215,0x53,0xBD,Read,ACK
5.451695375,3215,0x53,0x00,Read,ACK
5.451751,3215,0x53,0xAB,Read,NAK
5.460535625,3216,0xD4,0xA6,Write,ACK
5.460656875,3217,0xD5,0x13,Read,ACK
5.460704875,3217,0xD5,0x0F,Read,NAK
5.460835875,3218,0xD4,0xA8,Write,ACK
5.46095625,3219,0xD5,0xE0,Read,ACK
5.46100425,3219,0xD5,0xFF,Read,ACK
5.46105225,3219,0xD5,0xAB,Read,ACK
5.46110025,3219,0xD5,0xFF,Read,ACK
5.46114825,3219,0xD5,0xE8,Read,ACK
5.461203875,3219,0xD5,0xFF,Read,NAK
5.461333875,3220,0x52,0x02,Write,ACK
5.46145425,3221,0x53,0x00,Read,ACK
5.46150225,3221,0x53,0x00,Read,ACK
5.461550375,3221,0x53,0x4F,Read,ACK
5.46159825,3221,0x53,0xC0,Read,ACK
5.461646625,3221,0x53,0xBD,Read,ACK
5.4616945,3221,0x53,0x00,Read,ACK
5.46175025,3221,0x53,0xAB,Read,NAK
5.4705355,3222,0xD4,0xA6,Write,ACK
5.47065675,3223,0xD5,0x13,Read,ACK
5.47070475,3223,0xD5,0x0F,Read,NAK
5.47083575,3224,0xD4,0xA8,Write,ACK
5.470956125,3225,0xD5,0xD8,Read,ACK
5.471004125,3225,0xD5,0xFF,Read,ACK
5.471052125,3225,0xD5,0x9D,Read,ACK
5.471100125,3225,0xD5,0xFF,Read,ACK
5.471148125,3225,0xD5,0xF0,Read,ACK
5.47120375,3225,0xD5,0xFF,Read,NAK
5.47133375,3226,0x52,0x02,Write,ACK
5.471454125,3227,0x53,0x00,Read,ACK
5.471502125,3227,0x53,0x00,Read,ACK
5.47155025,3227,0x53,0x4F,Read,ACK
5.471598375,3227,0x53,0xC0,Read,ACK
5.471646625,3227,0x53,0xBD,Read,ACK
5.47169475,3227,0x53,0x00,Read,ACK
5.471750375,3227,0x53,0xAB,Read,NAK
5.480534625,3228,0xD4,0xA6,Write,ACK
5.480656,3229,0xD5,0x13,Read,ACK
5.480704,3229,0xD5,0x0F,Read,NAK
5.480835,3230,0xD4,0xA8,Write,ACK
5.48095525,3231,0xD5,0xD4,Read,ACK
5.48100325,3231,0xD5,0xFF,Read,ACK
5.48105125,3231,0xD5,0x8F,Read,ACK
5.48109925,3231,0xD5,0xFF,Read,ACK
5.48114725,3231,0xD5,0xF6,Read,ACK
5.481203,3231,0xD5,0xFF,Read,NAK
5.481333,3232,0x52,0x02,Write,ACK
5.48145325,3233,0x53,0x00,Read,ACK
5.48150125,3233,0x53,0x00,Read,ACK
5.4815495,3233,0x53,0x4F,Read,ACK
5.481597625,3233,0x53,0xC0,Read,ACK
5.481646,3233,0x53,0xBD,Read,ACK
5.481694,3233,0x53,0x00,Read,ACK
5.481749625,3233,0x53,0xAB,Read,NAK
5.490533875,3234,0xD4,0xA6,Write,ACK
5.490655125,3235,0xD5,0x13,Read,ACK
5.490703125,3235,0xD5,0x0F,Read,NAK
5.490834125,3236,0xD4,0xA8,Write,ACK
5.4909545,3237,0xD5,0xD7,Read,ACK
5.4910025,3237,0xD5,0xFF,Read,ACK
5.4910505,3237,0xD5,0x85,Read,ACK
5.4910985,3237,0xD5,0xFF,Read,ACK
5.4911465,3237,0xD5,0xFC,Read,ACK
5.491202125,3237,0xD5,0xFF,Read,NAK
5.491332125,3238,0x52,0x02,Write,ACK
5.4914525,3239,0x53,0x00,Read,ACK
5.4915005,3239,0x53,0x00,Read,ACK
5.491548625,3239,0x53,0x4F,Read,ACK
5.49159675,3239,0x53,0xC0,Read,ACK
5.49164525,3239,0x53,0xBD,Read,ACK
5.491693125,3239,0x53,0x00,Read,ACK
5.49174875,3239,0x53,0xAB,Read,NAK
5.50053375,3240,0xD4,0xA6,Write,ACK
5.500655,3241,0xD5,0x13,Read,ACK
5.500703,3241,0xD5,0x0F,Read,NAK
5.500834,3242,0xD4,0xA8,Write,ACK
5.500954375,3243,0xD5,0xE0,Read,ACK
5.501002375,3243,0xD5,0xFF,Read,ACK
5.501050375,3243,0xD5,0x81,Read,ACK
5.501098375,3243,0xD5,0xFF,Read,ACK
5.501146375,3243,0xD5,0x02,Read,ACK
5.501202,3243,0xD5,0x00,Read,NAK
5.501332,3244,0x52,0x02,Write,ACK
5.501452375,3245,0x53,0x00,Read,ACK
5.501500375,3245,0x53,0x00,Read,ACK
5.5015485,3245,0x53,0x4F,Read,ACK
5.501596625,3245,0x53,0xC0,Read,ACK
5.501644875,3245,0x53,0xBD,Read,ACK
5.501693,3245,0x53,0x00,Read,ACK
5.501748625,3245,0x53,0xAB,Read,NAK
5.51053225,3246,0xD4,0xA6,Write,ACK
5.510653625,3247,0xD5,0x13,Read,ACK
5.510701625,3247,0xD5,0x0F,Read,NAK
5.510832625,3248,0xD4,0xA8,Write,ACK
5.510952875,3249,0xD5,0xEB,Read,ACK
5.511000875,3249,0xD5,0xFF,Read,ACK
5.511048875,3249,0xD5,0x85,Read,ACK
5.511096875,3249,0xD5,0xFF,Read,ACK
5.511144875,3249,0xD5,0x07,Read,ACK
5.5112005,3249,0xD5,0x00,Read,NAK
5.5113305,3250,0x52,0x02,Write,ACK
5.511450875,3251,0x53,0x00,Read,ACK
5.511498875,3251,0x53,0x00,Read,ACK
5.511547,3251,0x53,0x4F,Read,ACK
5.511594875,3251,0x53,0xC0,Read,ACK
5.511643125,3251,0x53,0xBD,Read,ACK
5.51169125,3251,0x53,0x00,Read,ACK
5.511746875,3251,0x53,0xAB,Read,NAK
5.52053275,3252,0xD4,0xA6,Write,ACK
5.520654125,3253,0xD5,0x13,Read,ACK
5.520702125,3253,0xD5,0x0F,Read,NAK
5.520833125,3254,0xD4,0xA8,Write,ACK
5.520953375,3255,0xD5,0xF3,Read,ACK
5.521001375,3255,0xD5,0xFF,Read,ACK
5.521049375,3255,0xD5,0x8F,Read,ACK
5.521097375,3255,0xD5,0xFF,Read,ACK
5.521145375,3255,0xD5,0x07,Read,ACK
5.521201125,3255,0xD5,0x00,Read,NAK
5.521331125,3256,0x52,0x02,Write,ACK
5.521451375,3257,0x53,0x00,Read,ACK
5.521499375,3257,0x53,0x00,Read,ACK
5.521547625,3257,0x53,0x4F,Read,ACK
5.52159575,3257,0x53,0xC0,Read,ACK
5.521644,3257,0x53,0xBD,Read,ACK
5.521692,3257,0x53,0x00,Read,ACK
5.52174775,3257,0x53,0xAB,Read,NAK
5.530532,3258,0xD4,0xA6,Write,ACK
5.53065325,3259,0xD5,0x13,Read,ACK
5.53070125,3259,0xD5,0x0F,Read,NAK
5.53083225,3260,0xD4,0xA8,Write,ACK
5.530952625,3261,0xD5,0xF6,Read,ACK
5.531000625,3261,0xD5,0xFF,Read,ACK
5.531048625,3261,0xD5,0x9D,Read,ACK
5.531096625,3261,0xD5,0xFF,Read,ACK
5.531144625,3261,0xD5,0x01,Read,ACK
5.53120025,3261,0xD5,0x00,Read,NAK
5.53133025,3262,0x52,0x02,Write,ACK
5.531450625,3263,0x53,0x00,Read,ACK
5.531498625,3263,0x53,0x00,Read,ACK
5.53154675,3263,0x53,0x4F,Read,ACK
5.531594875,3263,0x53,0xC0,Read,ACK
5.53164325,3263,0x53,0xBD,Read,ACK
5.53169125,3263,0x53,0x00,Read,ACK
5.531746875,3263,0x53,0xAB,Read,NAK
5.540531875,3264,0xD4,0xA6,Write,ACK
5.540653125,3265,0xD5,0x13,Read,ACK
5.540701125,3265,0xD5,0x0F,Read,NAK
5.540832125,3266,0xD4,0xA8,Write,ACK
5.5409525,3267,0xD5,0xF1,Read,ACK
5.5410005,3267,0xD5,0xFF,Read,ACK
5.5410485,3267,0xD5,0xA9,Read,ACK
5.5410965,3267,0xD5,0xFF,Read,ACK
5.5411445,3267,0xD5,0xF7,Read,ACK
5.541200125,3267,0xD5,0xFF,Read,NAK
5.541330125,3268,0x52,0x02,Write,ACK
5.5414505,3269,0x53,0x00,Read,ACK
5.5414985,3269,0x53,0x00,Read,ACK
5.541546625,3269,0x53,0x4F,Read,ACK
5.54159475,3269,0x53,0xC0,Read,ACK
5.541643125,3269,0x53,0xBD,Read,ACK
5.541691125,3269,0x53,0x00,Read,ACK
5.54174675,3269,0x53,0xAB,Read,NAK
5.55053175,3270,0xD4,0xA6,Write,ACK
5.550653,3271,0xD5,0x13,Read,ACK
5.550701,3271,0xD5,0x0F,Read,NAK
5.550832,3272,0xD4,0xA8,Write,ACK
5.550952375,3273,0xD5,0xE6,Read,ACK
5.551000375,3273,0xD5,0xFF,Read,ACK
5.551048375,3273,0xD5,0xB1,Read,ACK
5.551096375,3273,0xD5,0xFF,Read,ACK
5.551144375,3273,0xD5,0xEE,Read,ACK
5.5512,3273,0xD5,0xFF,Read,NAK
5.55133,3274,0x52,0x02,Write,ACK
5.551450375,3275,0x53,0x00,Read,ACK
5.551498375,3275,0x53,0x00,Read,ACK
5.551546375,3275,0x53,0x4F,Read,ACK
5.55159425,3275,0x53,0xC0,Read,ACK
5.5516425,3275,0x53,0xBD,Read,ACK
5.551690625,3275,0x53,0x00,Read,ACK
5.55174625,3275,0x53,0xAB,Read,NAK
5.56053125,3276,0xD4,0xA6,Write,ACK
5.5606525,3277,0xD5,0x13,Read,ACK
5.5607005,3277,0xD5,0x0F,Read,NAK
5.5608315,3278,0xD4,0xA8,Write,ACK
5.560951875,3279,0xD5,0xDA,Read,ACK
5.560999875,3279,0xD5,0xFF,Read,ACK
5.561047875,3279,0xD5,0xB4,Read,ACK
5.561095875,3279,0xD5,0xFF,Read,ACK
5.561143875,3279,0xD5,0xEA,Read,ACK
5.5611995,3279,0xD5,0xFF,Read,NAK
5.5613295,3280,0x52,0x02,Write,ACK
5.561449875,3281,0x53,0x00,Read,ACK
5.561497875,3281,0x53,0x00,Read,ACK
5.561546,3281,0x53,0x4F,Read,ACK
5.561594125,3281,0x53,0xC0,Read,ACK
5.561642375,3281,0x53,0xBD,Read,ACK
5.5616905,3281,0x53,0x00,Read,ACK
5.561746125,3281,0x53,0xAB,Read,NAK
5.570530375,3282,0xD4,0xA6,Write,ACK
5.57065175,3283,0xD5,0x13,Read,ACK
5.57069975,3283,0xD5,0x00,Read,NAK
5.57083375,3284,0x52,0x02,Write,ACK
5.570954,3285,0x53,0x00,Read,ACK
5.571002,3285,0x53,0x00,Read,ACK
5.571050125,3285,0x53,0x4F,Read,ACK
5.571098,3285,0x53,0xC0,Read,ACK
5.571146375,3285,0x53,0xBD,Read,ACK
5.571194375,3285,0x53,0x00,Read,ACK
5.57125,3285,0x53,0xAB,Read,NAK
5.58053,3286,0xD4,0xA6,Write,ACK
5.58065125,3287,0xD5,0x13,Read,ACK
5.58069925,3287,0xD5,0x0F,Read,NAK
5.58083025,3288,0xD4,0xA8,Write,ACK
5.580950625,3289,0xD5,0xD3,Read,ACK
5.580998625,3289,0xD5,0xFF,Read,ACK
5.581046625,3289,0xD5,0xB8,Read,ACK
5.581094625,3289,0xD5,0xFF,Read,ACK
5.581142625,3289,0xD5,0xEB,Read,ACK
5.58119825,3289,0xD5,0xFF,Read,NAK
5.58132825,3290,0x52,0x02,Write,ACK
5.581448625,3291,0x53,0x00,Read,ACK
5.581496625,3291,0x53,0x00,Read,ACK
5.58154475,3291,0x53,0x4F,Read,ACK
5.581592875,3291,0x53,0xC0,Read,ACK
5.581641125,3291,0x53,0xBD,Read,ACK
5.58168925,3291,0x53,0x00,Read,ACK
5.581744875,3291,0x53,0xAB,Read,NAK
5.5905295,3292,0xD4,0xA6,Write,ACK
5.59065075,3293,0xD5,0x12,Read,ACK
5.59069875,3293,0xD5,0x0F,Read,NAK
5.59082975,3294,0xD4,0xA8,Write,ACK
5.590950125,3295,0xD5,0xD5,Read,ACK
5.590998125,3295,0xD5,0xFF,Read,ACK
5.591046125,3295,0xD5,0xBB,Read,ACK
5.591094125,3295,0xD5,0xFF,Read,ACK
5.591142125,3295,0xD5,0xE8,Read,ACK
5.59119775,3295,0xD5,0xFF,Read,NAK
5.59132775,3296,0x52,0x02,Write,ACK
5.591448125,3297,0x53,0x00,Read,ACK
5.591496125,3297,0x53,0x00,Read,ACK
5.59154425,3297,0x53,0x4F,Read,ACK
5.591592375,3297,0x53,0xC0,Read,ACK
5.59164075,3297,0x53,0xBD,Read,ACK
5.59168875,3297,0x53,0x00,Read,ACK
5.591744375,3297,0x53,0xAB,Read,NAK
5.600529,3298,0xD4,0xA6,Write,ACK
5.600650375,3299,0xD5,0x12,Read,ACK
5.600698375,3299,0xD5,0x0F,Read,NAK
5.600829375,3300,0xD4,0xA8,Write,ACK
5.600949625,3301,0xD5,0xDF,Read,ACK
5.600997625,3301,0xD5,0xFF,Read,ACK
5.601045625,3301,0xD5,0xBA,Read,ACK
5.601093625,3301,0xD5,0xFF,Read,ACK
5.601141625,3301,0xD5,0xDF,Read,ACK
5.60119725,3301,0xD5,0xFF,Read,NAK
5.60132725,3302,0x52,0x02,Write,ACK
5.601447625,3303,0x53,0x00,Read,ACK
5.601495625,3303,0x53,0x00,Read,ACK
5.60154375,3303,0x53,0x4F,Read,ACK
5.601591625,3303,0x53,0xC0,Read,ACK
5.60164,3303,0x53,0xBD,Read,ACK
5.601688,3303,0x53,0x00,Read,ACK
5.601743625,3303,0x53,0xAB,Read,NAK
5.610528875,3304,0xD4,0xA6,Write,ACK
5.61065025,3305,0xD5,0x12,Read,ACK
5.610698125,3305,0xD5,0x0F,Read,NAK
5.610829125,3306,0xD4,0xA8,Write,ACK
5.6109495,3307,0xD5,0xEB,Read,ACK
5.6109975,3307,0xD5,0xFF,Read,ACK
5.6110455,3307,0xD5,0xB2,Read,ACK
5.6110935,3307,0xD5,0xFF,Read,ACK
5.6111415,3307,0xD5,0xD6,Read,ACK
5.611197125,3307,0xD5,0xFF,Read,NAK
5.611327125,3308,0x52,0x02,Write,ACK
5.6114475,3309,0x53,0x00,Read,ACK
5.6114955,3309,0x53,0x00,Read,ACK
5.611543625,3309,0x53,0x4F,Read,ACK
5.61159175,3309,0x53,0xC0,Read,ACK
5.61164025,3309,0x53,0xBD,Read,ACK
5.611688125,3309,0x53,0x00,Read,ACK
5.61174375,3309,0x53,0xAB,Read,NAK
5.620528375,3310,0xD4,0xA6,Write,ACK
5.62064975,3311,0xD5,0x12,Read,ACK
5.62069775,3311,0xD5,0x0F,Read,NAK
5.62082875,3312,0xD4,0xA8,Write,ACK
5.620949,3313,0xD5,0xF3,Read,ACK
5.620997,3313,0xD5,0xFF,Read,ACK
5.621045,3313,0xD5,0xA6,Read,ACK
5.621093,3313,0xD5,0xFF,Read,ACK
5.621141,3313,0xD5,0xD8,Read,ACK
5.621196625,3313,0xD5,0xFF,Read,NAK
5.621326625,3314,0x52,0x02,Write,ACK
5.621447,3315,0x53,0x00,Read,ACK
5.621495,3315,0x53,0x00,Read,ACK
5.621543125,3315,0x53,0x4F,Read,ACK
5.621591375,3315,0x53,0xC0,Read,ACK
5.621639625,3315,0x53,0xBD,Read,ACK
5.621687625,3315,0x53,0x00,Read,ACK
5.621743375,3315,0x53,0xAB,Read,NAK
5.630527875,3316,0xD4,0xA6,Write,ACK
5.63064925,3317,0xD5,0x12,Read,ACK
5.63069725,3317,0xD5,0x0F,Read,NAK
5.63082825,3318,0xD4,0xA8,Write,ACK
5.6309485,3319,0xD5,0xEF,Read,ACK
5.6309965,3319,0xD5,0xFF,Read,ACK
5.6310445,3319,0xD5,0x9D,Read,ACK
5.6310925,3319,0xD5,0xFF,Read,ACK
5.6311405,3319,0xD5,0xE4,Read,ACK
5.63119625,3319,0xD5,0xFF,Read,NAK
5.63132625,3320,0x52,0x02,Write,ACK
5.6314465,3321,0x53,0x00,Read,ACK
5.6314945,3321,0x53,0x00,Read,ACK
5.631543125,3321,0x53,0x4F,Read,ACK
5.63159125,3321,0x53,0xC0,Read,ACK
5.631639625,3321,0x53,0xBD,Read,ACK
5.6316875,3321,0x53,0x00,Read,ACK
5.63174325,3321,0x53,0xAB,Read,NAK
5.640527125,3322,0xD4,0xA6,Write,ACK
5.6406485,3323,0xD5,0x12,Read,ACK
5.640696375,3323,0xD5,0x0F,Read,NAK
5.640827375,3324,0xD4,0xA8,Write,ACK
5.64094775,3325,0xD5,0xE5,Read,ACK
5.64099575,3325,0xD5,0xFF,Read,ACK
5.64104375,3325,0xD5,0x9C,Read,ACK
5.64109175,3325,0xD5,0xFF,Read,ACK
5.64113975,3325,0xD5,0xF1,Read,ACK
5.641195375,3325,0xD5,0xFF,Read,NAK
5.641325375,3326,0x52,0x02,Write,ACK
5.64144575,3327,0x53,0x00,Read,ACK
5.64149375,3327,0x53,0x00,Read,ACK
5.641541875,3327,0x53,0x4F,Read,ACK
5.64159,3327,0x53,0xC0,Read,ACK
5.64163825,3327,0x53,0xBD,Read,ACK
5.641686375,3327,0x53,0x00,Read,ACK
5.641742,3327,0x53,0xAB,Read,NAK
5.65052725,3328,0xD4,0xA6,Write,ACK
5.650648625,3329,0xD5,0x12,Read,ACK
5.650696625,3329,0xD5,0x0F,Read,NAK
5.650827625,3330,0xD4,0xA8,Write,ACK
5.650948,3331,0xD5,0xDC,Read,ACK
5.650996,3331,0xD5,0xFF,Read,ACK
5.651044,3331,0xD5,0x9F,Read,ACK
5.651092,3331,0xD5,0xFF,Read,ACK
5.651139875,3331,0xD5,0xF6,Read,ACK
5.651195625,3331,0xD5,0xFF,Read,NAK
5.651325625,3332,0x52,0x02,Write,ACK
5.651445875,3333,0x53,0x00,Read,ACK
5.651493875,3333,0x53,0x00,Read,ACK
5.65154225,3333,0x53,0x4F,Read,ACK
5.65159025,3333,0x53,0xC0,Read,ACK
5.6516385,3333,0x53,0xBD,Read,ACK
5.651686625,3333,0x53,0x00,Read,ACK
5.65174225,3333,0x53,0xAB,Read,NAK
5.660526875,3334,0xD4,0xA6,Write,ACK
5.660648125,3335,0xD5,0x12,Read,ACK
5.660696125,3335,0xD5,0x0F,Read,NAK
5.660827125,3336,0xD4,0xA8,Write,ACK
5.6609475,3337,0xD5,0xD9,Read,ACK
5.6609955,3337,0xD5,0xFF,Read,ACK
5.6610435,3337,0xD5,0xA2,Read,ACK
5.6610915,3337,0xD5,0xFF,Read,ACK
5.6611395,3337,0xD5,0xF4,Read,ACK
5.661195125,3337,0xD5,0xFF,Read,NAK
5.661325125,3338,0x52,0x02,Write,ACK
5.6614455,3339,0x53,0x00,Read,ACK
5.6614935,3339,0x53,0x00,Read,ACK
5.661541625,3339,0x53,0x4F,Read,ACK
5.66158975,3339,0x53,0xC0,Read,ACK
5.661638,3339,0x53,0xBD,Read,ACK
5.661686125,3339,0x53,0x00,Read,ACK
5.66174175,3339,0x53,0xAB,Read,NAK
5.67052575,3340,0xD4,0xA6,Write,ACK
5.670647,3341,0xD5,0x12,Read,ACK
5.670695,3341,0xD5,0x0F,Read,NAK
5.670826,3342,0xD4,0xA8,Write,ACK
5.670946375,3343,0xD5,0xDA,Read,ACK
5.670994375,3343,0xD5,0xFF,Read,ACK
5.671042375,3343,0xD5,0xA3,Read,ACK
5.671090375,3343,0xD5,0xFF,Read,ACK
5.671138375,3343,0xD5,0xF1,Read,ACK
5.671194,3343,0xD5,0xFF,Read,NAK
5.671324,3344,0x52,0x02,Write,ACK
5.671444375,3345,0x53,0x00,Read,ACK
5.671492375,3345,0x53,0x00,Read,ACK
5.671540375,3345,0x53,0x4F,Read,ACK
5.67158825,3345,0x53,0xC0,Read,ACK
5.6716365,3345,0x53,0xBD,Read,ACK
5.671684625,3345,0x53,0x00,Read,ACK
5.67174025,3345,0x53,0xAB,Read,NAK
5.68052525,3346,0xD4,0xA6,Write,ACK
5.6806465,3347,0xD5,0x12,Read,ACK
5.6806945,3347,0xD5,0x0F,Read,NAK
5.6808255,3348,0xD4,0xA8,Write,ACK
5.680945875,3349,0xD5,0xDB,Read,ACK
5.680993875,3349,0xD5,0xFF,Read,ACK
5.681041875,3349,0xD5,0xA6,Read,ACK
5.681089875,3349,0xD5,0xFF,Read,ACK
5.681137875,3349,0xD5,0xF1,Read,ACK
5.6811935,3349,0xD5,0xFF,Read,NAK
5.6813235,3350,0x52,0x02,Write,ACK
5.681443875,3351,0x53,0x00,Read,ACK
5.681491875,3351,0x53,0x00,Read,ACK
5.68154,3351,0x53,0x4F,Read,ACK
5.681588125,3351,0x53,0xC0,Read,ACK
5.6816365,3351,0x53,0xBD,Read,ACK
5.6816845,3351,0x53,0x00,Read,ACK
5.681740125,3351,0x53,0xAB,Read,NAK
5.690524125,3352,0xD4,0xA6,Write,ACK
5.690645375,3353,0xD5,0x12,Read,ACK
5.690693375,3353,0xD5,0x0F,Read,NAK
5.690824375,3354,0xD4,0xA8,Write,ACK
5.69094475,3355,0xD5,0xDA,Read,ACK
5.69099275,3355,0xD5,0xFF,Read,ACK
5.69104075,3355,0xD5,0xA9,Read,ACK
5.69108875,3355,0xD5,0xFF,Read,ACK
5.69113675,3355,0xD5,0xF4,Read,ACK
5.691192375,3355,0xD5,0xFF,Read,NAK
5.691322375,3356,0x52,0x02,Write,ACK
5.69144275,3357,0x53,0x00,Read,ACK
5.69149075,3357,0x53,0x00,Read,ACK
5.691539,3357,0x53,0x4F,Read,ACK
5.691587,3357,0x53,0xC0,Read,ACK
5.691635375,3357,0x53,0xBD,Read,ACK
5.691683375,3357,0x53,0x00,Read,ACK
5.691739,3357,0x53,0xAB,Read,NAK
5.70052425,3358,0xD4,0xA6,Write,ACK
5.700645625,3359,0xD5,0x12,Read,ACK
5.700693625,3359,0xD5,0x0F,Read,NAK
5.700824625,3360,0xD4,0xA8,Write,ACK
5.700944875,3361,0xD5,0xD5,Read,ACK
5.700992875,3361,0xD5,0xFF,Read,ACK
5.701040875,3361,0xD5,0xAA,Read,ACK
5.701088875,3361,0xD5,0xFF,Read,ACK
5.701136875,3361,0xD5,0xF7,Read,ACK
5.701192625,3361,0xD5,0xFF,Read,NAK
5.701322625,3362,0x52,0x02,Write,ACK
5.701442875,3363,0x53,0x00,Read,ACK
5.701490875,3363,0x53,0x00,Read,ACK
5.701539125,3363,0x53,0x4F,Read,ACK
5.70158725,3363,0x53,0xC0,Read,ACK
5.701635625,3363,0x53,0xBD,Read,ACK
5.7016835,3363,0x53,0x00,Read,ACK
5.70173925,3363,0x53,0xAB,Read,NAK
5.7105235,3364,0xD4,0xA6,Write,ACK
5.71064475,3365,0xD5,0x12,Read,ACK
5.71069275,3365,0xD5,0x0F,Read,NAK
5.71082375,3366,0xD4,0xA8,Write,ACK
5.710944125,3367,0xD5,0xCD,Read,ACK
5.710992125,3367,0xD5,0xFF,Read,ACK
5.711040125,3367,0xD5,0xA4,Read,ACK
5.711088125,3367,0xD5,0xFF,Read,ACK
5.711136125,3367,0xD5,0xF4,Read,ACK
5.71119175,3367,0xD5,0xFF,Read,NAK
5.71132175,3368,0x52,0x02,Write,ACK
5.711442125,3369,0x53,0x00,Read,ACK
5.711490125,3369,0x53,0x00,Read,ACK
5.711538375,3369,0x53,0x4F,Read,ACK
5.711586375,3369,0x53,0xC0,Read,ACK
5.711634875,3369,0x53,0xBD,Read,ACK
5.71168275,3369,0x53,0x00,Read,ACK
5.711738375,3369,0x53,0xAB,Read,NAK
5.720523375,3370,0xD4,0xA6,Write,ACK
5.720644625,3371,0xD5,0x12,Read,ACK
5.720692625,3371,0xD5,0x0F,Read,NAK
5.720823625,3372,0xD4,0xA8,Write,ACK
5.720944,3373,0xD5,0xCB,Read,ACK
5.720992,3373,0xD5,0xFF,Read,ACK
5.72104,3373,0xD5,0x9F,Read,ACK
5.721088,3373,0xD5,0xFF,Read,ACK
5.721136,3373,0xD5,0xEB,Read,ACK
5.721191625,3373,0xD5,0xFF,Read,NAK
5.721321625,3374,0x52,0x02,Write,ACK
5.721442,3375,0x53,0x00,Read,ACK
5.72149,3375,0x53,0x00,Read,ACK
5.721538,3375,0x53,0x4F,Read,ACK
5.721586,3375,0x53,0xC0,Read,ACK
5.72163425,3375,0x53,0xBD,Read,ACK
5.72168225,3375,0x53,0x00,Read,ACK
5.721738,3375,0x53,0xAB,Read,NAK
5.7305225,3376,0xD4,0xA6,Write,ACK
5.730643875,3377,0xD5,0x12,Read,ACK
5.730691875,3377,0xD5,0x0F,Read,NAK
5.730822875,3378,0xD4,0xA8,Write,ACK
5.730943125,3379,0xD5,0xD3,Read,ACK
5.730991125,3379,0xD5,0xFF,Read,ACK
5.731039125,3379,0xD5,0xA0,Read,ACK
5.731087125,3379,0xD5,0xFF,Read,ACK
5.731135125,3379,0xD5,0xE3,Read,ACK
5.731190875,3379,0xD5,0xFF,Read,NAK
5.731320875,3380,0x52,0x02,Write,ACK
5.731441125,3381,0x53,0x00,Read,ACK
5.731489125,3381,0x53,0x00,Read,ACK
5.73153725,3381,0x53,0x4F,Read,ACK
5.731585125,3381,0x53,0xC0,Read,ACK
5.731633375,3381,0x53,0xBD,Read,ACK
5.7316815,3381,0x53,0x00,Read,ACK
5.731737125,3381,0x53,0xAB,Read,NAK
5.740523,3382,0xD4,0xA6,Write,ACK
5.740644375,3383,0xD5,0x12,Read,ACK
5.740692375,3383,0xD5,0x0F,Read,NAK
5.740823375,3384,0xD4,0xA8,Write,ACK
5.74094375,3385,0xD5,0xDF,Read,ACK
5.74099175,3385,0xD5,0xFF,Read,ACK
5.74103975,3385,0xD5,0xA6,Read,ACK
5.74108775,3385,0xD5,0xFF,Read,ACK
5.74113575,3385,0xD5,0xE4,Read,ACK
5.741191375,3385,0xD5,0xFF,Read,NAK
5.741321375,3386,0x52,0x02,Write,ACK
5.741441625,3387,0x53,0x00,Read,ACK
5.741489625,3387,0x53,0x00,Read,ACK
5.741537875,3387,0x53,0x4F,Read,ACK
5.741586,3387,0x53,0xC0,Read,ACK
5.741634375,3387,0x53,0xBD,Read,ACK
5.741682375,3387,0x53,0x00,Read,ACK
5.741738,3387,0x53,0xAB,Read,NAK
5.75052225,3388,0xD4,0xA6,Write,ACK
5.750643625,3389,0xD5,0x12,Read,ACK
5.750691625,3389,0xD5,0x00,Read,NAK
5.750825625,3390,0x52,0x02,Write,ACK
5.750945875,3391,0x53,0x00,Read,ACK
5.750993875,3391,0x53,0x00,Read,ACK
5.751042,3391,0x53,0x4F,Read,ACK
5.751089875,3391,0x53,0xC0,Read,ACK
5.75113825,3391,0x53,0xBD,Read,ACK
5.75118625,3391,0x53,0x00,Read,ACK
5.751241875,3391,0x53,0xAB,Read,NAK
5.76052175,3392,0xD4,0xA6,Write,ACK
5.760643125,3393,0xD5,0x12,Read,ACK
5.760691125,3393,0xD5,0x0F,Read,NAK
5.760822125,3394,0xD4,0xA8,Write,ACK
5.760942375,3395,0xD5,0xE4,Read,ACK
5.760990375,3395,0xD5,0xFF,Read,ACK
5.761038375,3395,0xD5,0xA9,Read,ACK
5.761086375,3395,0xD5,0xFF,Read,ACK
5.761134375,3395,0xD5,0xEE,Read,ACK
5.761190125,3395,0xD5,0xFF,Read,NAK
5.761320125,3396,0x52,0x02,Write,ACK
5.761440375,3397,0x53,0x00,Read,ACK
5.761488375,3397,0x53,0x00,Read,ACK
5.7615365,3397,0x53,0x4F,Read,ACK
5.76158475,3397,0x53,0xC0,Read,ACK
5.761633125,3397,0x53,0xBD,Read,ACK
5.761681,3397,0x53,0x00,Read,ACK
5.76173675,3397,0x53,0xAB,Read,NAK
5.770521625,3398,0xD4,0xA6,Write,ACK
5.770643,3399,0xD5,0x12,Read,ACK
5.770691,3399,0xD5,0x0F,Read,NAK
5.770822,3400,0xD4,0xA8,Write,ACK
5.77094225,3401,0xD5,0xDE,Read,ACK
5.77099025,3401,0xD5,0xFF,Read,ACK
5.77103825,3401,0xD5,0xA8,Read,ACK
5.77108625,3401,0xD5,0xFF,Read,ACK
5.77113425,3401,0xD5,0xF8,Read,ACK
5.77119,3401,0xD5,0xFF,Read,NAK
5.771319875,3402,0x52,0x02,Write,ACK
5.77144025,3403,0x53,0x00,Read,ACK
5.77148825,3403,0x53,0x00,Read,ACK
5.771536375,3403,0x53,0x4F,Read,ACK
5.77158425,3403,0x53,0xC0,Read,ACK
5.7716325,3403,0x53,0xBD,Read,ACK
5.771680625,3403,0x53,0x00,Read,ACK
5.77173625,3403,0x53,0xAB,Read,NAK
5.7805205,3404,0xD4,0xA6,Write,ACK
5.780641875,3405,0xD5,0x12,Read,ACK
5.780689875,3405,0xD5,0x0F,Read,NAK
5.780820875,3406,0xD4,0xA8,Write,ACK
5.780941125,3407,0xD5,0xD6,Read,ACK
5.780989125,3407,0xD5,0xFF,Read,ACK
5.781037125,3407,0xD5,0xA5,Read,ACK
5.781085125,3407,0xD5,0xFF,Read,ACK
5.781133125,3407,0xD5,0xFC,Read,ACK
5.78118875,3407,0xD5,0xFF,Read,NAK
5.78131875,3408,0x52,0x02,Write,ACK
5.781439125,3409,0x53,0x00,Read,ACK
5.781487125,3409,0x53,0x00,Read,ACK
5.78153525,3409,0x53,0x4F,Read,ACK
5.7815835,3409,0x53,0xC0,Read,ACK
5.78163175,3409,0x53,0xBD,Read,ACK
5.78167975,3409,0x53,0x00,Read,ACK
5.7817355,3409,0x53,0xAB,Read,NAK
5.79052,3410,0xD4,0xA6,Write,ACK
5.790641375,3411,0xD5,0x12,Read,ACK
5.790689375,3411,0xD5,0x0F,Read,NAK
5.790820375,3412,0xD4,0xA8,Write,ACK
5.790940625,3413,0xD5,0xD8,Read,ACK
5.790988625,3413,0xD5,0xFF,Read,ACK
5.791036625,3413,0xD5,0xA8,Read,ACK
5.791084625,3413,0xD5,0xFF,Read,ACK
5.791132625,3413,0xD5,0xF9,Read,ACK
5.791188375,3413,0xD5,0xFF,Read,NAK
5.791318375,3414,0x52,0x02,Write,ACK
5.791438625,3415,0x53,0x00,Read,ACK
5.791486625,3415,0x53,0x00,Read,ACK
5.791534875,3415,0x53,0x4F,Read,ACK
5.791583,3415,0x53,0xC0,Read,ACK
5.791631375,3415,0x53,0xBD,Read,ACK
5.79167925,3415,0x53,0x00,Read,ACK
5.791735,3415,0x53,0xAB,Read,NAK
5.800519875,3416,0xD4,0xA6,Write,ACK
5.80064125,3417,0xD5,0x12,Read,ACK
5.80068925,3417,0xD5,0x0F,Read,NAK
5.80082025,3418,0xD4,0xA8,Write,ACK
5.8009405,3419,0xD5,0xE3,Read,ACK
5.8009885,3419,0xD5,0xFF,Read,ACK
5.8010365,3419,0xD5,0xB0,Read,ACK
5.8010845,3419,0xD5,0xFF,Read,ACK
5.8011325,3419,0xD5,0xF3,Read,ACK
5.80118825,3419,0xD5,0xFF,Read,NAK
5.80131825,3420,0x52,0x02,Write,ACK
5.8014385,3421,0x53,0x00,Read,ACK
5.8014865,3421,0x53,0x00,Read,ACK
5.801534625,3421,0x53,0x4F,Read,ACK
5.801582875,3421,0x53,0xC0,Read,ACK
5.801631125,3421,0x53,0xBD,Read,ACK
5.801679125,3421,0x53,0x00,Read,ACK
5.801734875,3421,0x53,0xAB,Read,NAK
5.810518375,3422,0xD4,0xA6,Write,ACK
5.81063975,3423,0xD5,0x12,Read,ACK
5.81068775,3423,0xD5,0x0F,Read,NAK
5.81081875,3424,0xD4,0xA8,Write,ACK
5.810939,3425,0xD5,0xEB,Read,ACK
5.810987,3425,0xD5,0xFF,Read,ACK
5.811035,3425,0xD5,0xB5,Read,ACK
5.811083,3425,0xD5,0xFF,Read,ACK
5.811131,3425,0xD5,0xF3,Read,ACK
5.81118675,3425,0xD5,0xFF,Read,NAK
5.81131675,3426,0x52,0x02,Write,ACK
5.811437,3427,0x53,0x00,Read,ACK
5.811485,3427,0x53,0x00,Read,ACK
5.81153325,3427,0x53,0x4F,Read,ACK
5.811581375,3427,0x53,0xC0,Read,ACK
5.81162975,3427,0x53,0xBD,Read,ACK
5.81167775,3427,0x53,0x00,Read,ACK
5.811733375,3427,0x53,0xAB,Read,NAK
5.820518625,3428,0xD4,0xA6,Write,ACK
5.82064,3429,0xD5,0x12,Read,ACK
5.820688,3429,0xD5,0x0F,Read,NAK
5.820818875,3430,0xD4,0xA8,Write,ACK
5.82093925,3431,0xD5,0xEA,Read,ACK
5.82098725,3431,0xD5,0xFF,Read,ACK
5.82103525,3431,0xD5,0xB4,Read,ACK
5.82108325,3431,0xD5,0xFF,Read,ACK
5.82113125,3431,0xD5,0xF8,Read,ACK
5.821186875,3431,0xD5,0xFF,Read,NAK
5.821316875,3432,0x52,0x02,Write,ACK
5.82143725,3433,0x53,0x00,Read,ACK
5.82148525,3433,0x53,0x00,Read,ACK
5.8215335,3433,0x53,0x4F,Read,ACK
5.8215815,3433,0x53,0xC0,Read,ACK
5.821629875,3433,0x53,0xBD,Read,ACK
5.821677875,3433,0x53,0x00,Read,ACK
5.8217335,3433,0x53,0xAB,Read,NAK
5.830518125,3434,0xD4,0xA6,Write,ACK
5.8306395,3435,0xD5,0x12,Read,ACK
5.8306875,3435,0xD5,0x0F,Read,NAK
5.8308185,3436,0xD4,0xA8,Write,ACK
5.83093875,3437,0xD5,0xE5,Read,ACK
5.83098675,3437,0xD5,0xFF,Read,ACK
5.83103475,3437,0xD5,0xB1,Read,ACK
5.83108275,3437,0xD5,0xFF,Read,ACK
5.83113075,3437,0xD5,0xFC,Read,ACK
5.8311865,3437,0xD5,0xFF,Read,NAK
5.8313165,3438,0x52,0x02,Write,ACK
5.83143675,3439,0x53,0x00,Read,ACK
5.83148475,3439,0x53,0x00,Read,ACK
5.831533,3439,0x53,0x4F,Read,ACK
5.831581125,3439,0x53,0xC0,Read,ACK
5.831629375,3439,0x53,0xBD,Read,ACK
5.831677375,3439,0x53,0x00,Read,ACK
5.831733125,3439,0x53,0xAB,Read,NAK
5.840517375,3440,0xD4,0xA6,Write,ACK
5.840638625,3441,0xD5,0x12,Read,ACK
5.840686625,3441,0xD5,0x0F,Read,NAK
5.840817625,3442,0xD4,0xA8,Write,ACK
5.840938,3443,0xD5,0xE4,Read,ACK
5.840986,3443,0xD5,0xFF,Read,ACK
5.841034,3443,0xD5,0xB1,Read,ACK
5.841082,3443,0xD5,0xFF,Read,ACK
5.84113,3443,0xD5,0xFB,Read,ACK
5.841185625,3443,0xD5,0xFF,Read,NAK
5.841315625,3444,0x52,0x02,Write,ACK
5.841436,3445,0x53,0x00,Read,ACK
5.841484,3445,0x53,0x00,Read,ACK
5.841532125,3445,0x53,0x4F,Read,ACK
5.84158025,3445,0x53,0xC0,Read,ACK
5.8416285,3445,0x53,0xBD,Read,ACK
5.841676625,3445,0x53,0x00,Read,ACK
5.84173225,3445,0x53,0xAB,Read,NAK
5.85051725,3446,0xD4,0xA6,Write,ACK
5.8506385,3447,0xD5,0x12,Read,ACK
5.8506865,3447,0xD5,0x0F,Read,NAK
5.8508175,3448,0xD4,0xA8,Write,ACK
5.850937875,3449,0xD5,0xE4,Read,ACK
5.850985875,3449,0xD5,0xFF,Read,ACK
5.851033875,3449,0xD5,0xB4,Read,ACK
5.851081875,3449,0xD5,0xFF,Read,ACK
5.851129875,3449,0xD5,0xFB,Read,ACK
5.8511855,3449,0xD5,0xFF,Read,NAK
5.8513155,3450,0x52,0x02,Write,ACK
5.851435875,3451,0x53,0x00,Read,ACK
5.851483875,3451,0x53,0x00,Read,ACK
5.851532125,3451,0x53,0x4F,Read,ACK
5.851580125,3451,0x53,0xC0,Read,ACK
5.851628375,3451,0x53,0xBD,Read,ACK
5.8516765,3451,0x53,0x00,Read,ACK
5.851732125,3451,0x53,0xAB,Read,NAK
5.860516375,3452,0xD4,0xA6,Write,ACK
5.86063775,3453,0xD5,0x12,Read,ACK
5.86068575,3453,0xD5,0x0F,Read,NAK
5.86081675,3454,0xD4,0xA8,Write,ACK
5.860937,3455,0xD5,0xE2,Read,ACK
5.860985,3455,0xD5,0xFF,Read,ACK
5.861033,3455,0xD5,0xB2,Read,ACK
5.861081,3455,0xD5,0xFF,Read,ACK
5.861129,3455,0xD5,0xFF,Read,ACK
5.86118475,3455,0xD5,0xFF,Read,NAK
5.86131475,3456,0x52,0x02,Write,ACK
5.861435,3457,0x53,0x00,Read,ACK
5.861483,3457,0x53,0x00,Read,ACK
5.861531125,3457,0x53,0x4F,Read,ACK
5.861579,3457,0x53,0xC0,Read,ACK
5.86162725,3457,0x53,0xBD,Read,ACK
5.861675375,3457,0x53,0x00,Read,ACK
5.861731,3457,0x53,0xAB,Read,NAK
5.87051725,3458,0xD4,0xA6,Write,ACK
5.870638625,3459,0xD5,0x12,Read,ACK
5.870686625,3459,0xD5,0x0F,Read,NAK
5.870817625,3460,0xD4,0xA8,Write,ACK
5.870937875,3461,0xD5,0xDD,Read,ACK
5.870985875,3461,0xD5,0xFF,Read,ACK
5.871033875,3461,0xD5,0xA9,Read,ACK
5.871081875,3461,0xD5,0xFF,Read,ACK
5.871129875,3461,0xD5,0x01,Read,ACK
5.8711855,3461,0xD5,0x00,Read,NAK
5.8713155,3462,0x52,0x02,Write,ACK
5.871435875,3463,0x53,0x00,Read,ACK
5.871483875,3463,0x53,0x00,Read,ACK
5.871532,3463,0x53,0x4F,Read,ACK
5.871579875,3463,0x53,0xC0,Read,ACK
5.871628125,3463,0x53,0xBD,Read,ACK
5.87167625,3463,0x53,0x00,Read,ACK
5.871731875,3463,0x53,0xAB,Read,NAK
5.88051675,3464,0xD4,0xA6,Write,ACK
5.880638125,3465,0xD5,0x12,Read,ACK
5.880686125,3465,0xD5,0x0F,Read,NAK
5.880817125,3466,0xD4,0xA8,Write,ACK
5.880937375,3467,0xD5,0xDA,Read,ACK
5.880985375,3467,0xD5,0xFF,Read,ACK
5.881033375,3467,0xD5,0xA1,Read,ACK
5.881081375,3467,0xD5,0xFF,Read,ACK
5.881129375,3467,0xD5,0xFB,Read,ACK
5.881185125,3467,0xD5,0xFF,Read,NAK
5.881315125,3468,0x52,0x02,Write,ACK
5.881435375,3469,0x53,0x00,Read,ACK
5.881483375,3469,0x53,0x00,Read,ACK
5.8815315,3469,0x53,0x4F,Read,ACK
5.881579375,3469,0x53,0xC0,Read,ACK
5.88162775,3469,0x53,0xBD,Read,ACK
5.88167575,3469,0x53,0x00,Read,ACK
5.881731375,3469,0x53,0xAB,Read,NAK
5.890516,3470,0xD4,0xA6,Write,ACK
5.89063725,3471,0xD5,0x12,Read,ACK
5.89068525,3471,0xD5,0x0F,Read,NAK
5.89081625,3472,0xD4,0xA8,Write,ACK
5.890936625,3473,0xD5,0xDE,Read,ACK
5.890984625,3473,0xD5,0xFF,Read,ACK
5.891032625,3473,0xD5,0xA1,Read,ACK
5.891080625,3473,0xD5,0xFF,Read,ACK
5.891128625,3473,0xD5,0xF1,Read,ACK
5.89118425,3473,0xD5,0xFF,Read,NAK
5.89131425,3474,0x52,0x02,Write,ACK
5.891434625,3475,0x53,0x00,Read,ACK
5.891482625,3475,0x53,0x00,Read,ACK
5.891530875,3475,0x53,0x4F,Read,ACK
5.891578875,3475,0x53,0xC0,Read,ACK
5.89162725,3475,0x53,0xBD,Read,ACK
5.89167525,3475,0x53,0x00,Read,ACK
5.891730875,3475,0x53,0xAB,Read,NAK
5.900516125,3476,0xD4,0xA6,Write,ACK
5.9006375,3477,0xD5,0x12,Read,ACK
5.9006855,3477,0xD5,0x0F,Read,NAK
5.9008165,3478,0xD4,0xA8,Write,ACK
5.90093675,3479,0xD5,0xE3,Read,ACK
5.90098475,3479,0xD5,0xFF,Read,ACK
5.90103275,3479,0xD5,0xA6,Read,ACK
5.90108075,3479,0xD5,0xFF,Read,ACK
5.90112875,3479,0xD5,0xED,Read,ACK
5.9011845,3479,0xD5,0xFF,Read,NAK
5.9013145,3480,0x52,0x02,Write,ACK
5.90143475,3481,0x53,0x00,Read,ACK
5.90148275,3481,0x53,0x00,Read,ACK
5.901530875,3481,0x53,0x4F,Read,ACK
5.90157875,3481,0x53,0xC0,Read,ACK
5.901627125,3481,0x53,0xBD,Read,ACK
5.901675125,3481,0x53,0x00,Read,ACK
5.90173075,3481,0x53,0xAB,Read,NAK
5.910515375,3482,0xD4,0xA6,Write,ACK
5.91063675,3483,0xD5,0x12,Read,ACK
5.91068475,3483,0xD5,0x0F,Read,NAK
5.910815625,3484,0xD4,0xA8,Write,ACK
5.910936,3485,0xD5,0xE1,Read,ACK
5.910984,3485,0xD5,0xFF,Read,ACK
5.911032,3485,0xD5,0xAD,Read,ACK
5.91108,3485,0xD5,0xFF,Read,ACK
5.911128,3485,0xD5,0xEF,Read,ACK
5.911183625,3485,0xD5,0xFF,Read,NAK
5.911313625,3486,0x52,0x02,Write,ACK
5.911434,3487,0x53,0x00,Read,ACK
5.911482,3487,0x53,0x00,Read,ACK
5.911530125,3487,0x53,0x4F,Read,ACK
5.91157825,3487,0x53,0xC0,Read,ACK
5.911626625,3487,0x53,0xBD,Read,ACK
5.911674625,3487,0x53,0x00,Read,ACK
5.91173025,3487,0x53,0xAB,Read,NAK
5.92051525,3488,0xD4,0xA6,Write,ACK
5.9206365,3489,0xD5,0x12,Read,ACK
5.9206845,3489,0xD5,0x0F,Read,NAK
5.9208155,3490,0xD4,0xA8,Write,ACK
5.920935875,3491,0xD5,0xD8,Read,ACK
5.920983875,3491,0xD5,0xFF,Read,ACK
5.921031875,3491,0xD5,0xB4,Read,ACK
5.921079875,3491,0xD5,0xFF,Read,ACK
5.921127875,3491,0xD5,0xF2,Read,ACK
5.9211835,3491,0xD5,0xFF,Read,NAK
5.9213135,3492,0x52,0x02,Write,ACK
5.921433875,3493,0x53,0x00,Read,ACK
5.921481875,3493,0x53,0x00,Read,ACK
5.92153,3493,0x53,0x4F,Read,ACK
5.921577875,3493,0x53,0xC0,Read,ACK
5.92162625,3493,0x53,0xBD,Read,ACK
5.921674125,3493,0x53,0x00,Read,ACK
5.921729875,3493,0x53,0xAB,Read,NAK
5.930515125,3494,0xD4,0xA6,Write,ACK
5.930636375,3495,0xD5,0x12,Read,ACK
5.930684375,3495,0xD5,0x00,Read,NAK
5.930818375,3496,0x52,0x02,Write,ACK
5.93093875,3497,0x53,0x00,Read,ACK
5.93098675,3497,0x53,0x00,Read,ACK
5.931034875,3497,0x53,0x4F,Read,ACK
5.93108275,3497,0x53,0xC0,Read,ACK
5.931131,3497,0x53,0xBD,Read,ACK
5.931179,3497,0x53,0x00,Read,ACK
5.93123475,3497,0x53,0xAB,Read,NAK
5.940514625,3498,0xD4,0xA6,Write,ACK
5.940636,3499,0xD5,0x12,Read,ACK
5.940684,3499,0xD5,0x0F,Read,NAK
5.940814875,3500,0xD4,0xA8,Write,ACK
5.94093525,3501,0xD5,0xD1,Read,ACK
5.94098325,3501,0xD5,0xFF,Read,ACK
5.94103125,3501,0xD5,0xB6,Read,ACK
5.94107925,3501,0xD5,0xFF,Read,ACK
5.94112725,3501,0xD5,0xEF,Read,ACK
5.941182875,3501,0xD5,0xFF,Read,NAK
5.941312875,3502,0x52,0x02,Write,ACK
5.94143325,3503,0x53,0x00,Read,ACK
5.94148125,3503,0x53,0x00,Read,ACK
5.941529375,3503,0x53,0x4F,Read,ACK
5.94157725,3503,0x53,0xC0,Read,ACK
5.941625625,3503,0x53,0xBD,Read,ACK
5.9416735,3503,0x53,0x00,Read,ACK
5.94172925,3503,0x53,0xAB,Read,NAK
5.950514125,3504,0xD4,0xA6,Write,ACK
5.9506355,3505,0xD5,0x12,Read,ACK
5.9506835,3505,0xD5,0x0F,Read,NAK
5.9508145,3506,0xD4,0xA8,Write,ACK
5.95093475,3507,0xD5,0xD4,Read,ACK
5.95098275,3507,0xD5,0xFF,Read,ACK
5.95103075,3507,0xD5,0xB5,Read,ACK
5.95107875,3507,0xD5,0xFF,Read,ACK
5.95112675,3507,0xD5,0xEC,Read,ACK
5.9511825,3507,0xD5,0xFF,Read,NAK
5.9513125,3508,0x52,0x02,Write,ACK
5.95143275,3509,0x53,0x00,Read,ACK
5.95148075,3509,0x53,0x00,Read,ACK
5.951528875,3509,0x53,0x4F,Read,ACK
5.95157675,3509,0x53,0xC0,Read,ACK
5.951625,3509,0x53,0xBD,Read,ACK
5.951673125,3509,0x53,0x00,Read,ACK
5.95172875,3509,0x53,0xAB,Read,NAK
5.960513625,3510,0xD4,0xA6,Write,ACK
5.960635,3511,0xD5,0x12,Read,ACK
5.960683,3511,0xD5,0x0F,Read,NAK
5.960814,3512,0xD4,0xA8,Write,ACK
5.960934375,3513,0xD5,0xDF,Read,ACK
5.96098225,3513,0xD5,0xFF,Read,ACK
5.96103025,3513,0xD5,0xB2,Read,ACK
5.96107825,3513,0xD5,0xFF,Read,ACK
5.96112625,3513,0xD5,0xEB,Read,ACK
5.961182,3513,0xD5,0xFF,Read,NAK
5.961312,3514,0x52,0x02,Write,ACK
5.96143225,3515,0x53,0x00,Read,ACK
5.96148025,3515,0x53,0x00,Read,ACK
5.9615285,3515,0x53,0x4F,Read,ACK
5.961576625,3515,0x53,0xC0,Read,ACK
5.961625,3515,0x53,0xBD,Read,ACK
5.961673,3515,0x53,0x00,Read,ACK
5.961728625,3515,0x53,0xAB,Read,NAK
5.970513875,3516,0xD4,0xA6,Write,ACK
5.97063525,3517,0xD5,0x12,Read,ACK
5.97068325,3517,0xD5,0x0F,Read,NAK
5.970814125,3518,0xD4,0xA8,Write,ACK
5.9709345,3519,0xD5,0xE8,Read,ACK
5.9709825,3519,0xD5,0xFF,Read,ACK
5.9710305,3519,0xD5,0xB4,Read,ACK
5.9710785,3519,0xD5,0xFF,Read,ACK
5.9711265,3519,0xD5,0xED,Read,ACK
5.971182125,3519,0xD5,0xFF,Read,NAK
5.971312125,3520,0x52,0x02,Write,ACK
5.9714325,3521,0x53,0x00,Read,ACK
5.9714805,3521,0x53,0x00,Read,ACK
5.971528625,3521,0x53,0x4F,Read,ACK
5.97157675,3521,0x53,0xC0,Read,ACK
5.971625125,3521,0x53,0xBD,Read,ACK
5.971673125,3521,0x53,0x00,Read,ACK
5.97172875,3521,0x53,0xAB,Read,NAK
5.98051175,3522,0xD4,0xA6,Write,ACK
5.980633,3523,0xD5,0x12,Read,ACK
5.980681,3523,0xD5,0x0F,Read,NAK
5.980812,3524,0xD4,0xA8,Write,ACK
5.980932375,3525,0xD5,0xEC,Read,ACK
5.980980375,3525,0xD5,0xFF,Read,ACK
5.981028375,3525,0xD5,0xBD,Read,ACK
5.981076375,3525,0xD5,0xFF,Read,ACK
5.981124375,3525,0xD5,0xEB,Read,ACK
5.98118,3525,0xD5,0xFF,Read,NAK
5.98131,3526,0x52,0x02,Write,ACK
5.981430375,3527,0x53,0x00,Read,ACK
5.981478375,3527,0x53,0x00,Read,ACK
5.981526625,3527,0x53,0x4F,Read,ACK
5.981574625,3527,0x53,0xC0,Read,ACK
5.981623,3527,0x53,0xBD,Read,ACK
5.981671,3527,0x53,0x00,Read,ACK
5.981726625,3527,0x53,0xAB,Read,NAK
5.990511875,3528,0xD4,0xA6,Write,ACK
5.99063325,3529,0xD5,0x12,Read,ACK
5.99068125,3529,0xD5,0x0F,Read,NAK
5.99081225,3530,0xD4,0xA8,Write,ACK
5.990932625,3531,0xD5,0xEA,Read,ACK
5.9909805,3531,0xD5,0xFF,Read,ACK
5.9910285,3531,0xD5,0xC4,Read,ACK
5.9910765,3531,0xD5,0xFF,Read,ACK
5.9911245,3531,0xD5,0xE7,Read,ACK
5.99118025,3531,0xD5,0xFF,Read,NAK
5.99131025,3532,0x52,0x02,Write,ACK
5.9914305,3533,0x53,0x00,Read,ACK
5.9914785,3533,0x53,0x00,Read,ACK
5.991526625,3533,0x53,0x4F,Read,ACK
5.9915745,3533,0x53,0xC0,Read,ACK
5.99162275,3533,0x53,0xBD,Read,ACK
5.991670875,3533,0x53,0x00,Read,ACK
5.9917265,3533,0x53,0xAB,Read,NAK
6.0005105,3534,0xD4,0xA6,Write,ACK
6.00063175,3535,0xD5,0x12,Read,ACK
6.00067975,3535,0xD5,0x0F,Read,NAK
6.00081075,3536,0xD4,0xA8,Write,ACK
6.000931125,3537,0xD5,0xE2,Read,ACK
6.000979125,3537,0xD5,0xFF,Read,ACK
6.001027125,3537,0xD5,0xBE,Read,ACK
6.001075125,3537,0xD5,0xFF,Read,ACK
6.001123125,3537,0xD5,0xE6,Read,ACK
6.00117875,3537,0xD5,0xFF,Read,NAK
6.00130875,3538,0x52,0x02,Write,ACK
6.001429125,3539,0x53,0x00,Read,ACK
6.001477125,3539,0x53,0x00,Read,ACK
6.001525125,3539,0x53,0x4F,Read,ACK
6.001573,3539,0x53,0xC0,Read,ACK
6.00162125,3539,0x53,0xBD,Read,ACK
6.001669375,3539,0x53,0x00,Read,ACK
6.001725,3539,0x53,0xAB,Read,NAK
6.010511625,3540,0xD4,0xA6,Write,ACK
6.010633,3541,0xD5,0x12,Read,ACK
6.010681,3541,0xD5,0x0F,Read,NAK
6.010812,3542,0xD4,0xA8,Write,ACK
6.01093225,3543,0xD5,0xDA,Read,ACK
6.01098025,3543,0xD5,0xFF,Read,ACK
6.01102825,3543,0xD5,0xAA,Read,ACK
6.01107625,3543,0xD5,0xFF,Read,ACK
6.01112425,3543,0xD5,0xED,Read,ACK
6.01118,3543,0xD5,0xFF,Read,NAK
6.01131,3544,0x52,0x02,Write,ACK
6.01143025,3545,0x53,0x00,Read,ACK
6.01147825,3545,0x53,0x00,Read,ACK
6.011526375,3545,0x53,0x4F,Read,ACK
6.01157425,3545,0x53,0xC0,Read,ACK
6.0116225,3545,0x53,0xBD,Read,ACK
6.011670625,3545,0x53,0x00,Read,ACK
6.01172625,3545,0x53,0xAB,Read,NAK
6.020510125,3546,0xD4,0xA6,Write,ACK
6.0206315,3547,0xD5,0x12,Read,ACK
6.0206795,3547,0xD5,0x0F,Read,NAK
6.0208105,3548,0xD4,0xA8,Write,ACK
6.020930875,3549,0xD5,0xD7,Read,ACK
6.02097875,3549,0xD5,0xFF,Read,ACK
6.02102675,3549,0xD5,0x95,Read,ACK
6.02107475,3549,0xD5,0xFF,Read,ACK
6.02112275,3549,0xD5,0xF7,Read,ACK
6.0211785,3549,0xD5,0xFF,Read,NAK
6.0213085,3550,0x52,0x02,Write,ACK
6.02142875,3551,0x53,0x00,Read,ACK
6.02147675,3551,0x53,0x00,Read,ACK
6.021525,3551,0x53,0x4F,Read,ACK
6.021573125,3551,0x53,0xC0,Read,ACK
6.021621375,3551,0x53,0xBD,Read,ACK
6.0216695,3551,0x53,0x00,Read,ACK
6.021725125,3551,0x53,0xAB,Read,NAK
6.03051075,3552,0xD4,0xA6,Write,ACK
6.030632,3553,0xD5,0x12,Read,ACK
6.03068,3553,0xD5,0x0F,Read,NAK
6.030811,3554,0xD4,0xA8,Write,ACK
6.030931375,3555,0xD5,0xDB,Read,ACK
6.030979375,3555,0xD5,0xFF,Read,ACK
6.031027375,3555,0xD5,0x8E,Read,ACK
6.031075375,3555,0xD5,0xFF,Read,ACK
6.031123375,3555,0xD5,0xFE,Read,ACK
6.031179,3555,0xD5,0xFF,Read,NAK
6.031309,3556,0x52,0x02,Write,ACK
6.031429375,3557,0x53,0x00,Read,ACK
6.031477375,3557,0x53,0x00,Read,ACK
6.0315255,3557,0x53,0x4F,Read,ACK
6.031573625,3557,0x53,0xC0,Read,ACK
6.031621875,3557,0x53,0xBD,Read,ACK
6.03167,3557,0x53,0x00,Read,ACK
6.031725625,3557,0x53,0xAB,Read,NAK
6.040509875,3558,0xD4,0xA6,Write,ACK
6.04063125,3559,0xD5,0x12,Read,ACK
6.04067925,3559,0xD5,0x0F,Read,NAK
6.04081025,3560,0xD4,0xA8,Write,ACK
6.0409305,3561,0xD5,0xDF,Read,ACK
6.0409785,3561,0xD5,0xFF,Read,ACK
6.0410265,3561,0xD5,0x97,Read,ACK
6.0410745,3561,0xD5,0xFF,Read,ACK
6.0411225,3561,0xD5,0x01,Read,ACK
6.04117825,3561,0xD5,0x00,Read,NAK
6.04130825,3562,0x52,0x02,Write,ACK
6.0414285,3563,0x53,0x00,Read,ACK
6.0414765,3563,0x53,0x00,Read,ACK
6.041524625,3563,0x53,0x4F,Read,ACK
6.041572875,3563,0x53,0xC0,Read,ACK
6.041621125,3563,0x53,0xBD,Read,ACK
6.041669125,3563,0x53,0x00,Read,ACK
6.041724875,3563,0x53,0xAB,Read,NAK
6.050509375,3564,0xD4,0xA6,Write,ACK
6.05063075,3565,0xD5,0x12,Read,ACK
6.05067875,3565,0xD5,0x0F,Read,NAK
6.05080975,3566,0xD4,0xA8,Write,ACK
6.050930125,3567,0xD5,0xE2,Read,ACK
6.050978,3567,0xD5,0xFF,Read,ACK
6.051026,3567,0xD5,0xA8,Read,ACK
6.051074,3567,0xD5,0xFF,Read,ACK
6.051122,3567,0xD5,0x00,Read,ACK
6.05117775,3567,0xD5,0x00,Read,NAK
6.05130775,3568,0x52,0x02,Write,ACK
6.051428,3569,0x53,0x00,Read,ACK
6.051476,3569,0x53,0x00,Read,ACK
6.05152425,3569,0x53,0x4F,Read,ACK
6.051572375,3569,0x53,0xC0,Read,ACK
6.05162075,3569,0x53,0xBD,Read,ACK
6.05166875,3569,0x53,0x00,Read,ACK
6.051724375,3569,0x53,0xAB,Read,NAK
6.060495625,3570,0xD4,0xA6,Write,ACK
6.060617,3571,0xD5,0x12,Read,ACK
6.060665,3571,0xD5,0x0F,Read,NAK
6.060795875,3572,0xD4,0xA8,Write,ACK
6.06091625,3573,0xD5,0xE6,Read,ACK
6.06096425,3573,0xD5,0xFF,Read,ACK
6.06101225,3573,0xD5,0xB4,Read,ACK
6.06106025,3573,0xD5,0xFF,Read,ACK
6.06110825,3573,0xD5,0xFA,Read,ACK
6.061163875,3573,0xD5,0xFF,Read,NAK
6.061293875,3574,0x52,0x02,Write,ACK
6.061414625,3575,0x53,0x00,Read,ACK
6.061462625,3575,0x53,0x00,Read,ACK
6.061510625,3575,0x53,0x4F,Read,ACK
6.0615585,3575,0x53,0xC0,Read,ACK
6.061607,3575,0x53,0xBD,Read,ACK
6.061654875,3575,0x53,0x00,Read,ACK
6.0617115,3575,0x53,0xAB,Read,NAK
6.07050775,3576,0xD4,0xA6,Write,ACK
6.070629125,3577,0xD5,0x12,Read,ACK
6.070677125,3577,0xD5,0x0F,Read,NAK
6.070808125,3578,0xD4,0xA8,Write,ACK
6.0709285,3579,0xD5,0xEC,Read,ACK
6.0709765,3579,0xD5,0xFF,Read,ACK
6.0710245,3579,0xD5,0xB9,Read,ACK
6.0710725,3579,0xD5,0xFF,Read,ACK
6.0711205,3579,0xD5,0xF4,Read,ACK
6.071176125,3579,0xD5,0xFF,Read,NAK
6.071306125,3580,0x52,0x02,Write,ACK
6.071426375,3581,0x53,0x00,Read,ACK
6.071474375,3581,0x53,0x00,Read,ACK
6.071522625,3581,0x53,0x4F,Read,ACK
6.07157075,3581,0x53,0xC0,Read,ACK
6.071619,3581,0x53,0xBD,Read,ACK
6.071667125,3581,0x53,0x00,Read,ACK
6.07172275,3581,0x53,0xAB,Read,NAK
6.080507375,3582,0xD4,0xA6,Write,ACK
6.080628625,3583,0xD5,0x12,Read,ACK
6.080676625,3583,0xD5,0x0F,Read,NAK
6.080807625,3584,0xD4,0xA8,Write,ACK
6.080928,3585,0xD5,0xF0,Read,ACK
6.080976,3585,0xD5,0xFF,Read,ACK
6.081024,3585,0xD5,0xBC,Read,ACK
6.081072,3585,0xD5,0xFF,Read,ACK
6.08112,3585,0xD5,0xF0,Read,ACK
6.081175625,3585,0xD5,0xFF,Read,NAK
6.081305625,3586,0x52,0x02,Write,ACK
6.081426,3587,0x53,0x00,Read,ACK
6.081474,3587,0x53,0x00,Read,ACK
6.081522125,3587,0x53,0x4F,Read,ACK
6.08157025,3587,0x53,0xC0,Read,ACK
6.0816185,3587,0x53,0xBD,Read,ACK
6.081666625,3587,0x53,0x00,Read,ACK
6.08172225,3587,0x53,0xAB,Read,NAK
6.0905065,3588,0xD4,0xA6,Write,ACK
6.090627875,3589,0xD5,0x12,Read,ACK
6.090675875,3589,0xD5,0x0F,Read,NAK
6.090806875,3590,0xD4,0xA8,Write,ACK
6.090927125,3591,0xD5,0xF0,Read,ACK
6.090975125,3591,0xD5,0xFF,Read,ACK
6.091023125,3591,0xD5,0xC1,Read,ACK
6.091071125,3591,0xD5,0xFF,Read,ACK
6.091119125,3591,0xD5,0xF0,Read,ACK
6.091174875,3591,0xD5,0xFF,Read,NAK
6.091304875,3592,0x52,0x02,Write,ACK
6.091425125,3593,0x53,0x00,Read,ACK
6.091473125,3593,0x53,0x00,Read,ACK
6.09152125,3593,0x53,0x4F,Read,ACK
6.091569125,3593,0x53,0xC0,Read,ACK
6.0916175,3593,0x53,0xBD,Read,ACK
6.0916655,3593,0x53,0x00,Read,ACK
6.091721125,3593,0x53,0xAB,Read,NAK
6.100507,3594,0xD4,0xA6,Write,ACK
6.100628375,3595,0xD5,0x12,Read,ACK
6.100676375,3595,0xD5,0x0F,Read,NAK
6.100807375,3596,0xD4,0xA8,Write,ACK
6.10092775,3597,0xD5,0xF2,Read,ACK
6.10097575,3597,0xD5,0xFF,Read,ACK
6.10102375,3597,0xD5,0xC8,Read,ACK
6.10107175,3597,0xD5,0xFF,Read,ACK
6.10111975,3597,0xD5,0xF0,Read,ACK
6.101175375,3597,0xD5,0xFF,Read,NAK
6.101305375,3598,0x52,0x02,Write,ACK
6.101425625,3599,0x53,0x00,Read,ACK
6.101473625,3599,0x53,0x00,Read,ACK
6.101521875,3599,0x53,0x4F,Read,ACK
6.10157,3599,0x53,0xC0,Read,ACK
6.10161825,3599,0x53,0xBD,Read,ACK
6.101666375,3599,0x53,0x00,Read,ACK
6.101722,3599,0x53,0xAB,Read,NAK
6.110505625,3600,0xD4,0xA6,Write,ACK
6.110626875,3601,0xD5,0x12,Read,ACK
6.110674875,3601,0xD5,0x00,Read,NAK
6.110808875,3602,0x52,0x02,Write,ACK
6.11092925,3603,0x53,0x00,Read,ACK
6.11097725,3603,0x53,0x00,Read,ACK
6.111025375,3603,0x53,0x4F,Read,ACK
6.11107325,3603,0x53,0xC0,Read,ACK
6.111121625,3603,0x53,0xBD,Read,ACK
6.1111695,3603,0x53,0x00,Read,ACK
6.11122525,3603,0x53,0xAB,Read,NAK
6.12050475,3604,0xD4,0xA6,Write,ACK
6.120626125,3605,0xD5,0x12,Read,ACK
6.120674125,3605,0xD5,0x0F,Read,NAK
6.120805125,3606,0xD4,0xA8,Write,ACK
6.120925375,3607,0xD5,0xFD,Read,ACK
6.120973375,3607,0xD5,0xFF,Read,ACK
6.121021375,3607,0xD5,0xCE,Read,ACK
6.121069375,3607,0xD5,0xFF,Read,ACK
6.121117375,3607,0xD5,0xEE,Read,ACK
6.121173125,3607,0xD5,0xFF,Read,NAK
6.121303125,3608,0x52,0x02,Write,ACK
6.121423375,3609,0x53,0x00,Read,ACK
6.121471375,3609,0x53,0x00,Read,ACK
6.1215195,3609,0x53,0x4F,Read,ACK
6.121567375,3609,0x53,0xC0,Read,ACK
6.12161575,3609,0x53,0xBD,Read,ACK
6.12166375,3609,0x53,0x00,Read,ACK
6.121719375,3609,0x53,0xAB,Read,NAK
6.130504,3610,0xD4,0xA6,Write,ACK
6.13062525,3611,0xD5,0x12,Read,ACK
6.13067325,3611,0xD5,0x0F,Read,NAK
6.13080425,3612,0xD4,0xA8,Write,ACK
6.130924625,3613,0xD5,0x07,Read,ACK
6.130972625,3613,0xD5,0x00,Read,ACK
6.131020625,3613,0xD5,0xCE,Read,ACK
6.131068625,3613,0xD5,0xFF,Read,ACK
6.131116625,3613,0xD5,0xEC,Read,ACK
6.13117225,3613,0xD5,0xFF,Read,NAK
6.13130225,3614,0x52,0x02,Write,ACK
6.131422625,3615,0x53,0x00,Read,ACK
6.131470625,3615,0x53,0x00,Read,ACK
6.13151875,3615,0x53,0x4F,Read,ACK
6.131566625,3615,0x53,0xC0,Read,ACK
6.131614875,3615,0x53,0xBD,Read,ACK
6.131662875,3615,0x53,0x00,Read,ACK
6.131718625,3615,0x53,0xAB,Read,NAK
6.140504125,3616,0xD4,0xA6,Write,ACK
6.1406255,3617,0xD5,0x12,Read,ACK
6.1406735,3617,0xD5,0x0F,Read,NAK
6.1408045,3618,0xD4,0xA8,Write,ACK
6.140924875,3619,0xD5,0x05,Read,ACK
6.140972875,3619,0xD5,0x00,Read,ACK
6.14102075,3619,0xD5,0xCB,Read,ACK
6.14106875,3619,0xD5,0xFF,Read,ACK
6.14111675,3619,0xD5,0xEC,Read,ACK
6.1411725,3619,0xD5,0xFF,Read,NAK
6.1413025,3620,0x52,0x02,Write,ACK
6.14142275,3621,0x53,0x00,Read,ACK
6.14147075,3621,0x53,0x00,Read,ACK
6.141519,3621,0x53,0x4F,Read,ACK
6.141567125,3621,0x53,0xC0,Read,ACK
6.141615375,3621,0x53,0xBD,Read,ACK
6.1416635,3621,0x53,0x00,Read,ACK
6.141719125,3621,0x53,0xAB,Read,NAK
6.15050375,3622,0xD4,0xA6,Write,ACK
6.150625,3623,0xD5,0x12,Read,ACK
6.150673,3623,0xD5,0x0F,Read,NAK
6.150804,3624,0xD4,0xA8,Write,ACK
6.150924375,3625,0xD5,0xF6,Read,ACK
6.150972375,3625,0xD5,0xFF,Read,ACK
6.151020375,3625,0xD5,0xC6,Read,ACK
6.151068375,3625,0xD5,0xFF,Read,ACK
6.151116375,3625,0xD5,0xEE,Read,ACK
6.151172,3625,0xD5,0xFF,Read,NAK
6.151302,3626,0x52,0x02,Write,ACK
6.151422375,3627,0x53,0x00,Read,ACK
6.151470375,3627,0x53,0x00,Read,ACK
6.1515185,3627,0x53,0x4F,Read,ACK
6.151566625,3627,0x53,0xC0,Read,ACK
6.151614875,3627,0x53,0xBD,Read,ACK
6.151663,3627,0x53,0x00,Read,ACK
6.151718625,3627,0x53,0xAB,Read,NAK
6.1605035,3628,0xD4,0xA6,Write,ACK
6.160624875,3629,0xD5,0x12,Read,ACK
6.160672875,3629,0xD5,0x0F,Read,NAK
6.160803875,3630,0xD4,0xA8,Write,ACK
6.16092425,3631,0xD5,0xE6,Read,ACK
6.16097225,3631,0xD5,0xFF,Read,ACK
6.16102025,3631,0xD5,0xBF,Read,ACK
6.16106825,3631,0xD5,0xFF,Read,ACK
6.16111625,3631,0xD5,0xF0,Read,ACK
6.161171875,3631,0xD5,0xFF,Read,NAK
6.161301875,3632,0x52,0x02,Write,ACK
6.161422125,3633,0x53,0x00,Read,ACK
6.161470125,3633,0x53,0x00,Read,ACK
6.16151825,3633,0x53,0x4F,Read,ACK
6.161566125,3633,0x53,0xC0,Read,ACK
6.161614375,3633,0x53,0xBD,Read,ACK
6.1616625,3633,0x53,0x00,Read,ACK
6.161718125,3633,0x53,0xAB,Read,NAK
6.170503375,3634,0xD4,0xA6,Write,ACK
6.17062475,3635,0xD5,0x12,Read,ACK
6.17067275,3635,0xD5,0x0F,Read,NAK
6.17080375,3636,0xD4,0xA8,Write,ACK
6.170924125,3637,0xD5,0xE1,Read,ACK
6.170972125,3637,0xD5,0xFF,Read,ACK
6.17102,3637,0xD5,0xB5,Read,ACK
6.171068,3637,0xD5,0xFF,Read,ACK
6.171116,3637,0xD5,0xF3,Read,ACK
6.17117175,3637,0xD5,0xFF,Read,NAK
6.17130175,3638,0x52,0x02,Write,ACK
6.171422,3639,0x53,0x00,Read,ACK
6.17147,3639,0x53,0x00,Read,ACK
6.171518125,3639,0x53,0x4F,Read,ACK
6.171566375,3639,0x53,0xC0,Read,ACK
6.171614625,3639,0x53,0xBD,Read,ACK
6.17166275,3639,0x53,0x00,Read,ACK
6.171718375,3639,0x53,0xAB,Read,NAK
6.180502625,3640,0xD4,0xA6,Write,ACK
6.180624,3641,0xD5,0x12,Read,ACK
6.180672,3641,0xD5,0x0F,Read,NAK
6.180802875,3642,0xD4,0xA8,Write,ACK
6.18092325,3643,0xD5,0xE8,Read,ACK
6.18097125,3643,0xD5,0xFF,Read,ACK
6.18101925,3643,0xD5,0xAB,Read,ACK
6.18106725,3643,0xD5,0xFF,Read,ACK
6.18111525,3643,0xD5,0xF8,Read,ACK
6.181170875,3643,0xD5,0xFF,Read,NAK
6.181300875,3644,0x52,0x02,Write,ACK
6.18142125,3645,0x53,0x00,Read,ACK
6.18146925,3645,0x53,0x00,Read,ACK
6.181517375,3645,0x53,0x4F,Read,ACK
6.181565625,3645,0x53,0xC0,Read,ACK
6.181613875,3645,0x53,0xBD,Read,ACK
6.181661875,3645,0x53,0x00,Read,ACK
6.1817175,3645,0x53,0xAB,Read,NAK
6.190502125,3646,0xD4,0xA6,Write,ACK
6.1906235,3647,0xD5,0x12,Read,ACK
6.1906715,3647,0xD5,0x0F,Read,NAK
6.1908025,3648,0xD4,0xA8,Write,ACK
6.19092275,3649,0xD5,0xF5,Read,ACK
6.19097075,3649,0xD5,0xFF,Read,ACK
6.19101875,3649,0xD5,0xA8,Read,ACK
6.19106675,3649,0xD5,0xFF,Read,ACK
6.19111475,3649,0xD5,0xFA,Read,ACK
6.1911705,3649,0xD5,0xFF,Read,NAK
6.1913005,3650,0x52,0x02,Write,ACK
6.19142075,3651,0x53,0x00,Read,ACK
6.19146875,3651,0x53,0x00,Read,ACK
6.191516875,3651,0x53,0x4F,Read,ACK
6.19156475,3651,0x53,0xC0,Read,ACK
6.191613125,3651,0x53,0xBD,Read,ACK
6.191661125,3651,0x53,0x00,Read,ACK
6.19171675,3651,0x53,0xAB,Read,NAK
6.200501375,3652,0xD4,0xA6,Write,ACK
6.200622625,3653,0xD5,0x12,Read,ACK
6.200670625,3653,0xD5,0x0F,Read,NAK
6.200801625,3654,0xD4,0xA8,Write,ACK
6.200922,3655,0xD5,0x00,Read,ACK
6.20097,3655,0xD5,0x00,Read,ACK
6.201018,3655,0xD5,0xAD,Read,ACK
6.201066,3655,0xD5,0xFF,Read,ACK
6.201114,3655,0xD5,0xF7,Read,ACK
6.201169625,3655,0xD5,0xFF,Read,NAK
6.201299625,3656,0x52,0x02,Write,ACK
6.20142,3657,0x53,0x00,Read,ACK
6.201468,3657,0x53,0x00,Read,ACK
6.201516125,3657,0x53,0x4F,Read,ACK
6.201564,3657,0x53,0xC0,Read,ACK
6.20161225,3657,0x53,0xBD,Read,ACK
6.20166025,3657,0x53,0x00,Read,ACK
6.201716,3657,0x53,0xAB,Read,NAK
6.210486875,3658,0xD4,0xA6,Write,ACK
6.21060825,3659,0xD5,0x12,Read,ACK
6.21065625,3659,0xD5,0x0F,Read,NAK
6.210787125,3660,0xD4,0xA8,Write,ACK
6.2109075,3661,0xD5,0x09,Read,ACK
6.2109555,3661,0xD5,0x00,Read,ACK
6.2110035,3661,0xD5,0xB4,Read,ACK
6.2110515,3661,0xD5,0xFF,Read,ACK
6.2110995,3661,0xD5,0xF0,Read,ACK
6.211155125,3661,0xD5,0xFF,Read,NAK
6.211285125,3662,0x52,0x02,Write,ACK
6.2114055,3663,0x53,0x00,Read,ACK
6.2114535,3663,0x53,0x00,Read,ACK
6.211501625,3663,0x53,0x4F,Read,ACK
6.2115495,3663,0x53,0xC0,Read,ACK
6.21159775,3663,0x53,0xBD,Read,ACK
6.211645875,3663,0x53,0x00,Read,ACK
6.2117015,3663,0x53,0xAB,Read,NAK
6.220499375,3664,0xD4,0xA6,Write,ACK
6.22062075,3665,0xD5,0x12,Read,ACK
6.22066875,3665,0xD5,0x0F,Read,NAK
6.22079975,3666,0xD4,0xA8,Write,ACK
6.22092,3667,0xD5,0x0C,Read,ACK
6.220968,3667,0xD5,0x00,Read,ACK
6.221016,3667,0xD5,0xB6,Read,ACK
6.221064,3667,0xD5,0xFF,Read,ACK
6.221112,3667,0xD5,0xE7,Read,ACK
6.22116775,3667,0xD5,0xFF,Read,NAK
6.22129775,3668,0x52,0x02,Write,ACK
6.221418,3669,0x53,0x00,Read,ACK
6.221466,3669,0x53,0x00,Read,ACK
6.221514125,3669,0x53,0x4F,Read,ACK
6.221562375,3669,0x53,0xC0,Read,ACK
6.221610625,3669,0x53,0xBD,Read,ACK
6.221658625,3669,0x53,0x00,Read,ACK
6.221714375,3669,0x53,0xAB,Read,NAK
6.230498875,3670,0xD4,0xA6,Write,ACK
6.23062025,3671,0xD5,0x12,Read,ACK
6.23066825,3671,0xD5,0x0F,Read,NAK
6.23079925,3672,0xD4,0xA8,Write,ACK
6.230919625,3673,0xD5,0x09,Read,ACK
6.230967625,3673,0xD5,0x00,Read,ACK
6.2310155,3673,0xD5,0xB5,Read,ACK
6.2310635,3673,0xD5,0xFF,Read,ACK
6.2311115,3673,0xD5,0xE1,Read,ACK
6.23116725,3673,0xD5,0xFF,Read,NAK
6.23129725,3674,0x52,0x02,Write,ACK
6.2314175,3675,0x53,0x00,Read,ACK
6.2314655,3675,0x53,0x00,Read,ACK
6.23151375,3675,0x53,0x4F,Read,ACK
6.231561875,3675,0x53,0xC0,Read,ACK
6.231610125,3675,0x53,0xBD,Read,ACK
6.23165825,3675,0x53,0x00,Read,ACK
6.231713875,3675,0x53,0xAB,Read,NAK
6.24049775,3676,0xD4,0xA6,Write,ACK
6.240619125,3677,0xD5,0x12,Read,ACK
6.240667125,3677,0xD5,0x0F,Read,NAK
6.240798125,3678,0xD4,0xA8,Write,ACK
6.240918375,3679,0xD5,0x00,Read,ACK
6.240966375,3679,0xD5,0x00,Read,ACK
6.241014375,3679,0xD5,0xB5,Read,ACK
6.241062375,3679,0xD5,0xFF,Read,ACK
6.241110375,3679,0xD5,0xDF,Read,ACK
6.241166125,3679,0xD5,0xFF,Read,NAK
6.241296125,3680,0x52,0x02,Write,ACK
6.241416375,3681,0x53,0x00,Read,ACK
6.241464375,3681,0x53,0x00,Read,ACK
6.2415125,3681,0x53,0x4F,Read,ACK
6.241560375,3681,0x53,0xC0,Read,ACK
6.241608625,3681,0x53,0xBD,Read,ACK
6.24165675,3681,0x53,0x00,Read,ACK
6.241712375,3681,0x53,0xAB,Read,NAK
6.250482,3682,0xD4,0xA6,Write,ACK
6.25060325,3683,0xD5,0x12,Read,ACK
6.25065125,3683,0xD5,0x0F,Read,NAK
6.25078225,3684,0xD4,0xA8,Write,ACK
6.250902625,3685,0xD5,0xF5,Read,ACK
6.250950625,3685,0xD5,0xFF,Read,ACK
6.250998625,3685,0xD5,0xB6,Read,ACK
6.251046625,3685,0xD5,0xFF,Read,ACK
6.251094625,3685,0xD5,0xE2,Read,ACK
6.25115025,3685,0xD5,0xFF,Read,NAK
6.25128025,3686,0x52,0x02,Write,ACK
6.251400625,3687,0x53,0x00,Read,ACK
6.251448625,3687,0x53,0x00,Read,ACK
6.25149675,3687,0x53,0x4F,Read,ACK
6.251544625,3687,0x53,0xC0,Read,ACK
6.251592875,3687,0x53,0xBD,Read,ACK
6.251640875,3687,0x53,0x00,Read,ACK
6.251696625,3687,0x53,0xAB,Read,NAK
6.2604975,3688,0xD4,0xA6,Write,ACK
6.260618875,3689,0xD5,0x12,Read,ACK
6.260666875,3689,0xD5,0x0F,Read,NAK
6.260797875,3690,0xD4,0xA8,Write,ACK
6.260918125,3691,0xD5,0xED,Read,ACK
6.260966125,3691,0xD5,0xFF,Read,ACK
6.261014125,3691,0xD5,0xB6,Read,ACK
6.261062125,3691,0xD5,0xFF,Read,ACK
6.261110125,3691,0xD5,0xE6,Read,ACK
6.26116575,3691,0xD5,0xFF,Read,NAK
6.26129575,3692,0x52,0x02,Write,ACK
6.261416125,3693,0x53,0x00,Read,ACK
6.261464125,3693,0x53,0x00,Read,ACK
6.26151225,3693,0x53,0x4F,Read,ACK
6.2615605,3693,0x53,0xC0,Read,ACK
6.26160875,3693,0x53,0xBD,Read,ACK
6.26165675,3693,0x53,0x00,Read,ACK
6.2617125,3693,0x53,0xAB,Read,NAK
6.270496375,3694,0xD4,0xA6,Write,ACK
6.27061775,3695,0xD5,0x12,Read,ACK
6.27066575,3695,0xD5,0x0F,Read,NAK
6.270796625,3696,0xD4,0xA8,Write,ACK
6.270917,3697,0xD5,0xE6,Read,ACK
6.270965,3697,0xD5,0xFF,Read,ACK
6.271013,3697,0xD5,0xB7,Read,ACK
6.271061,3697,0xD5,0xFF,Read,ACK
6.271109,3697,0xD5,0xE9,Read,ACK
6.271164625,3697,0xD5,0xFF,Read,NAK
6.271294625,3698,0x52,0x02,Write,ACK
6.271415,3699,0x53,0x00,Read,ACK
6.271463,3699,0x53,0x00,Read,ACK
6.271511125,3699,0x53,0x4F,Read,ACK
6.271559375,3699,0x53,0xC0,Read,ACK
6.271607625,3699,0x53,0xBD,Read,ACK
6.271655625,3699,0x53,0x00,Read,ACK
6.27171125,3699,0x53,0xAB,Read,NAK
6.280495875,3700,0xD4,0xA6,Write,ACK
6.28061725,3701,0xD5,0x12,Read,ACK
6.28066525,3701,0xD5,0x0F,Read,NAK
6.28079625,3702,0xD4,0xA8,Write,ACK
6.2809165,3703,0xD5,0xE0,Read,ACK
6.2809645,3703,0xD5,0xFF,Read,ACK
6.2810125,3703,0xD5,0xB4,Read,ACK
6.2810605,3703,0xD5,0xFF,Read,ACK
6.2811085,3703,0xD5,0xED,Read,ACK
6.28116425,3703,0xD5,0xFF,Read,NAK
6.28129425,3704,0x52,0x02,Write,ACK
6.2814145,3705,0x53,0x00,Read,ACK
6.2814625,3705,0x53,0x00,Read,ACK
6.28151075,3705,0x53,0x4F,Read,ACK
6.281558875,3705,0x53,0xC0,Read,ACK
6.281607125,3705,0x53,0xBD,Read,ACK
6.281655125,3705,0x53,0x00,Read,ACK
6.281710875,3705,0x53,0xAB,Read,NAK
6.29049575,3706,0xD4,0xA6,Write,ACK
6.290617125,3707,0xD5,0x12,Read,ACK
6.290665125,3707,0xD5,0x00,Read,NAK
6.290799125,3708,0x52,0x02,Write,ACK
6.290919375,3709,0x53,0x00,Read,ACK
6.290967375,3709,0x53,0x00,Read,ACK
6.2910155,3709,0x53,0x4F,Read,ACK
6.291063375,3709,0x53,0xC0,Read,ACK
6.29111175,3709,0x53,0xBD,Read,ACK
6.29115975,3709,0x53,0x00,Read,ACK
6.291215375,3709,0x53,0xAB,Read,NAK
6.30049625,3710,0xD4,0xA6,Write,ACK
6.300617625,3711,0xD5,0x12,Read,ACK
6.300665625,3711,0xD5,0x0F,Read,NAK
6.300796625,3712,0xD4,0xA8,Write,ACK
6.300916875,3713,0xD5,0xDB,Read,ACK
6.300964875,3713,0xD5,0xFF,Read,ACK
6.301012875,3713,0xD5,0xAC,Read,ACK
6.301060875,3713,0xD5,0xFF,Read,ACK
6.301108875,3713,0xD5,0xF4,Read,ACK
6.301164625,3713,0xD5,0xFF,Read,NAK
6.301294625,3714,0x52,0x02,Write,ACK
6.301414875,3715,0x53,0x00,Read,ACK
6.301462875,3715,0x53,0x00,Read,ACK
6.301511,3715,0x53,0x4F,Read,ACK
6.301558875,3715,0x53,0xC0,Read,ACK
6.30160725,3715,0x53,0xBD,Read,ACK
6.30165525,3715,0x53,0x00,Read,ACK
6.301710875,3715,0x53,0xAB,Read,NAK
6.3104955,3716,0xD4,0xA6,Write,ACK
6.31061675,3717,0xD5,0x12,Read,ACK
6.31066475,3717,0xD5,0x0F,Read,NAK
6.31079575,3718,0xD4,0xA8,Write,ACK
6.310916125,3719,0xD5,0xDA,Read,ACK
6.310964125,3719,0xD5,0xFF,Read,ACK
6.311012125,3719,0xD5,0xA2,Read,ACK
6.311060125,3719,0xD5,0xFF,Read,ACK
6.311108125,3719,0xD5,0xFA,Read,ACK
6.31116375,3719,0xD5,0xFF,Read,NAK
6.31129375,3720,0x52,0x02,Write,ACK
6.311414125,3721,0x53,0x00,Read,ACK
6.311462125,3721,0x53,0x00,Read,ACK
6.31151025,3721,0x53,0x4F,Read,ACK
6.311558375,3721,0x53,0xC0,Read,ACK
6.31160675,3721,0x53,0xBD,Read,ACK
6.31165475,3721,0x53,0x00,Read,ACK
6.311710375,3721,0x53,0xAB,Read,NAK
6.320494625,3722,0xD4,0xA6,Write,ACK
6.320616,3723,0xD5,0x12,Read,ACK
6.320664,3723,0xD5,0x0F,Read,NAK
6.320795,3724,0xD4,0xA8,Write,ACK
6.320915375,3725,0xD5,0xE0,Read,ACK
6.320963375,3725,0xD5,0xFF,Read,ACK
6.321011375,3725,0xD5,0xA1,Read,ACK
6.32105925,3725,0xD5,0xFF,Read,ACK
6.32110725,3725,0xD5,0xFC,Read,ACK
6.321163,3725,0xD5,0xFF,Read,NAK
6.321293,3726,0x52,0x02,Write,ACK
6.32141325,3727,0x53,0x00,Read,ACK
6.32146125,3727,0x53,0x00,Read,ACK
6.3215095,3727,0x53,0x4F,Read,ACK
6.321557625,3727,0x53,0xC0,Read,ACK
6.321605875,3727,0x53,0xBD,Read,ACK
6.321654,3727,0x53,0x00,Read,ACK
6.321709625,3727,0x53,0xAB,Read,NAK
6.3304935,3728,0xD4,0xA6,Write,ACK
6.330614875,3729,0xD5,0x12,Read,ACK
6.330662875,3729,0xD5,0x0F,Read,NAK
6.330793875,3730,0xD4,0xA8,Write,ACK
6.330914125,3731,0xD5,0xE8,Read,ACK
6.330962125,3731,0xD5,0xFF,Read,ACK
6.331010125,3731,0xD5,0xA9,Read,ACK
6.331058125,3731,0xD5,0xFF,Read,ACK
6.331106125,3731,0xD5,0xFC,Read,ACK
6.331161875,3731,0xD5,0xFF,Read,NAK
6.331291875,3732,0x52,0x02,Write,ACK
6.331412125,3733,0x53,0x00,Read,ACK
6.331460125,3733,0x53,0x00,Read,ACK
6.331508375,3733,0x53,0x4F,Read,ACK
6.3315565,3733,0x53,0xC0,Read,ACK
6.33160475,3733,0x53,0xBD,Read,ACK
6.331652875,3733,0x53,0x00,Read,ACK
6.3317085,3733,0x53,0xAB,Read,NAK
6.340494,3734,0xD4,0xA6,Write,ACK
6.340615375,3735,0xD5,0x12,Read,ACK
6.340663375,3735,0xD5,0x0F,Read,NAK
6.340794375,3736,0xD4,0xA8,Write,ACK
6.34091475,3737,0xD5,0xEB,Read,ACK
6.34096275,3737,0xD5,0xFF,Read,ACK
6.34101075,3737,0xD5,0xB0,Read,ACK
6.34105875,3737,0xD5,0xFF,Read,ACK
6.34110675,3737,0xD5,0xFD,Read,ACK
6.341162375,3737,0xD5,0xFF,Read,NAK
6.341292375,3738,0x52,0x02,Write,ACK
6.34141275,3739,0x53,0x00,Read,ACK
6.341460625,3739,0x53,0x00,Read,ACK
6.341508875,3739,0x53,0x4F,Read,ACK
6.341557,3739,0x53,0xC0,Read,ACK
6.34160525,3739,0x53,0xBD,Read,ACK
6.341653375,3739,0x53,0x00,Read,ACK
6.341709,3739,0x53,0xAB,Read,NAK
6.350493875,3740,0xD4,0xA6,Write,ACK
6.35061525,3741,0xD5,0x12,Read,ACK
6.35066325,3741,0xD5,0x0F,Read,NAK
6.35079425,3742,0xD4,0xA8,Write,ACK
6.350914625,3743,0xD5,0xEA,Read,ACK
6.350962625,3743,0xD5,0xFF,Read,ACK
6.351010625,3743,0xD5,0xAE,Read,ACK
6.3510585,3743,0xD5,0xFF,Read,ACK
6.3511065,3743,0xD5,0xF8,Read,ACK
6.35116225,3743,0xD5,0xFF,Read,NAK
6.35129225,3744,0x52,0x02,Write,ACK
6.3514125,3745,0x53,0x00,Read,ACK
6.3514605,3745,0x53,0x00,Read,ACK
6.35150875,3745,0x53,0x4F,Read,ACK
6.351556875,3745,0x53,0xC0,Read,ACK
6.351605125,3745,0x53,0xBD,Read,ACK
6.35165325,3745,0x53,0x00,Read,ACK
6.351708875,3745,0x53,0xAB,Read,NAK
6.36049275,3746,0xD4,0xA6,Write,ACK
6.360614125,3747,0xD5,0x12,Read,ACK
6.360662125,3747,0xD5,0x0F,Read,NAK
6.360793125,3748,0xD4,0xA8,Write,ACK
6.360913375,3749,0xD5,0xEB,Read,ACK
6.360961375,3749,0xD5,0xFF,Read,ACK
6.361009375,3749,0xD5,0xAA,Read,ACK
6.361057375,3749,0xD5,0xFF,Read,ACK
6.361105375,3749,0xD5,0xEE,Read,ACK
6.361161125,3749,0xD5,0xFF,Read,NAK
6.361291125,3750,0x52,0x02,Write,ACK
6.361411375,3751,0x53,0x00,Read,ACK
6.361459375,3751,0x53,0x00,Read,ACK
6.3615075,3751,0x53,0x4F,Read,ACK
6.361555375,3751,0x53,0xC0,Read,ACK
6.36160375,3751,0x53,0xBD,Read,ACK
6.36165175,3751,0x53,0x00,Read,ACK
6.361707375,3751,0x53,0xAB,Read,NAK
6.37049225,3752,0xD4,0xA6,Write,ACK
6.370613625,3753,0xD5,0x12,Read,ACK
6.370661625,3753,0xD5,0x0F,Read,NAK
6.370792625,3754,0xD4,0xA8,Write,ACK
6.370913,3755,0xD5,0xF6,Read,ACK
6.370961,3755,0xD5,0xFF,Read,ACK
6.371009,3755,0xD5,0xB0,Read,ACK
6.371057,3755,0xD5,0xFF,Read,ACK
6.371105,3755,0xD5,0xE3,Read,ACK
6.371160625,3755,0xD5,0xFF,Read,NAK
6.371290625,3756,0x52,0x02,Write,ACK
6.371411,3757,0x53,0x00,Read,ACK
6.371458875,3757,0x53,0x00,Read,ACK
6.371507125,3757,0x53,0x4F,Read,ACK
6.37155525,3757,0x53,0xC0,Read,ACK
6.3716035,3757,0x53,0xBD,Read,ACK
6.371651625,3757,0x53,0x00,Read,ACK
6.37170725,3757,0x53,0xAB,Read,NAK
6.380491125,3758,0xD4,0xA6,Write,ACK
6.3806125,3759,0xD5,0x12,Read,ACK
6.3806605,3759,0xD5,0x0F,Read,NAK
6.3807915,3760,0xD4,0xA8,Write,ACK
6.380911875,3761,0xD5,0x06,Read,ACK
6.380959875,3761,0xD5,0x00,Read,ACK
6.381007875,3761,0xD5,0xBC,Read,ACK
6.381055875,3761,0xD5,0xFF,Read,ACK
6.38110375,3761,0xD5,0xE3,Read,ACK
6.3811595,3761,0xD5,0xFF,Read,NAK
6.3812895,3762,0x52,0x02,Write,ACK
6.38140975,3763,0x53,0x00,Read,ACK
6.38145775,3763,0x53,0x00,Read,ACK
6.381505875,3763,0x53,0x4F,Read,ACK
6.38155375,3763,0x53,0xC0,Read,ACK
6.381602125,3763,0x53,0xBD,Read,ACK
6.381650125,3763,0x53,0x00,Read,ACK
6.38170575,3763,0x53,0xAB,Read,NAK
6.390491375,3764,0xD4,0xA6,Write,ACK
6.39061275,3765,0xD5,0x12,Read,ACK
6.39066075,3765,0xD5,0x0F,Read,NAK
6.390791625,3766,0xD4,0xA8,Write,ACK
6.390912,3767,0xD5,0x0F,Read,ACK
6.39096,3767,0xD5,0x00,Read,ACK
6.391008,3767,0xD5,0xC1,Read,ACK
6.391056,3767,0xD5,0xFF,Read,ACK
6.391104,3767,0xD5,0xEB,Read,ACK
6.391159625,3767,0xD5,0xFF,Read,NAK
6.391289625,3768,0x52,0x02,Write,ACK
6.39141,3769,0x53,0x00,Read,ACK
6.391458,3769,0x53,0x00,Read,ACK
6.391506125,3769,0x53,0x4F,Read,ACK
6.391554,3769,0x53,0xC0,Read,ACK
6.39160225,3769,0x53,0xBD,Read,ACK
6.391650375,3769,0x53,0x00,Read,ACK
6.391706,3769,0x53,0xAB,Read,NAK
6.400490625,3770,0xD4,0xA6,Write,ACK
6.400611875,3771,0xD5,0x12,Read,ACK
6.400659875,3771,0xD5,0x0F,Read,NAK
6.400790875,3772,0xD4,0xA8,Write,ACK
6.40091125,3773,0xD5,0x09,Read,ACK
6.40095925,3773,0xD5,0x00,Read,ACK
6.40100725,3773,0xD5,0xB6,Read,ACK
6.40105525,3773,0xD5,0xFF,Read,ACK
6.40110325,3773,0xD5,0xF5,Read,ACK
6.401158875,3773,0xD5,0xFF,Read,NAK
6.401288875,3774,0x52,0x02,Write,ACK
6.40140925,3775,0x53,0x00,Read,ACK
6.401457125,3775,0x53,0x00,Read,ACK
6.40150525,3775,0x53,0x4F,Read,ACK
6.401553125,3775,0x53,0xC0,Read,ACK
6.401601375,3775,0x53,0xBD,Read,ACK
6.4016495,3775,0x53,0x00,Read,ACK
6.401705125,3775,0x53,0xAB,Read,NAK
6.410490125,3776,0xD4,0xA6,Write,ACK
6.410611375,3777,0xD5,0x12,Read,ACK
6.410659375,3777,0xD5,0x0F,Read,NAK
6.410790375,3778,0xD4,0xA8,Write,ACK
6.41091075,3779,0xD5,0xF6,Read,ACK
6.41095875,3779,0xD5,0xFF,Read,ACK
6.41100675,3779,0xD5,0xA1,Read,ACK
6.41105475,3779,0xD5,0xFF,Read,ACK
6.41110275,3779,0xD5,0xFC,Read,ACK
6.411158375,3779,0xD5,0xFF,Read,NAK
6.411288375,3780,0x52,0x02,Write,ACK
6.41140875,3781,0x53,0x00,Read,ACK
6.41145675,3781,0x53,0x00,Read,ACK
6.411504875,3781,0x53,0x4F,Read,ACK
6.41155275,3781,0x53,0xC0,Read,ACK
6.411601125,3781,0x53,0xBD,Read,ACK
6.411649,3781,0x53,0x00,Read,ACK
6.41170475,3781,0x53,0xAB,Read,NAK
6.42048925,3782,0xD4,0xA6,Write,ACK
6.420610625,3783,0xD5,0x12,Read,ACK
6.420658625,3783,0xD5,0x0F,Read,NAK
6.420789625,3784,0xD4,0xA8,Write,ACK
6.420909875,3785,0xD5,0xE6,Read,ACK
6.420957875,3785,0xD5,0xFF,Read,ACK
6.421005875,3785,0xD5,0x90,Read,ACK
6.421053875,3785,0xD5,0xFF,Read,ACK
6.421101875,3785,0xD5,0xFF,Read,ACK
6.421157625,3785,0xD5,0xFF,Read,NAK
6.421287625,3786,0x52,0x02,Write,ACK
6.421407875,3787,0x53,0x00,Read,ACK
6.421455875,3787,0x53,0x00,Read,ACK
6.421504,3787,0x53,0x4F,Read,ACK
6.421551875,3787,0x53,0xC0,Read,ACK
6.42160025,3787,0x53,0xBD,Read,ACK
6.42164825,3787,0x53,0x00,Read,ACK
6.421703875,3787,0x53,0xAB,Read,NAK
6.4304895,3788,0xD4,0xA6,Write,ACK
6.43061075,3789,0xD5,0x12,Read,ACK
6.43065875,3789,0xD5,0x0F,Read,NAK
6.43078975,3790,0xD4,0xA8,Write,ACK
6.430910125,3791,0xD5,0xE4,Read,ACK
6.430958125,3791,0xD5,0xFF,Read,ACK
6.431006125,3791,0xD5,0x8D,Read,ACK
6.431054125,3791,0xD5,0xFF,Read,ACK
6.431102125,3791,0xD5,0x00,Read,ACK
6.43115775,3791,0xD5,0x00,Read,NAK
6.43128775,3792,0x52,0x02,Write,ACK
6.431408125,3793,0x53,0x00,Read,ACK
6.431456125,3793,0x53,0x00,Read,ACK
6.43150425,3793,0x53,0x4F,Read,ACK
6.431552125,3793,0x53,0xC0,Read,ACK
6.4316005,3793,0x53,0xBD,Read,ACK
6.431648375,3793,0x53,0x00,Read,ACK
6.431704125,3793,0x53,0xAB,Read,NAK
6.440475,3794,0xD4,0xA6,Write,ACK
6.440596375,3795,0xD5,0x12,Read,ACK
6.440644375,3795,0xD5,0x0F,Read,NAK
6.440775375,3796,0xD4,0xA8,Write,ACK
6.440895625,3797,0xD5,0xEC,Read,ACK
6.440943625,3797,0xD5,0xFF,Read,ACK
6.440991625,3797,0xD5,0x98,Read,ACK
6.441039625,3797,0xD5,0xFF,Read,ACK
6.441087625,3797,0xD5,0xFC,Read,ACK
6.44114325,3797,0xD5,0xFF,Read,NAK
6.44127325,3798,0x52,0x02,Write,ACK
6.441393625,3799,0x53,0x00,Read,ACK
6.441441625,3799,0x53,0x00,Read,ACK
6.44148975,3799,0x53,0x4F,Read,ACK
6.441538,3799,0x53,0xC0,Read,ACK
6.44158625,3799,0x53,0xBD,Read,ACK
6.44163425,3799,0x53,0x00,Read,ACK
6.44169,3799,0x53,0xAB,Read,NAK
6.4504885,3800,0xD4,0xA6,Write,ACK
6.450609875,3801,0xD5,0x12,Read,ACK
6.450657875,3801,0xD5,0x0F,Read,NAK
6.450788875,3802,0xD4,0xA8,Write,ACK
6.450909125,3803,0xD5,0xF2,Read,ACK
6.450957125,3803,0xD5,0xFF,Read,ACK
6.451005125,3803,0xD5,0xA6,Read,ACK
6.451053125,3803,0xD5,0xFF,Read,ACK
6.451101125,3803,0xD5,0xF7,Read,ACK
6.451156875,3803,0xD5,0xFF,Read,NAK
6.451286875,3804,0x52,0x02,Write,ACK
6.451407125,3805,0x53,0x00,Read,ACK
6.451455125,3805,0x53,0x00,Read,ACK
6.4515035,3805,0x53,0x4F,Read,ACK
6.4515515,3805,0x53,0xC0,Read,ACK
6.45159975,3805,0x53,0xBD,Read,ACK
6.451647875,3805,0x53,0x00,Read,ACK
6.4517035,3805,0x53,0xAB,Read,NAK
6.460487375,3806,0xD4,0xA6,Write,ACK
6.46060875,3807,0xD5,0x12,Read,ACK
6.46065675,3807,0xD5,0x0F,Read,NAK
6.46078775,3808,0xD4,0xA8,Write,ACK
6.460908,3809,0xD5,0xEE,Read,ACK
6.460956,3809,0xD5,0xFF,Read,ACK
6.461004,3809,0xD5,0xAB,Read,ACK
6.461052,3809,0xD5,0xFF,Read,ACK
6.4611,3809,0xD5,0xF8,Read,ACK
6.46115575,3809,0xD5,0xFF,Read,NAK
6.46128575,3810,0x52,0x02,Write,ACK
6.461406,3811,0x53,0x00,Read,ACK
6.461454,3811,0x53,0x00,Read,ACK
6.46150225,3811,0x53,0x4F,Read,ACK
6.461550375,3811,0x53,0xC0,Read,ACK
6.461598625,3811,0x53,0xBD,Read,ACK
6.461646625,3811,0x53,0x00,Read,ACK
6.461702375,3811,0x53,0xAB,Read,NAK
6.47048725,3812,0xD4,0xA6,Write,ACK
6.470608625,3813,0xD5,0x12,Read,ACK
6.470656625,3813,0xD5,0x00,Read,NAK
6.470790625,3814,0x52,0x02,Write,ACK
6.470910875,3815,0x53,0x00,Read,ACK
6.470958875,3815,0x53,0x00,Read,ACK
6.471007125,3815,0x53,0x4F,Read,ACK
6.47105525,3815,0x53,0xC0,Read,ACK
6.471103625,3815,0x53,0xBD,Read,ACK
6.471151625,3815,0x53,0x00,Read,ACK
6.47120725,3815,0x53,0xAB,Read,NAK
6.48048675,3816,0xD4,0xA6,Write,ACK
6.480608125,3817,0xD5,0x12,Read,ACK
6.480656125,3817,0xD5,0x0F,Read,NAK
6.480787125,3818,0xD4,0xA8,Write,ACK
6.480907375,3819,0xD5,0xE3,Read,ACK
6.480955375,3819,0xD5,0xFF,Read,ACK
6.481003375,3819,0xD5,0xA9,Read,ACK
6.481051375,3819,0xD5,0xFF,Read,ACK
6.481099375,3819,0xD5,0xFD,Read,ACK
6.481155125,3819,0xD5,0xFF,Read,NAK
6.481285125,3820,0x52,0x02,Write,ACK
6.481405375,3821,0x53,0x00,Read,ACK
6.481453375,3821,0x53,0x00,Read,ACK
6.481501625,3821,0x53,0x4F,Read,ACK
6.48154975,3821,0x53,0xC0,Read,ACK
6.481598,3