Time [s],Packet ID,Address,Data,Read/Write,ACK/NAK
0.005660125,0,0xD4,0xA6,Write,ACK
0.005781125,1,0xD5,0x11,Read,ACK
0.005829125,1,0xD5,0x0F,Read,NAK
0.005960125,2,0xD4,0xA8,Write,ACK
0.006080125,3,0xD5,0x00,Read,ACK
0.006128125,3,0xD5,0x00,Read,ACK
0.006176125,3,0xD5,0xF7,Read,ACK
0.006224125,3,0xD5,0xFF,Read,ACK
0.006272125,3,0xD5,0xFC,Read,ACK
0.006320125,3,0xD5,0xFF,Read,NAK
0.006454125,4,0x52,0x02,Write,ACK
0.006574125,5,0x53,0x00,Read,ACK
0.006622125,5,0x53,0x00,Read,ACK
0.00667025,5,0x53,0x4F,Read,ACK
0.006718125,5,0x53,0xC0,Read,ACK
0.006766375,5,0x53,0xB6,Read,ACK
0.006814375,5,0x53,0x00,Read,ACK
0.006870125,5,0x53,0xAB,Read,NAK
0.015646,6,0xD4,0xA6,Write,ACK
0.015767,7,0xD5,0x11,Read,ACK
0.015815,7,0xD5,0x0F,Read,NAK
0.015946,8,0xD4,0xA8,Write,ACK
0.016066,9,0xD5,0xF0,Read,ACK
0.016114,9,0xD5,0xFF,Read,ACK
0.016162,9,0xD5,0xED,Read,ACK
0.01621,9,0xD5,0xFF,Read,ACK
0.016258,9,0xD5,0x03,Read,ACK
0.016306,9,0xD5,0x00,Read,NAK
0.01644,10,0x52,0x02,Write,ACK
0.01656,11,0x53,0x00,Read,ACK
0.016608,11,0x53,0x00,Read,ACK
0.016656125,11,0x53,0x4F,Read,ACK
0.01670425,11,0x53,0xC0,Read,ACK
0.016752625,11,0x53,0xB6,Read,ACK
0.016800625,11,0x53,0x00,Read,ACK
0.01685625,11,0x53,0xAB,Read,NAK
0.02565725,12,0xD4,0xA6,Write,ACK
0.02577825,13,0xD5,0x11,Read,ACK
0.02582625,13,0xD5,0x0F,Read,NAK
0.02595725,14,0xD4,0xA8,Write,ACK
0.02607725,15,0xD5,0xEC,Read,ACK
0.02612525,15,0xD5,0xFF,Read,ACK
0.02617325,15,0xD5,0xF1,Read,ACK
0.02622125,15,0xD5,0xFF,Read,ACK
0.02626925,15,0xD5,0x08,Read,ACK
0.02631725,15,0xD5,0x00,Read,NAK
0.026451125,16,0x52,0x02,Write,ACK
0.026571125,17,0x53,0x00,Read,ACK
0.026619125,17,0x53,0x00,Read,ACK
0.02666725,17,0x53,0x4F,Read,ACK
0.026715125,17,0x53,0xC0,Read,ACK
0.026763375,17,0x53,0xB6,Read,ACK
0.0268115,17,0x53,0x00,Read,ACK
0.026867125,17,0x53,0xAB,Read,NAK
0.03565775,18,0xD4,0xA6,Write,ACK
0.03577875,19,0xD5,0x11,Read,ACK
0.03582675,19,0xD5,0x0F,Read,NAK
0.03595775,20,0xD4,0xA8,Write,ACK
0.03607775,21,0xD5,0xF2,Read,ACK
0.03612575,21,0xD5,0xFF,Read,ACK
0.03617375,21,0xD5,0x01,Read,ACK
0.03622175,21,0xD5,0x00,Read,ACK
0.03626975,21,0xD5,0x05,Read,ACK
0.03631775,21,0xD5,0x00,Read,NAK
0.03645175,22,0x52,0x02,Write,ACK
0.03657175,23,0x53,0x00,Read,ACK
0.03661975,23,0x53,0x00,Read,ACK
0.036667875,23,0x53,0x4F,Read,ACK
0.03671575,23,0x53,0xC0,Read,ACK
0.036764125,23,0x53,0xB6,Read,ACK
0.036812,23,0x53,0x00,Read,ACK
0.03686775,23,0x53,0xAB,Read,NAK
0.045657,24,0xD4,0xA6,Write,ACK
0.045778,25,0xD5,0x11,Read,ACK
0.045826,25,0xD5,0x0F,Read,NAK
0.045957,26,0xD4,0xA8,Write,ACK
0.046077,27,0xD5,0xFA,Read,ACK
0.046125,27,0xD5,0xFF,Read,ACK
0.046173,27,0xD5,0x0F,Read,ACK
0.046221,27,0xD5,0x00,Read,ACK
0.046269,27,0xD5,0xFE,Read,ACK
0.046317,27,0xD5,0xFF,Read,NAK
0.046450875,28,0x52,0x02,Write,ACK
0.046570875,29,0x53,0x00,Read,ACK
0.046618875,29,0x53,0x00,Read,ACK
0.046667125,29,0x53,0x4F,Read,ACK
0.04671525,29,0x53,0xC0,Read,ACK
0.0467635,29,0x53,0xB6,Read,ACK
0.046811625,29,0x53,0x00,Read,ACK
0.04686725,29,0x53,0xAB,Read,NAK
0.055656875,30,0xD4,0xA6,Write,ACK
0.055777875,31,0xD5,0x11,Read,ACK
0.055825875,31,0xD5,0x0F,Read,NAK
0.055956875,32,0xD4,0xA8,Write,ACK
0.056076875,33,0xD5,0x00,Read,ACK
0.056124875,33,0xD5,0x00,Read,ACK
0.056172875,33,0xD5,0x13,Read,ACK
0.056220875,33,0xD5,0x00,Read,ACK
0.056268875,33,0xD5,0xFB,Read,ACK
0.056316875,33,0xD5,0xFF,Read,NAK
0.056450875,34,0x52,0x02,Write,ACK
0.05657075,35,0x53,0x00,Read,ACK
0.05661875,35,0x53,0x00,Read,ACK
0.056666875,35,0x53,0x4F,Read,ACK
0.05671475,35,0x53,0xC0,Read,ACK
0.056763125,35,0x53,0xB6,Read,ACK
0.056811125,35,0x53,0x00,Read,ACK
0.05686675,35,0x53,0xAB,Read,NAK
0.065639375,36,0xD4,0xA6,Write,ACK
0.065760375,37,0xD5,0x11,Read,ACK
0.065808375,37,0xD5,0x0F,Read,NAK
0.065939375,38,0xD4,0xA8,Write,ACK
0.066059375,39,0xD5,0xFF,Read,ACK
0.066107375,39,0xD5,0xFF,Read,ACK
0.066155375,39,0xD5,0x0E,Read,ACK
0.066203375,39,0xD5,0x00,Read,ACK
0.066251375,39,0xD5,0xFE,Read,ACK
0.066299375,39,0xD5,0xFF,Read,NAK
0.066433375,40,0x52,0x02,Write,ACK
0.066553375,41,0x53,0x00,Read,ACK
0.066601375,41,0x53,0x00,Read,ACK
0.0666495,41,0x53,0x4F,Read,ACK
0.066697625,41,0x53,0xC0,Read,ACK
0.066746,41,0x53,0xB6,Read,ACK
0.066794,41,0x53,0x00,Read,ACK
0.066849625,41,0x53,0xAB,Read,NAK
0.075654875,42,0xD4,0xA6,Write,ACK
0.075775875,43,0xD5,0x11,Read,ACK
0.075823875,43,0xD5,0x0F,Read,NAK
0.075954875,44,0xD4,0xA8,Write,ACK
0.076074875,45,0xD5,0xFB,Read,ACK
0.076122875,45,0xD5,0xFF,Read,ACK
0.076170875,45,0xD5,0x08,Read,ACK
0.076218875,45,0xD5,0x00,Read,ACK
0.076266875,45,0xD5,0x01,Read,ACK
0.076314875,45,0xD5,0x00,Read,NAK
0.076448875,46,0x52,0x02,Write,ACK
0.076568875,47,0x53,0x00,Read,ACK
0.076616875,47,0x53,0x00,Read,ACK
0.076665,47,0x53,0x4F,Read,ACK
0.076712875,47,0x53,0xC0,Read,ACK
0.07676125,47,0x53,0xB6,Read,ACK
0.07680925,47,0x53,0x00,Read,ACK
0.076864875,47,0x53,0xAB,Read,NAK
0.08565475,48,0xD4,0xA6,Write,ACK
0.08577575,49,0xD5,0x11,Read,ACK
0.08582375,49,0xD5,0x0F,Read,NAK
0.08595475,50,0xD4,0xA8,Write,ACK
0.08607475,51,0xD5,0xF9,Read,ACK
0.08612275,51,0xD5,0xFF,Read,ACK
0.08617075,51,0xD5,0xFF,Read,ACK
0.08621875,51,0xD5,0xFF,Read,ACK
0.08626675,51,0xD5,0xFD,Read,ACK
0.08631475,51,0xD5,0xFF,Read,NAK
0.08644875,52,0x52,0x02,Write,ACK
0.08656875,53,0x53,0x00,Read,ACK
0.08661675,53,0x53,0x00,Read,ACK
0.086665,53,0x53,0x4F,Read,ACK
0.086713125,53,0x53,0xC0,Read,ACK
0.0867615,53,0x53,0xB6,Read,ACK
0.086809375,53,0x53,0x00,Read,ACK
0.086865125,53,0x53,0xAB,Read,NAK
0.09565475,54,0xD4,0xA6,Write,ACK
0.095775625,55,0xD5,0x11,Read,ACK
0.095823625,55,0xD5,0x0F,Read,NAK
0.095954625,56,0xD4,0xA8,Write,ACK
0.096074625,57,0xD5,0xFC,Read,ACK
0.096122625,57,0xD5,0xFF,Read,ACK
0.096170625,57,0xD5,0xF5,Read,ACK
0.096218625,57,0xD5,0xFF,Read,ACK
0.096266625,57,0xD5,0xF8,Read,ACK
0.096314625,57,0xD5,0xFF,Read,NAK
0.096448625,58,0x52,0x02,Write,ACK
0.096568625,59,0x53,0x00,Read,ACK
0.096616625,59,0x53,0x00,Read,ACK
0.09666475,59,0x53,0x4F,Read,ACK
0.096713,59,0x53,0xC0,Read,ACK
0.09676125,59,0x53,0xB6,Read,ACK
0.09680925,59,0x53,0x00,Read,ACK
0.096865,59,0x53,0xAB,Read,NAK
0.105654875,60,0xD4,0xA6,Write,ACK
0.105775875,61,0xD5,0x11,Read,ACK
0.105823875,61,0xD5,0x0F,Read,NAK
0.105954875,62,0xD4,0xA8,Write,ACK
0.106074875,63,0xD5,0x03,Read,ACK
0.106122875,63,0xD5,0x00,Read,ACK
0.106170875,63,0xD5,0xED,Read,ACK
0.106218875,63,0xD5,0xFF,Read,ACK
0.106266875,63,0xD5,0xFA,Read,ACK
0.106314875,63,0xD5,0xFF,Read,NAK
0.106448875,64,0x52,0x02,Write,ACK
0.106568875,65,0x53,0x00,Read,ACK
0.106616875,65,0x53,0x00,Read,ACK
0.106665,65,0x53,0x4F,Read,ACK
0.106713125,65,0x53,0xC0,Read,ACK
0.106763125,65,0x53,0xB6,Read,ACK
0.106811125,65,0x53,0x00,Read,ACK
0.106866875,65,0x53,0xAB,Read,NAK
0.11565575,66,0xD4,0xA6,Write,ACK
0.11577675,67,0xD5,0x11,Read,ACK
0.11582475,67,0xD5,0x0F,Read,NAK
0.11595575,68,0xD4,0xA8,Write,ACK
0.11607575,69,0xD5,0x09,Read,ACK
0.11612375,69,0xD5,0x00,Read,ACK
0.11617175,69,0xD5,0xED,Read,ACK
0.11621975,69,0xD5,0xFF,Read,ACK
0.11626775,69,0xD5,0x06,Read,ACK
0.11631575,69,0xD5,0x00,Read,NAK
0.11644975,70,0x52,0x02,Write,ACK
0.11656975,71,0x53,0x00,Read,ACK
0.11661775,71,0x53,0x00,Read,ACK
0.116665875,71,0x53,0x4F,Read,ACK
0.116714,71,0x53,0xC0,Read,ACK
0.116762375,71,0x53,0xB6,Read,ACK
0.116810375,71,0x53,0x00,Read,ACK
0.116866,71,0x53,0xAB,Read,NAK
0.125654625,72,0xD4,0xA6,Write,ACK
0.125775625,73,0xD5,0x11,Read,ACK
0.125823625,73,0xD5,0x0F,Read,NAK
0.125954625,74,0xD4,0xA8,Write,ACK
0.126074625,75,0xD5,0x08,Read,ACK
0.126122625,75,0xD5,0x00,Read,ACK
0.126170625,75,0xD5,0xF4,Read,ACK
0.126218625,75,0xD5,0xFF,Read,ACK
0.126266625,75,0xD5,0x11,Read,ACK
0.126314625,75,0xD5,0x00,Read,NAK
0.126448625,76,0x52,0x02,Write,ACK
0.126568625,77,0x53,0x00,Read,ACK
0.126616625,77,0x53,0x00,Read,ACK
0.12666475,77,0x53,0x4F,Read,ACK
0.126713,77,0x53,0xC0,Read,ACK
0.12676125,77,0x53,0xB6,Read,ACK
0.12680925,77,0x53,0x00,Read,ACK
0.126864875,77,0x53,0xAB,Read,NAK
0.135653875,78,0xD4,0xA6,Write,ACK
0.135774875,79,0xD5,0x11,Read,ACK
0.135822875,79,0xD5,0x00,Read,NAK
0.135956875,80,0x52,0x02,Write,ACK
0.136076875,81,0x53,0x00,Read,ACK
0.136124875,81,0x53,0x00,Read,ACK
0.136173,81,0x53,0x4F,Read,ACK
0.136221125,81,0x53,0xC0,Read,ACK
0.136269375,81,0x53,0xB6,Read,ACK
0.1363175,81,0x53,0x00,Read,ACK
0.136373125,81,0x53,0xAB,Read,NAK
0.14565375,82,0xD4,0xA6,Write,ACK
0.14577475,83,0xD5,0x11,Read,ACK
0.14582275,83,0xD5,0x0F,Read,NAK
0.14595375,84,0xD4,0xA8,Write,ACK
0.14607375,85,0xD5,0x00,Read,ACK
0.14612175,85,0xD5,0x00,Read,ACK
0.14616975,85,0xD5,0xFD,Read,ACK
0.14621775,85,0xD5,0xFF,Read,ACK
0.14626575,85,0xD5,0x13,Read,ACK
0.14631375,85,0xD5,0x00,Read,NAK
0.14644775,86,0x52,0x02,Write,ACK
0.14656775,87,0x53,0x00,Read,ACK
0.14661575,87,0x53,0x00,Read,ACK
0.146663875,87,0x53,0x4F,Read,ACK
0.146712,87,0x53,0xC0,Read,ACK
0.146760375,87,0x53,0xB6,Read,ACK
0.146808375,87,0x53,0x00,Read,ACK
0.146864,87,0x53,0xAB,Read,NAK
0.155639,88,0xD4,0xA6,Write,ACK
0.15576,89,0xD5,0x11,Read,ACK
0.155808,89,0xD5,0x0F,Read,NAK
0.155938875,90,0xD4,0xA8,Write,ACK
0.156058875,91,0xD5,0xF8,Read,ACK
0.156106875,91,0xD5,0xFF,Read,ACK
0.156154875,91,0xD5,0x07,Read,ACK
0.156202875,91,0xD5,0x00,Read,ACK
0.156250875,91,0xD5,0x0C,Read,ACK
0.156298875,91,0xD5,0x00,Read,NAK
0.156432875,92,0x52,0x02,Write,ACK
0.156552875,93,0x53,0x00,Read,ACK
0.156600875,93,0x53,0x00,Read,ACK
0.156649125,93,0x53,0x4F,Read,ACK
0.15669725,93,0x53,0xC0,Read,ACK
0.1567455,93,0x53,0xB6,Read,ACK
0.156793625,93,0x53,0x00,Read,ACK
0.15684925,93,0x53,0xAB,Read,NAK
0.1656515,94,0xD4,0xA6,Write,ACK
0.1657725,95,0xD5,0x11,Read,ACK
0.1658205,95,0xD5,0x0F,Read,NAK
0.1659515,96,0xD4,0xA8,Write,ACK
0.1660715,97,0xD5,0xF5,Read,ACK
0.1661195,97,0xD5,0xFF,Read,ACK
0.1661675,97,0xD5,0x0C,Read,ACK
0.1662155,97,0xD5,0x00,Read,ACK
0.1662635,97,0xD5,0x07,Read,ACK
0.1663115,97,0xD5,0x00,Read,NAK
0.1664455,98,0x52,0x02,Write,ACK
0.1665655,99,0x53,0x00,Read,ACK
0.1666135,99,0x53,0x00,Read,ACK
0.166661625,99,0x53,0x4F,Read,ACK
0.16670975,99,0x53,0xC0,Read,ACK
0.166758,99,0x53,0xB6,Read,ACK
0.166806125,99,0x53,0x00,Read,ACK
0.16686175,99,0x53,0xAB,Read,NAK
0.17564775,100,0xD4,0xA6,Write,ACK
0.17576875,101,0xD5,0x11,Read,ACK
0.17581675,101,0xD5,0x0F,Read,NAK
0.17594775,102,0xD4,0xA8,Write,ACK
0.176067625,103,0xD5,0xF8,Read,ACK
0.176115625,103,0xD5,0xFF,Read,ACK
0.176163625,103,0xD5,0x0D,Read,ACK
0.176211625,103,0xD5,0x00,Read,ACK
0.176259625,103,0xD5,0x07,Read,ACK
0.176307625,103,0xD5,0x00,Read,NAK
0.176441625,104,0x52,0x02,Write,ACK
0.176561625,105,0x53,0x00,Read,ACK
0.176609625,105,0x53,0x00,Read,ACK
0.17665775,105,0x53,0x4F,Read,ACK
0.176705625,105,0x53,0xC0,Read,ACK
0.176754,105,0x53,0xB6,Read,ACK
0.176802,105,0x53,0x00,Read,ACK
0.176857625,105,0x53,0xAB,Read,NAK
0.185648875,106,0xD4,0xA6,Write,ACK
0.185769875,107,0xD5,0x11,Read,ACK
0.185817875,107,0xD5,0x0F,Read,NAK
0.185948875,108,0xD4,0xA8,Write,ACK
0.186068875,109,0xD5,0x00,Read,ACK
0.186116875,109,0xD5,0x00,Read,ACK
0.186164875,109,0xD5,0x08,Read,ACK
0.186212875,109,0xD5,0x00,Read,ACK
0.186260875,109,0xD5,0x09,Read,ACK
0.186308875,109,0xD5,0x00,Read,NAK
0.186442875,110,0x52,0x02,Write,ACK
0.186562875,111,0x53,0x00,Read,ACK
0.186610875,111,0x53,0x00,Read,ACK
0.186659,111,0x53,0x4F,Read,ACK
0.186706875,111,0x53,0xC0,Read,ACK
0.186755125,111,0x53,0xB6,Read,ACK
0.18680325,111,0x53,0x00,Read,ACK
0.186858875,111,0x53,0xAB,Read,NAK
0.195635125,112,0xD4,0xA6,Write,ACK
0.195756125,113,0xD5,0x11,Read,ACK
0.195804125,113,0xD5,0x0F,Read,NAK
0.195935125,114,0xD4,0xA8,Write,ACK
0.196055125,115,0xD5,0x05,Read,ACK
0.196103125,115,0xD5,0x00,Read,ACK
0.196151125,115,0xD5,0xFF,Read,ACK
0.196199125,115,0xD5,0xFF,Read,ACK
0.196247125,115,0xD5,0x08,Read,ACK
0.196295125,115,0xD5,0x00,Read,NAK
0.196429125,116,0x52,0x02,Write,ACK
0.196549125,117,0x53,0x00,Read,ACK
0.196597125,117,0x53,0x00,Read,ACK
0.196645375,117,0x53,0x4F,Read,ACK
0.196693375,117,0x53,0xC0,Read,ACK
0.196741625,117,0x53,0xB6,Read,ACK
0.19678975,117,0x53,0x00,Read,ACK
0.196845375,117,0x53,0xAB,Read,NAK
0.205649625,118,0xD4,0xA6,Write,ACK
0.205770625,119,0xD5,0x11,Read,ACK
0.205818625,119,0xD5,0x0F,Read,NAK
0.205949625,120,0xD4,0xA8,Write,ACK
0.206069625,121,0xD5,0x02,Read,ACK
0.206117625,121,0xD5,0x00,Read,ACK
0.206165625,121,0xD5,0xF8,Read,ACK
0.206213625,121,0xD5,0xFF,Read,ACK
0.206261625,121,0xD5,0x05,Read,ACK
0.206309625,121,0xD5,0x00,Read,NAK
0.206443625,122,0x52,0x02,Write,ACK
0.206563625,123,0x53,0x00,Read,ACK
0.206611625,123,0x53,0x00,Read,ACK
0.20665975,123,0x53,0x4F,Read,ACK
0.206707625,123,0x53,0xC0,Read,ACK
0.206755875,123,0x53,0xB6,Read,ACK
0.206804,123,0x53,0x00,Read,ACK
0.206859625,123,0x53,0xAB,Read,NAK
0.21565025,124,0xD4,0xA6,Write,ACK
0.21577125,125,0xD5,0x11,Read,ACK
0.21581925,125,0xD5,0x0F,Read,NAK
0.21595025,126,0xD4,0xA8,Write,ACK
0.21607025,127,0xD5,0xFD,Read,ACK
0.21611825,127,0xD5,0xFF,Read,ACK
0.21616625,127,0xD5,0xF6,Read,ACK
0.216214125,127,0xD5,0xFF,Read,ACK
0.21626225,127,0xD5,0x01,Read,ACK
0.216310125,127,0xD5,0x00,Read,NAK
0.216444125,128,0x52,0x02,Write,ACK
0.216564125,129,0x53,0x00,Read,ACK
0.216612125,129,0x53,0x00,Read,ACK
0.216660375,129,0x53,0x4F,Read,ACK
0.2167085,129,0x53,0xC0,Read,ACK
0.216756875,129,0x53,0xB6,Read,ACK
0.216804875,129,0x53,0x00,Read,ACK
0.2168605,129,0x53,0xAB,Read,NAK
0.225647375,130,0xD4,0xA6,Write,ACK
0.225768375,131,0xD5,0x11,Read,ACK
0.225816375,131,0xD5,0x0F,Read,NAK
0.225947375,132,0xD4,0xA8,Write,ACK
0.226067375,133,0xD5,0xFB,Read,ACK
0.226115375,133,0xD5,0xFF,Read,ACK
0.226163375,133,0xD5,0xF9,Read,ACK
0.226211375,133,0xD5,0xFF,Read,ACK
0.226259375,133,0xD5,0xFE,Read,ACK
0.226307375,133,0xD5,0xFF,Read,NAK
0.226441375,134,0x52,0x02,Write,ACK
0.226561375,135,0x53,0x00,Read,ACK
0.226609375,135,0x53,0x00,Read,ACK
0.2266575,135,0x53,0x4F,Read,ACK
0.22670575,135,0x53,0xC0,Read,ACK
0.226754,135,0x53,0xB6,Read,ACK
0.226802,135,0x53,0x00,Read,ACK
0.22685775,135,0x53,0xAB,Read,NAK
0.235648,136,0xD4,0xA6,Write,ACK
0.235769,137,0xD5,0x11,Read,ACK
0.235817,137,0xD5,0x0F,Read,NAK
0.235948,138,0xD4,0xA8,Write,ACK
0.236068,139,0xD5,0xFE,Read,ACK
0.236116,139,0xD5,0xFF,Read,ACK
0.236164,139,0xD5,0xFB,Read,ACK
0.236212,139,0xD5,0xFF,Read,ACK
0.23626,139,0xD5,0xFA,Read,ACK
0.236307875,139,0xD5,0xFF,Read,NAK
0.236441875,140,0x52,0x02,Write,ACK
0.236561875,141,0x53,0x00,Read,ACK
0.236609875,141,0x53,0x00,Read,ACK
0.236658125,141,0x53,0x4F,Read,ACK
0.23670625,141,0x53,0xC0,Read,ACK
0.2367545,141,0x53,0xB6,Read,ACK
0.236802625,141,0x53,0x00,Read,ACK
0.23685825,141,0x53,0xAB,Read,NAK
0.2456475,142,0xD4,0xA6,Write,ACK
0.2457685,143,0xD5,0x11,Read,ACK
0.2458165,143,0xD5,0x0F,Read,NAK
0.2459475,144,0xD4,0xA8,Write,ACK
0.2460675,145,0xD5,0x02,Read,ACK
0.2461155,145,0xD5,0x00,Read,ACK
0.2461635,145,0xD5,0xFA,Read,ACK
0.2462115,145,0xD5,0xFF,Read,ACK
0.2462595,145,0xD5,0xF8,Read,ACK
0.2463075,145,0xD5,0xFF,Read,NAK
0.2464415,146,0x52,0x02,Write,ACK
0.2465615,147,0x53,0x00,Read,ACK
0.2466095,147,0x53,0x00,Read,ACK
0.246657625,147,0x53,0x4F,Read,ACK
0.2467055,147,0x53,0xC0,Read,ACK
0.246753875,147,0x53,0xB6,Read,ACK
0.24680175,147,0x53,0x00,Read,ACK
0.2468575,147,0x53,0xAB,Read,NAK
0.25564675,148,0xD4,0xA6,Write,ACK
0.25576775,149,0xD5,0x11,Read,ACK
0.25581575,149,0xD5,0x0F,Read,NAK
0.25594675,150,0xD4,0xA8,Write,ACK
0.25606675,151,0xD5,0x03,Read,ACK
0.25611475,151,0xD5,0x00,Read,ACK
0.25616275,151,0xD5,0xFA,Read,ACK
0.25621075,151,0xD5,0xFF,Read,ACK
0.25625875,151,0xD5,0xFB,Read,ACK
0.25630675,151,0xD5,0xFF,Read,NAK
0.25644075,152,0x52,0x02,Write,ACK
0.256560625,153,0x53,0x00,Read,ACK
0.256608625,153,0x53,0x00,Read,ACK
0.256656875,153,0x53,0x4F,Read,ACK
0.256705,153,0x53,0xC0,Read,ACK
0.25675325,153,0x53,0xB6,Read,ACK
0.256801375,153,0x53,0x00,Read,ACK
0.256857,153,0x53,0xAB,Read,NAK
0.265645625,154,0xD4,0xA6,Write,ACK
0.265766625,155,0xD5,0x11,Read,ACK
0.265814625,155,0xD5,0x0F,Read,NAK
0.265945625,156,0xD4,0xA8,Write,ACK
0.266065625,157,0xD5,0x06,Read,ACK
0.266113625,157,0xD5,0x00,Read,ACK
0.266161625,157,0xD5,0xFF,Read,ACK
0.266209625,157,0xD5,0xFF,Read,ACK
0.266257625,157,0xD5,0xFF,Read,ACK
0.266305625,157,0xD5,0xFF,Read,NAK
0.266439625,158,0x52,0x02,Write,ACK
0.2665595,159,0x53,0x00,Read,ACK
0.2666075,159,0x53,0x00,Read,ACK
0.26665575,159,0x53,0x4F,Read,ACK
0.2667035,159,0x53,0xC0,Read,ACK
0.266751875,159,0x53,0xB6,Read,ACK
0.266799875,159,0x53,0x00,Read,ACK
0.2668555,159,0x53,0xAB,Read,NAK
0.27564775,160,0xD4,0xA6,Write,ACK
0.27576875,161,0xD5,0x11,Read,ACK
0.27581675,161,0xD5,0x0F,Read,NAK
0.27594775,162,0xD4,0xA8,Write,ACK
0.27606775,163,0xD5,0x0B,Read,ACK
0.27611575,163,0xD5,0x00,Read,ACK
0.27616375,163,0xD5,0x04,Read,ACK
0.27621175,163,0xD5,0x00,Read,ACK
0.27625975,163,0xD5,0x01,Read,ACK
0.27630775,163,0xD5,0x00,Read,NAK
0.27644175,164,0x52,0x02,Write,ACK
0.27656175,165,0x53,0x00,Read,ACK
0.27660975,165,0x53,0x00,Read,ACK
0.276658,165,0x53,0x4F,Read,ACK
0.276706125,165,0x53,0xC0,Read,ACK
0.2767545,165,0x53,0xB6,Read,ACK
0.276802375,165,0x53,0x00,Read,ACK
0.276858125,165,0x53,0xAB,Read,NAK
0.285646625,166,0xD4,0xA6,Write,ACK
0.285767625,167,0xD5,0x11,Read,ACK
0.285815625,167,0xD5,0x0F,Read,NAK
0.285946625,168,0xD4,0xA8,Write,ACK
0.286066625,169,0xD5,0x11,Read,ACK
0.286114625,169,0xD5,0x00,Read,ACK
0.286162625,169,0xD5,0x07,Read,ACK
0.286210625,169,0xD5,0x00,Read,ACK
0.286258625,169,0xD5,0xFE,Read,ACK
0.286306625,169,0xD5,0xFF,Read,NAK
0.286440625,170,0x52,0x02,Write,ACK
0.286560625,171,0x53,0x00,Read,ACK
0.286608625,171,0x53,0x00,Read,ACK
0.286656875,171,0x53,0x4F,Read,ACK
0.286705,171,0x53,0xC0,Read,ACK
0.28675325,171,0x53,0xB6,Read,ACK
0.28680125,171,0x53,0x00,Read,ACK
0.286857,171,0x53,0xAB,Read,NAK
0.2956455,172,0xD4,0xA6,Write,ACK
0.2957665,173,0xD5,0x11,Read,ACK
0.2958145,173,0xD5,0x0F,Read,NAK
0.2959455,174,0xD4,0xA8,Write,ACK
0.2960655,175,0xD5,0x13,Read,ACK
0.2961135,175,0xD5,0x00,Read,ACK
0.2961615,175,0xD5,0x09,Read,ACK
0.2962095,175,0xD5,0x00,Read,ACK
0.2962575,175,0xD5,0xF8,Read,ACK
0.2963055,175,0xD5,0xFF,Read,NAK
0.2964395,176,0x52,0x02,Write,ACK
0.2965595,177,0x53,0x00,Read,ACK
0.2966075,177,0x53,0x00,Read,ACK
0.296655625,177,0x53,0x4F,Read,ACK
0.296703875,177,0x53,0xC0,Read,ACK
0.29675225,177,0x53,0xB6,Read,ACK
0.296800125,177,0x53,0x00,Read,ACK
0.296855875,177,0x53,0xAB,Read,NAK
0.30564575,178,0xD4,0xA6,Write,ACK
0.30576675,179,0xD5,0x11,Read,ACK
0.30581475,179,0xD5,0x0F,Read,NAK
0.30594575,180,0xD4,0xA8,Write,ACK
0.30606575,181,0xD5,0x10,Read,ACK
0.30611375,181,0xD5,0x00,Read,ACK
0.30616175,181,0xD5,0x09,Read,ACK
0.30620975,181,0xD5,0x00,Read,ACK
0.30625775,181,0xD5,0xF2,Read,ACK
0.30630575,181,0xD5,0xFF,Read,NAK
0.30643975,182,0x52,0x02,Write,ACK
0.30655975,183,0x53,0x00,Read,ACK
0.30660775,183,0x53,0x00,Read,ACK
0.306656,183,0x53,0x4F,Read,ACK
0.306704,183,0x53,0xC0,Read,ACK
0.306752375,183,0x53,0xB6,Read,ACK
0.306800375,183,0x53,0x00,Read,ACK
0.306856,183,0x53,0xAB,Read,NAK
0.315645,184,0xD4,0xA6,Write,ACK
0.315766,185,0xD5,0x11,Read,ACK
0.315814,185,0xD5,0x00,Read,NAK
0.315948,186,0x52,0x02,Write,ACK
0.316068,187,0x53,0x00,Read,ACK
0.316116,187,0x53,0x00,Read,ACK
0.316164125,187,0x53,0x4F,Read,ACK
0.316212,187,0x53,0xC0,Read,ACK
0.31626025,187,0x53,0xB6,Read,ACK
0.31630825,187,0x53,0x00,Read,ACK
0.316364,187,0x53,0xAB,Read,NAK
0.325644875,188,0xD4,0xA6,Write,ACK
0.325765875,189,0xD5,0x11,Read,ACK
0.325813875,189,0xD5,0x0F,Read,NAK
0.325944875,190,0xD4,0xA8,Write,ACK
0.326064875,191,0xD5,0x07,Read,ACK
0.326112875,191,0xD5,0x00,Read,ACK
0.326160875,191,0xD5,0x04,Read,ACK
0.326208875,191,0xD5,0x00,Read,ACK
0.326256875,191,0xD5,0xF1,Read,ACK
0.326304875,191,0xD5,0xFF,Read,NAK
0.326438875,192,0x52,0x02,Write,ACK
0.326558875,193,0x53,0x00,Read,ACK
0.326606875,193,0x53,0x00,Read,ACK
0.326655,193,0x53,0x4F,Read,ACK
0.326703125,193,0x53,0xC0,Read,ACK
0.3267515,193,0x53,0xB6,Read,ACK
0.3267995,193,0x53,0x00,Read,ACK
0.326855125,193,0x53,0xAB,Read,NAK
0.33564375,194,0xD4,0xA6,Write,ACK
0.33576475,195,0xD5,0x11,Read,ACK
0.33581275,195,0xD5,0x0F,Read,NAK
0.33594375,196,0xD4,0xA8,Write,ACK
0.33606375,197,0xD5,0x00,Read,ACK
0.33611175,197,0xD5,0x00,Read,ACK
0.33615975,197,0xD5,0xFA,Read,ACK
0.33620775,197,0xD5,0xFF,Read,ACK
0.33625575,197,0xD5,0xF7,Read,ACK
0.33630375,197,0xD5,0xFF,Read,NAK
0.33643775,198,0x52,0x02,Write,ACK
0.33655775,199,0x53,0x00,Read,ACK
0.33660575,199,0x53,0x00,Read,ACK
0.336653875,199,0x53,0x4F,Read,ACK
0.336702,199,0x53,0xC0,Read,ACK
0.33675025,199,0x53,0xB6,Read,ACK
0.336798375,199,0x53,0x00,Read,ACK
0.336854,199,0x53,0xAB,Read,NAK
0.345629625,200,0xD4,0xA6,Write,ACK
0.345750625,201,0xD5,0x11,Read,ACK
0.345798625,201,0xD5,0x0F,Read,NAK
0.345929625,202,0xD4,0xA8,Write,ACK
0.346049625,203,0xD5,0xFF,Read,ACK
0.346097625,203,0xD5,0xFF,Read,ACK
0.346145625,203,0xD5,0xF4,Read,ACK
0.346193625,203,0xD5,0xFF,Read,ACK
0.346241625,203,0xD5,0xFF,Read,ACK
0.346289625,203,0xD5,0xFF,Read,NAK
0.346423625,204,0x52,0x02,Write,ACK
0.346543625,205,0x53,0x00,Read,ACK
0.346591625,205,0x53,0x00,Read,ACK
0.346639875,205,0x53,0x4F,Read,ACK
0.346687875,205,0x53,0xC0,Read,ACK
0.346736375,205,0x53,0xB6,Read,ACK
0.34678425,205,0x53,0x00,Read,ACK
0.346839875,205,0x53,0xAB,Read,NAK
0.355643125,206,0xD4,0xA6,Write,ACK
0.355764125,207,0xD5,0x11,Read,ACK
0.355812125,207,0xD5,0x0F,Read,NAK
0.355943125,208,0xD4,0xA8,Write,ACK
0.356063125,209,0xD5,0x03,Read,ACK
0.356111125,209,0xD5,0x00,Read,ACK
0.356159125,209,0xD5,0xF6,Read,ACK
0.356207125,209,0xD5,0xFF,Read,ACK
0.356255125,209,0xD5,0x04,Read,ACK
0.356303125,209,0xD5,0x00,Read,NAK
0.356437125,210,0x52,0x02,Write,ACK
0.356557125,211,0x53,0x00,Read,ACK
0.356605125,211,0x53,0x00,Read,ACK
0.35665325,211,0x53,0x4F,Read,ACK
0.356701125,211,0x53,0xC0,Read,ACK
0.356750875,211,0x53,0xB6,Read,ACK
0.35679875,211,0x53,0x00,Read,ACK
0.356854375,211,0x53,0xAB,Read,NAK
0.365642,212,0xD4,0xA6,Write,ACK
0.365763,213,0xD5,0x11,Read,ACK
0.365811,213,0xD5,0x0F,Read,NAK
0.365942,214,0xD4,0xA8,Write,ACK
0.366062,215,0xD5,0x04,Read,ACK
0.36611,215,0xD5,0x00,Read,ACK
0.366158,215,0xD5,0xFC,Read,ACK
0.366206,215,0xD5,0xFF,Read,ACK
0.366254,215,0xD5,0x01,Read,ACK
0.366302,215,0xD5,0x00,Read,NAK
0.366436,216,0x52,0x02,Write,ACK
0.366556,217,0x53,0x00,Read,ACK
0.366604,217,0x53,0x00,Read,ACK
0.366652125,217,0x53,0x4F,Read,ACK
0.3667,217,0x53,0xC0,Read,ACK
0.36674825,217,0x53,0xB6,Read,ACK
0.366796375,217,0x53,0x00,Read,ACK
0.366852,217,0x53,0xAB,Read,NAK
0.37564025,218,0xD4,0xA6,Write,ACK
0.37576125,219,0xD5,0x11,Read,ACK
0.37580925,219,0xD5,0x0F,Read,NAK
0.37594025,220,0xD4,0xA8,Write,ACK
0.37606025,221,0xD5,0xFC,Read,ACK
0.37610825,221,0xD5,0xFF,Read,ACK
0.37615625,221,0xD5,0x01,Read,ACK
0.37620425,221,0xD5,0x00,Read,ACK
0.37625225,221,0xD5,0xF9,Read,ACK
0.37630025,221,0xD5,0xFF,Read,NAK
0.37643425,222,0x52,0x02,Write,ACK
0.37655425,223,0x53,0x00,Read,ACK
0.37660225,223,0x53,0x00,Read,ACK
0.376650375,223,0x53,0x4F,Read,ACK
0.3766985,223,0x53,0xC0,Read,ACK
0.376746875,223,0x53,0xB6,Read,ACK
0.376794875,223,0x53,0x00,Read,ACK
0.3768505,223,0x53,0xAB,Read,NAK
0.3856405,224,0xD4,0xA6,Write,ACK
0.3857615,225,0xD5,0x11,Read,ACK
0.3858095,225,0xD5,0x0F,Read,NAK
0.3859405,226,0xD4,0xA8,Write,ACK
0.386060375,227,0xD5,0xF5,Read,ACK
0.386108375,227,0xD5,0xFF,Read,ACK
0.386156375,227,0xD5,0x05,Read,ACK
0.386204375,227,0xD5,0x00,Read,ACK
0.386252375,227,0xD5,0xF4,Read,ACK
0.386300375,227,0xD5,0xFF,Read,NAK
0.386434375,228,0x52,0x02,Write,ACK
0.386554375,229,0x53,0x00,Read,ACK
0.386602375,229,0x53,0x00,Read,ACK
0.3866505,229,0x53,0x4F,Read,ACK
0.386698375,229,0x53,0xC0,Read,ACK
0.386746625,229,0x53,0xB6,Read,ACK
0.38679475,229,0x53,0x00,Read,ACK
0.386850375,229,0x53,0xAB,Read,NAK
0.395641625,230,0xD4,0xA6,Write,ACK
0.395762625,231,0xD5,0x11,Read,ACK
0.395810625,231,0xD5,0x0F,Read,NAK
0.395941625,232,0xD4,0xA8,Write,ACK
0.396061625,233,0xD5,0xF5,Read,ACK
0.396109625,233,0xD5,0xFF,Read,ACK
0.396157625,233,0xD5,0x07,Read,ACK
0.396205625,233,0xD5,0x00,Read,ACK
0.396253625,233,0xD5,0xF9,Read,ACK
0.396301625,233,0xD5,0xFF,Read,NAK
0.396435625,234,0x52,0x02,Write,ACK
0.396555625,235,0x53,0x00,Read,ACK
0.396603625,235,0x53,0x00,Read,ACK
0.39665175,235,0x53,0x4F,Read,ACK
0.396699625,235,0x53,0xC0,Read,ACK
0.396747875,235,0x53,0xB6,Read,ACK
0.396796,235,0x53,0x00,Read,ACK
0.396851625,235,0x53,0xAB,Read,NAK
0.4056425,236,0xD4,0xA6,Write,ACK
0.4057635,237,0xD5,0x11,Read,ACK
0.4058115,237,0xD5,0x0F,Read,NAK
0.4059425,238,0xD4,0xA8,Write,ACK
0.4060625,239,0xD5,0xFB,Read,ACK
0.4061105,239,0xD5,0xFF,Read,ACK
0.4061585,239,0xD5,0x04,Read,ACK
0.4062065,239,0xD5,0x00,Read,ACK
0.4062545,239,0xD5,0x04,Read,ACK
0.4063025,239,0xD5,0x00,Read,NAK
0.4064365,240,0x52,0x02,Write,ACK
0.4065565,241,0x53,0x00,Read,ACK
0.4066045,241,0x53,0x00,Read,ACK
0.406652625,241,0x53,0x4F,Read,ACK
0.406700875,241,0x53,0xC0,Read,ACK
0.406749125,241,0x53,0xB6,Read,ACK
0.406797125,241,0x53,0x00,Read,ACK
0.406852875,241,0x53,0xAB,Read,NAK
0.415639375,242,0xD4,0xA6,Write,ACK
0.415760375,243,0xD5,0x11,Read,ACK
0.415808375,243,0xD5,0x0F,Read,NAK
0.415939375,244,0xD4,0xA8,Write,ACK
0.416059375,245,0xD5,0x01,Read,ACK
0.416107375,245,0xD5,0x00,Read,ACK
0.416155375,245,0xD5,0x01,Read,ACK
0.416203375,245,0xD5,0x00,Read,ACK
0.416251375,245,0xD5,0x0F,Read,ACK
0.416299375,245,0xD5,0x00,Read,NAK
0.416433375,246,0x52,0x02,Write,ACK
0.416553375,247,0x53,0x00,Read,ACK
0.416601375,247,0x53,0x00,Read,ACK
0.416649625,247,0x53,0x4F,Read,ACK
0.41669775,247,0x53,0xC0,Read,ACK
0.416746,247,0x53,0xB6,Read,ACK
0.416794,247,0x53,0x00,Read,ACK
0.41684975,247,0x53,0xAB,Read,NAK
0.425640625,248,0xD4,0xA6,Write,ACK
0.425761625,249,0xD5,0x11,Read,ACK
0.425809625,249,0xD5,0x0F,Read,NAK
0.425940625,250,0xD4,0xA8,Write,ACK
0.426060625,251,0xD5,0x02,Read,ACK
0.426108625,251,0xD5,0x00,Read,ACK
0.426156625,251,0xD5,0x04,Read,ACK
0.426204625,251,0xD5,0x00,Read,ACK
0.426252625,251,0xD5,0x12,Read,ACK
0.426300625,251,0xD5,0x00,Read,NAK
0.426434625,252,0x52,0x02,Write,ACK
0.426554625,253,0x53,0x00,Read,ACK
0.426602625,253,0x53,0x00,Read,ACK
0.42665075,253,0x53,0x4F,Read,ACK
0.426698875,253,0x53,0xC0,Read,ACK
0.426747125,253,0x53,0xB6,Read,ACK
0.42679525,253,0x53,0x00,Read,ACK
0.426850875,253,0x53,0xAB,Read,NAK
0.4356405,254,0xD4,0xA6,Write,ACK
0.4357615,255,0xD5,0x11,Read,ACK
0.4358095,255,0xD5,0x0F,Read,NAK
0.4359405,256,0xD4,0xA8,Write,ACK
0.4360605,257,0xD5,0x03,Read,ACK
0.4361085,257,0xD5,0x00,Read,ACK
0.4361565,257,0xD5,0x0F,Read,ACK
0.4362045,257,0xD5,0x00,Read,ACK
0.4362525,257,0xD5,0x0C,Read,ACK
0.4363005,257,0xD5,0x00,Read,NAK
0.4364345,258,0x52,0x02,Write,ACK
0.4365545,259,0x53,0x00,Read,ACK
0.4366025,259,0x53,0x00,Read,ACK
0.436650625,259,0x53,0x4F,Read,ACK
0.43669875,259,0x53,0xC0,Read,ACK
0.436747,259,0x53,0xB6,Read,ACK
0.436795125,259,0x53,0x00,Read,ACK
0.43685075,259,0x53,0xAB,Read,NAK
0.445639375,260,0xD4,0xA6,Write,ACK
0.445760375,261,0xD5,0x11,Read,ACK
0.445808375,261,0xD5,0x0F,Read,NAK
0.445939375,262,0xD4,0xA8,Write,ACK
0.446059375,263,0xD5,0x06,Read,ACK
0.446107375,263,0xD5,0x00,Read,ACK
0.446155375,263,0xD5,0x17,Read,ACK
0.446203375,263,0xD5,0x00,Read,ACK
0.446251375,263,0xD5,0x01,Read,ACK
0.446299375,263,0xD5,0x00,Read,NAK
0.446433375,264,0x52,0x02,Write,ACK
0.446553375,265,0x53,0x00,Read,ACK
0.446601375,265,0x53,0x00,Read,ACK
0.4466495,265,0x53,0x4F,Read,ACK
0.446697625,265,0x53,0xC0,Read,ACK
0.446746,265,0x53,0xB6,Read,ACK
0.446794,265,0x53,0x00,Read,ACK
0.446849625,265,0x53,0xAB,Read,NAK
0.45563925,266,0xD4,0xA6,Write,ACK
0.45576025,267,0xD5,0x11,Read,ACK
0.45580825,267,0xD5,0x0F,Read,NAK
0.45593925,268,0xD4,0xA8,Write,ACK
0.45605925,269,0xD5,0x07,Read,ACK
0.45610725,269,0xD5,0x00,Read,ACK
0.45615525,269,0xD5,0x15,Read,ACK
0.45620325,269,0xD5,0x00,Read,ACK
0.45625125,269,0xD5,0xF8,Read,ACK
0.45629925,269,0xD5,0xFF,Read,NAK
0.45643325,270,0x52,0x02,Write,ACK
0.45655325,271,0x53,0x00,Read,ACK
0.45660125,271,0x53,0x00,Read,ACK
0.456649375,271,0x53,0x4F,Read,ACK
0.4566975,271,0x53,0xC0,Read,ACK
0.45674575,271,0x53,0xB6,Read,ACK
0.456793875,271,0x53,0x00,Read,ACK
0.4568495,271,0x53,0xAB,Read,NAK
0.4656385,272,0xD4,0xA6,Write,ACK
0.4657595,273,0xD5,0x11,Read,ACK
0.4658075,273,0xD5,0x0F,Read,NAK
0.4659385,274,0xD4,0xA8,Write,ACK
0.4660585,275,0xD5,0x02,Read,ACK
0.4661065,275,0xD5,0x00,Read,ACK
0.4661545,275,0xD5,0x04,Read,ACK
0.4662025,275,0xD5,0x00,Read,ACK
0.4662505,275,0xD5,0xF7,Read,ACK
0.4662985,275,0xD5,0xFF,Read,NAK
0.4664325,276,0x52,0x02,Write,ACK
0.466552375,277,0x53,0x00,Read,ACK
0.466600375,277,0x53,0x00,Read,ACK
0.466648625,277,0x53,0x4F,Read,ACK
0.46669675,277,0x53,0xC0,Read,ACK
0.466745,277,0x53,0xB6,Read,ACK
0.466793125,277,0x53,0x00,Read,ACK
0.46684875,277,0x53,0xAB,Read,NAK
0.475636375,278,0xD4,0xA6,Write,ACK
0.475757375,279,0xD5,0x11,Read,ACK
0.475805375,279,0xD5,0x0F,Read,NAK
0.475936375,280,0xD4,0xA8,Write,ACK
0.476056375,281,0xD5,0xF9,Read,ACK
0.476104375,281,0xD5,0xFF,Read,ACK
0.476152375,281,0xD5,0xEF,Read,ACK
0.476200375,281,0xD5,0xFF,Read,ACK
0.476248375,281,0xD5,0xFD,Read,ACK
0.476296375,281,0xD5,0xFF,Read,NAK
0.476430375,282,0x52,0x02,Write,ACK
0.47655025,283,0x53,0x00,Read,ACK
0.47659825,283,0x53,0x00,Read,ACK
0.476646625,283,0x53,0x4F,Read,ACK
0.476694625,283,0x53,0xC0,Read,ACK
0.476743125,283,0x53,0xB6,Read,ACK
0.476791,283,0x53,0x00,Read,ACK
0.476846625,283,0x53,0xAB,Read,NAK
0.485637875,284,0xD4,0xA6,Write,ACK
0.485758875,285,0xD5,0x11,Read,ACK
0.485806875,285,0xD5,0x0F,Read,NAK
0.485937875,286,0xD4,0xA8,Write,ACK
0.486057875,287,0xD5,0xF5,Read,ACK
0.486105875,287,0xD5,0xFF,Read,ACK
0.486153875,287,0xD5,0xE8,Read,ACK
0.486201875,287,0xD5,0xFF,Read,ACK
0.486249875,287,0xD5,0x03,Read,ACK
0.486297875,287,0xD5,0x00,Read,NAK
0.486431875,288,0x52,0x02,Write,ACK
0.486551875,289,0x53,0x00,Read,ACK
0.486599875,289,0x53,0x00,Read,ACK
0.486648,289,0x53,0x4F,Read,ACK
0.486695875,289,0x53,0xC0,Read,ACK
0.486744125,289,0x53,0xB6,Read,ACK
0.486792125,289,0x53,0x00,Read,ACK
0.486847875,289,0x53,0xAB,Read,NAK
0.495635375,290,0xD4,0xA6,Write,ACK
0.495756375,291,0xD5,0x11,Read,ACK
0.495804375,291,0xD5,0x00,Read,NAK
0.495938375,292,0x52,0x02,Write,ACK
0.496058375,293,0x53,0x00,Read,ACK
0.496106375,293,0x53,0x00,Read,ACK
0.4961545,293,0x53,0x4F,Read,ACK
0.496202375,293,0x53,0xC0,Read,ACK
0.49625075,293,0x53,0xB6,Read,ACK
0.49629875,293,0x53,0x00,Read,ACK
0.496354375,293,0x53,0xAB,Read,NAK
0.505637,294,0xD4,0xA6,Write,ACK
0.505758,295,0xD5,0x11,Read,ACK
0.505806,295,0xD5,0x0F,Read,NAK
0.505937,296,0xD4,0xA8,Write,ACK
0.506057,297,0xD5,0xFA,Read,ACK
0.506105,297,0xD5,0xFF,Read,ACK
0.506153,297,0xD5,0xF6,Read,ACK
0.506201,297,0xD5,0xFF,Read,ACK
0.506249,297,0xD5,0x03,Read,ACK
0.506297,297,0xD5,0x00,Read,NAK
0.506431,298,0x52,0x02,Write,ACK
0.506551,299,0x53,0x00,Read,ACK
0.506599,299,0x53,0x00,Read,ACK
0.506647125,299,0x53,0x4F,Read,ACK
0.50669525,299,0x53,0xC0,Read,ACK
0.5067435,299,0x53,0xB6,Read,ACK
0.506791625,299,0x53,0x00,Read,ACK
0.50684725,299,0x53,0xAB,Read,NAK
0.515634875,300,0xD4,0xA6,Write,ACK
0.515755875,301,0xD5,0x11,Read,ACK
0.515803875,301,0xD5,0x0F,Read,NAK
0.515934875,302,0xD4,0xA8,Write,ACK
0.516054875,303,0xD5,0x04,Read,ACK
0.516102875,303,0xD5,0x00,Read,ACK
0.516150875,303,0xD5,0x0A,Read,ACK
0.516198875,303,0xD5,0x00,Read,ACK
0.516246875,303,0xD5,0xFF,Read,ACK
0.516294875,303,0xD5,0xFF,Read,NAK
0.516428875,304,0x52,0x02,Write,ACK
0.516548875,305,0x53,0x00,Read,ACK
0.516596875,305,0x53,0x00,Read,ACK
0.516645,305,0x53,0x4F,Read,ACK
0.516693125,305,0x53,0xC0,Read,ACK
0.516741375,305,0x53,0xB6,Read,ACK
0.5167895,305,0x53,0x00,Read,ACK
0.516845125,305,0x53,0xAB,Read,NAK
0.525636375,306,0xD4,0xA6,Write,ACK
0.525757375,307,0xD5,0x11,Read,ACK
0.525805375,307,0xD5,0x0F,Read,NAK
0.525936375,308,0xD4,0xA8,Write,ACK
0.526056375,309,0xD5,0x08,Read,ACK
0.526104375,309,0xD5,0x00,Read,ACK
0.526152375,309,0xD5,0x12,Read,ACK
0.526200375,309,0xD5,0x00,Read,ACK
0.526248375,309,0xD5,0xFE,Read,ACK
0.526296375,309,0xD5,0xFF,Read,NAK
0.526430375,310,0x52,0x02,Write,ACK
0.526550375,311,0x53,0x00,Read,ACK
0.526598375,311,0x53,0x00,Read,ACK
0.5266465,311,0x53,0x4F,Read,ACK
0.526694375,311,0x53,0xC0,Read,ACK
0.526742625,311,0x53,0xB6,Read,ACK
0.526790625,311,0x53,0x00,Read,ACK
0.526846375,311,0x53,0xAB,Read,NAK
0.535636625,312,0xD4,0xA6,Write,ACK
0.535757625,313,0xD5,0x11,Read,ACK
0.535805625,313,0xD5,0x0F,Read,NAK
0.535936625,314,0xD4,0xA8,Write,ACK
0.536056625,315,0xD5,0x05,Read,ACK
0.536104625,315,0xD5,0x00,Read,ACK
0.536152625,315,0xD5,0x0B,Read,ACK
0.536200625,315,0xD5,0x00,Read,ACK
0.536248625,315,0xD5,0xFF,Read,ACK
0.536296625,315,0xD5,0xFF,Read,NAK
0.536430625,316,0x52,0x02,Write,ACK
0.536550625,317,0x53,0x00,Read,ACK
0.536598625,317,0x53,0x00,Read,ACK
0.53664675,317,0x53,0x4F,Read,ACK
0.536694875,317,0x53,0xC0,Read,ACK
0.536743125,317,0x53,0xB6,Read,ACK
0.53679125,317,0x53,0x00,Read,ACK
0.536846875,317,0x53,0xAB,Read,NAK
0.545636125,318,0xD4,0xA6,Write,ACK
0.545757125,319,0xD5,0x11,Read,ACK
0.545805125,319,0xD5,0x0F,Read,NAK
0.545936125,320,0xD4,0xA8,Write,ACK
0.546056125,321,0xD5,0xFE,Read,ACK
0.546104125,321,0xD5,0xFF,Read,ACK
0.546152125,321,0xD5,0x01,Read,ACK
0.546200125,321,0xD5,0x00,Read,ACK
0.546248125,321,0xD5,0xFF,Read,ACK
0.546296125,321,0xD5,0xFF,Read,NAK
0.546430125,322,0x52,0x02,Write,ACK
0.546550125,323,0x53,0x00,Read,ACK
0.546598125,323,0x53,0x00,Read,ACK
0.546646375,323,0x53,0x4F,Read,ACK
0.5466945,323,0x53,0xC0,Read,ACK
0.54674275,323,0x53,0xB6,Read,ACK
0.54679075,323,0x53,0x00,Read,ACK
0.546846375,323,0x53,0xAB,Read,NAK
0.555634375,324,0xD4,0xA6,Write,ACK
0.555755375,325,0xD5,0x11,Read,ACK
0.555803375,325,0xD5,0x0F,Read,NAK
0.555934375,326,0xD4,0xA8,Write,ACK
0.556054375,327,0xD5,0xF9,Read,ACK
0.556102375,327,0xD5,0xFF,Read,ACK
0.556150375,327,0xD5,0xFC,Read,ACK
0.556198375,327,0xD5,0xFF,Read,ACK
0.556246375,327,0xD5,0xFB,Read,ACK
0.556294375,327,0xD5,0xFF,Read,NAK
0.556428375,328,0x52,0x02,Write,ACK
0.556548375,329,0x53,0x00,Read,ACK
0.556596375,329,0x53,0x00,Read,ACK
0.556644375,329,0x53,0x4F,Read,ACK
0.556692375,329,0x53,0xC0,Read,ACK
0.556740625,329,0x53,0xB6,Read,ACK
0.556788625,329,0x53,0x00,Read,ACK
0.55684425,329,0x53,0xAB,Read,NAK
0.565633875,330,0xD4,0xA6,Write,ACK
0.565754875,331,0xD5,0x11,Read,ACK
0.565802875,331,0xD5,0x0F,Read,NAK
0.565933875,332,0xD4,0xA8,Write,ACK
0.566053875,333,0xD5,0xF6,Read,ACK
0.566101875,333,0xD5,0xFF,Read,ACK
0.566149875,333,0xD5,0xFB,Read,ACK
0.566197875,333,0xD5,0xFF,Read,ACK
0.566245875,333,0xD5,0xFA,Read,ACK
0.566293875,333,0xD5,0xFF,Read,NAK
0.566427875,334,0x52,0x02,Write,ACK
0.566547875,335,0x53,0x00,Read,ACK
0.566595875,335,0x53,0x00,Read,ACK
0.566644125,335,0x53,0x4F,Read,ACK
0.56669225,335,0x53,0xC0,Read,ACK
0.566740625,335,0x53,0xB6,Read,ACK
0.5667885,335,0x53,0x00,Read,ACK
0.566844125,335,0x53,0xAB,Read,NAK
0.5756325,336,0xD4,0xA6,Write,ACK
0.5757535,337,0xD5,0x11,Read,ACK
0.5758015,337,0xD5,0x0F,Read,NAK
0.575932375,338,0xD4,0xA8,Write,ACK
0.576052375,339,0xD5,0xF7,Read,ACK
0.576100375,339,0xD5,0xFF,Read,ACK
0.576148375,339,0xD5,0xFB,Read,ACK
0.576196375,339,0xD5,0xFF,Read,ACK
0.576244375,339,0xD5,0xFB,Read,ACK
0.576292375,339,0xD5,0xFF,Read,NAK
0.576426375,340,0x52,0x02,Write,ACK
0.576546375,341,0x53,0x00,Read,ACK
0.576594375,341,0x53,0x00,Read,ACK
0.576642625,341,0x53,0x4F,Read,ACK
0.57669075,341,0x53,0xC0,Read,ACK
0.576739,341,0x53,0xB6,Read,ACK
0.576787125,341,0x53,0x00,Read,ACK
0.57684275,341,0x53,0xAB,Read,NAK
0.585633,342,0xD4,0xA6,Write,ACK
0.585754,343,0xD5,0x10,Read,ACK
0.585802,343,0xD5,0x0F,Read,NAK
0.585933,344,0xD4,0xA8,Write,ACK
0.586053,345,0xD5,0xFC,Read,ACK
0.586101,345,0xD5,0xFF,Read,ACK
0.586149,345,0xD5,0xFD,Read,ACK
0.586197,345,0xD5,0xFF,Read,ACK
0.586245,345,0xD5,0xFC,Read,ACK
0.586293,345,0xD5,0xFF,Read,NAK
0.586427,346,0x52,0x02,Write,ACK
0.586547,347,0x53,0x00,Read,ACK
0.586595,347,0x53,0x00,Read,ACK
0.586643125,347,0x53,0x4F,Read,ACK
0.58669125,347,0x53,0xC0,Read,ACK
0.586739625,347,0x53,0xB6,Read,ACK
0.586787625,347,0x53,0x00,Read,ACK
0.58684325,347,0x53,0xAB,Read,NAK
0.595630875,348,0xD4,0xA6,Write,ACK
0.59575225,349,0xD5,0x10,Read,ACK
0.59580025,349,0xD5,0x0F,Read,NAK
0.595937875,350,0xD4,0xA8,Write,ACK
0.59606225,351,0xD5,0x03,Read,ACK
0.59611025,351,0xD5,0x00,Read,ACK
0.596158125,351,0xD5,0x01,Read,ACK
0.596206125,351,0xD5,0x00,Read,ACK
0.596254125,351,0xD5,0xFB,Read,ACK
0.596302125,351,0xD5,0xFF,Read,NAK
0.596443125,352,0x52,0x02,Write,ACK
0.596566875,353,0x53,0x00,Read,ACK
0.596614875,353,0x53,0x00,Read,ACK
0.596663,353,0x53,0x4F,Read,ACK
0.596711125,353,0x53,0xC0,Read,ACK
0.5967595,353,0x53,0xB6,Read,ACK
0.5968075,353,0x53,0x00,Read,ACK
0.596865125,353,0x53,0xAB,Read,NAK
0.605632125,354,0xD4,0xA6,Write,ACK
0.605753125,355,0xD5,0x10,Read,ACK
0.605801125,355,0xD5,0x0F,Read,NAK
0.605932125,356,0xD4,0xA8,Write,ACK
0.606052125,357,0xD5,0x05,Read,ACK
0.606100125,357,0xD5,0x00,Read,ACK
0.606148,357,0xD5,0xFE,Read,ACK
0.606196,357,0xD5,0xFF,Read,ACK
0.606244,357,0xD5,0xFB,Read,ACK
0.606292,357,0xD5,0xFF,Read,NAK
0.606426,358,0x52,0x02,Write,ACK
0.606546,359,0x53,0x00,Read,ACK
0.606594,359,0x53,0x00,Read,ACK
0.60664225,359,0x53,0x4F,Read,ACK
0.606690375,359,0x53,0xC0,Read,ACK
0.606738625,359,0x53,0xB6,Read,ACK
0.60678675,359,0x53,0x00,Read,ACK
0.606842375,359,0x53,0xAB,Read,NAK
0.615631625,360,0xD4,0xA6,Write,ACK
0.615752625,361,0xD5,0x10,Read,ACK
0.615800625,361,0xD5,0x0F,Read,NAK
0.615931625,362,0xD4,0xA8,Write,ACK
0.616051625,363,0xD5,0x00,Read,ACK
0.616099625,363,0xD5,0x00,Read,ACK
0.616147625,363,0xD5,0xF3,Read,ACK
0.616195625,363,0xD5,0xFF,Read,ACK
0.616243625,363,0xD5,0x00,Read,ACK
0.616291625,363,0xD5,0x00,Read,NAK
0.616425625,364,0x52,0x02,Write,ACK
0.616545625,365,0x53,0x00,Read,ACK
0.616593625,365,0x53,0x00,Read,ACK
0.61664175,365,0x53,0x4F,Read,ACK
0.616689875,365,0x53,0xC0,Read,ACK
0.616738125,365,0x53,0xB6,Read,ACK
0.61678625,365,0x53,0x00,Read,ACK
0.616841875,365,0x53,0xAB,Read,NAK
0.6256035,366,0xD4,0xA6,Write,ACK
0.6257245,367,0xD5,0x10,Read,ACK
0.6257725,367,0xD5,0x0F,Read,NAK
0.6259035,368,0xD4,0xA8,Write,ACK
0.6260235,369,0xD5,0xFB,Read,ACK
0.6260715,369,0xD5,0xFF,Read,ACK
0.6261195,369,0xD5,0xED,Read,ACK
0.6261675,369,0xD5,0xFF,Read,ACK
0.6262155,369,0xD5,0x07,Read,ACK
0.6262635,369,0xD5,0x00,Read,NAK
0.6263975,370,0x52,0x02,Write,ACK
0.6265175,371,0x53,0x00,Read,ACK
0.6265655,371,0x53,0x00,Read,ACK
0.626613625,371,0x53,0x4F,Read,ACK
0.62666175,371,0x53,0xC0,Read,ACK
0.626710125,371,0x53,0xB6,Read,ACK
0.626758125,371,0x53,0x00,Read,ACK
0.62681375,371,0x53,0xAB,Read,NAK
0.63562975,372,0xD4,0xA6,Write,ACK
0.63575075,373,0xD5,0x10,Read,ACK
0.63579875,373,0xD5,0x0F,Read,NAK
0.63592975,374,0xD4,0xA8,Write,ACK
0.63604975,375,0xD5,0xFA,Read,ACK
0.63609775,375,0xD5,0xFF,Read,ACK
0.63614575,375,0xD5,0xF5,Read,ACK
0.63619375,375,0xD5,0xFF,Read,ACK
0.63624175,375,0xD5,0x09,Read,ACK
0.63628975,375,0xD5,0x00,Read,NAK
0.636423625,376,0x52,0x02,Write,ACK
0.636543625,377,0x53,0x00,Read,ACK
0.636591625,377,0x53,0x00,Read,ACK
0.636639875,377,0x53,0x4F,Read,ACK
0.636688,377,0x53,0xC0,Read,ACK
0.63673625,377,0x53,0xB6,Read,ACK
0.636784375,377,0x53,0x00,Read,ACK
0.63684,377,0x53,0xAB,Read,NAK
0.64562625,378,0xD4,0xA6,Write,ACK
0.64574725,379,0xD5,0x10,Read,ACK
0.64579525,379,0xD5,0x0F,Read,NAK
0.64592625,380,0xD4,0xA8,Write,ACK
0.64604625,381,0xD5,0xFD,Read,ACK
0.64609425,381,0xD5,0xFF,Read,ACK
0.64614225,381,0xD5,0x05,Read,ACK
0.64619025,381,0xD5,0x00,Read,ACK
0.64623825,381,0xD5,0x05,Read,ACK
0.64628625,381,0xD5,0x00,Read,NAK
0.64642025,382,0x52,0x02,Write,ACK
0.64654025,383,0x53,0x00,Read,ACK
0.64658825,383,0x53,0x00,Read,ACK
0.646636375,383,0x53,0x4F,Read,ACK
0.6466845,383,0x53,0xC0,Read,ACK
0.646733,383,0x53,0xB6,Read,ACK
0.646780875,383,0x53,0x00,Read,ACK
0.6468365,383,0x53,0xAB,Read,NAK
0.65562575,384,0xD4,0xA6,Write,ACK
0.65574675,385,0xD5,0x10,Read,ACK
0.65579475,385,0xD5,0x0F,Read,NAK
0.65592575,386,0xD4,0xA8,Write,ACK
0.65604575,387,0xD5,0x01,Read,ACK
0.65609375,387,0xD5,0x00,Read,ACK
0.65614175,387,0xD5,0x10,Read,ACK
0.65618975,387,0xD5,0x00,Read,ACK
0.65623775,387,0xD5,0xFF,Read,ACK
0.65628575,387,0xD5,0xFF,Read,NAK
0.65641975,388,0x52,0x02,Write,ACK
0.65653975,389,0x53,0x00,Read,ACK
0.65658775,389,0x53,0x00,Read,ACK
0.656636,389,0x53,0x4F,Read,ACK
0.656684125,389,0x53,0xC0,Read,ACK
0.656732375,389,0x53,0xB6,Read,ACK
0.656780375,389,0x53,0x00,Read,ACK
0.656836125,389,0x53,0xAB,Read,NAK
0.665627375,390,0xD4,0xA6,Write,ACK
0.665748375,391,0xD5,0x10,Read,ACK
0.665796375,391,0xD5,0x0F,Read,NAK
0.665927375,392,0xD4,0xA8,Write,ACK
0.666047375,393,0xD5,0x02,Read,ACK
0.666095375,393,0xD5,0x00,Read,ACK
0.666143375,393,0xD5,0x12,Read,ACK
0.666191375,393,0xD5,0x00,Read,ACK
0.666239375,393,0xD5,0xFF,Read,ACK
0.666287375,393,0xD5,0xFF,Read,NAK
0.66642125,394,0x52,0x02,Write,ACK
0.66654125,395,0x53,0x00,Read,ACK
0.66658925,395,0x53,0x00,Read,ACK
0.666637625,395,0x53,0x4F,Read,ACK
0.666685625,395,0x53,0xC0,Read,ACK
0.666733875,395,0x53,0xB6,Read,ACK
0.666782,395,0x53,0x00,Read,ACK
0.666837625,395,0x53,0xAB,Read,NAK
0.67562925,396,0xD4,0xA6,Write,ACK
0.67575025,397,0xD5,0x10,Read,ACK
0.67579825,397,0xD5,0x0F,Read,NAK
0.67592925,398,0xD4,0xA8,Write,ACK
0.67604925,399,0xD5,0x00,Read,ACK
0.67609725,399,0xD5,0x00,Read,ACK
0.67614525,399,0xD5,0x0B,Read,ACK
0.67619325,399,0xD5,0x00,Read,ACK
0.67624125,399,0xD5,0x08,Read,ACK
0.67628925,399,0xD5,0x00,Read,NAK
0.67642325,400,0x52,0x02,Write,ACK
0.676543125,401,0x53,0x00,Read,ACK
0.676591125,401,0x53,0x00,Read,ACK
0.676639375,401,0x53,0x4F,Read,ACK
0.6766875,401,0x53,0xC0,Read,ACK
0.67673575,401,0x53,0xB6,Read,ACK
0.676783875,401,0x53,0x00,Read,ACK
0.6768395,401,0x53,0xAB,Read,NAK
0.68561275,402,0xD4,0xA6,Write,ACK
0.68573375,403,0xD5,0x10,Read,ACK
0.68578175,403,0xD5,0x00,Read,NAK
0.68591575,404,0x52,0x02,Write,ACK
0.68603575,405,0x53,0x00,Read,ACK
0.68608375,405,0x53,0x00,Read,ACK
0.686132,405,0x53,0x4F,Read,ACK
0.686180125,405,0x53,0xC0,Read,ACK
0.6862285,405,0x53,0xB6,Read,ACK
0.686276375,405,0x53,0x00,Read,ACK
0.686332125,405,0x53,0xAB,Read,NAK
0.695614,406,0xD4,0xA6,Write,ACK
0.695735,407,0xD5,0x10,Read,ACK
0.695783,407,0xD5,0x0F,Read,NAK
0.695914,408,0xD4,0xA8,Write,ACK
0.696034,409,0xD5,0xFA,Read,ACK
0.696082,409,0xD5,0xFF,Read,ACK
0.69613,409,0xD5,0x02,Read,ACK
0.696178,409,0xD5,0x00,Read,ACK
0.696226,409,0xD5,0x12,Read,ACK
0.696274,409,0xD5,0x00,Read,NAK
0.696408,410,0x52,0x02,Write,ACK
0.696528,411,0x53,0x00,Read,ACK
0.696575875,411,0x53,0x00,Read,ACK
0.696624,411,0x53,0x4F,Read,ACK
0.696671875,411,0x53,0xC0,Read,ACK
0.696720125,411,0x53,0xB6,Read,ACK
0.69676825,411,0x53,0x00,Read,ACK
0.696823875,411,0x53,0xAB,Read,NAK
0.705626125,412,0xD4,0xA6,Write,ACK
0.705747125,413,0xD5,0x10,Read,ACK
0.705795125,413,0xD5,0x0F,Read,NAK
0.705926125,414,0xD4,0xA8,Write,ACK
0.706046125,415,0xD5,0xF7,Read,ACK
0.706094125,415,0xD5,0xFF,Read,ACK
0.706142125,415,0xD5,0xF9,Read,ACK
0.706190125,415,0xD5,0xFF,Read,ACK
0.706238125,415,0xD5,0x13,Read,ACK
0.706286125,415,0xD5,0x00,Read,NAK
0.706420125,416,0x52,0x02,Write,ACK
0.706540125,417,0x53,0x00,Read,ACK
0.706588125,417,0x53,0x00,Read,ACK
0.70663625,417,0x53,0x4F,Read,ACK
0.706684125,417,0x53,0xC0,Read,ACK
0.706732625,417,0x53,0xB6,Read,ACK
0.7067805,417,0x53,0x00,Read,ACK
0.706836125,417,0x53,0xAB,Read,NAK
0.715625375,418,0xD4,0xA6,Write,ACK
0.715746375,419,0xD5,0x10,Read,ACK
0.715794375,419,0xD5,0x0F,Read,NAK
0.715925375,420,0xD4,0xA8,Write,ACK
0.716045375,421,0xD5,0xFA,Read,ACK
0.716093375,421,0xD5,0xFF,Read,ACK
0.716141375,421,0xD5,0xF6,Read,ACK
0.716189375,421,0xD5,0xFF,Read,ACK
0.716237375,421,0xD5,0x0C,Read,ACK
0.716285375,421,0xD5,0x00,Read,NAK
0.716419375,422,0x52,0x02,Write,ACK
0.716539375,423,0x53,0x00,Read,ACK
0.716587375,423,0x53,0x00,Read,ACK
0.7166355,423,0x53,0x4F,Read,ACK
0.716683625,423,0x53,0xC0,Read,ACK
0.716732125,423,0x53,0xB6,Read,ACK
0.71678,423,0x53,0x00,Read,ACK
0.716835625,423,0x53,0xAB,Read,NAK
0.72562525,424,0xD4,0xA6,Write,ACK
0.72574625,425,0xD5,0x10,Read,ACK
0.72579425,425,0xD5,0x0F,Read,NAK
0.72592525,426,0xD4,0xA8,Write,ACK
0.72604525,427,0xD5,0x00,Read,ACK
0.72609325,427,0xD5,0x00,Read,ACK
0.72614125,427,0xD5,0xFA,Read,ACK
0.72618925,427,0xD5,0xFF,Read,ACK
0.72623725,427,0xD5,0x04,Read,ACK
0.72628525,427,0xD5,0x00,Read,NAK
0.72641925,428,0x52,0x02,Write,ACK
0.72653925,429,0x53,0x00,Read,ACK
0.72658725,429,0x53,0x00,Read,ACK
0.726635375,429,0x53,0x4F,Read,ACK
0.72668325,429,0x53,0xC0,Read,ACK
0.7267315,429,0x53,0xB6,Read,ACK
0.7267795,429,0x53,0x00,Read,ACK
0.72683525,429,0x53,0xAB,Read,NAK
0.735610875,430,0xD4,0xA6,Write,ACK
0.735731875,431,0xD5,0x10,Read,ACK
0.735779875,431,0xD5,0x0F,Read,NAK
0.73591075,432,0xD4,0xA8,Write,ACK
0.73603075,433,0xD5,0x05,Read,ACK
0.73607875,433,0xD5,0x00,Read,ACK
0.73612675,433,0xD5,0x01,Read,ACK
0.73617475,433,0xD5,0x00,Read,ACK
0.73622275,433,0xD5,0x00,Read,ACK
0.73627075,433,0xD5,0x00,Read,NAK
0.73640475,434,0x52,0x02,Write,ACK
0.73652475,435,0x53,0x00,Read,ACK
0.73657275,435,0x53,0x00,Read,ACK
0.736620875,435,0x53,0x4F,Read,ACK
0.73666875,435,0x53,0xC0,Read,ACK
0.736717,435,0x53,0xB6,Read,ACK
0.736765125,435,0x53,0x00,Read,ACK
0.73682075,435,0x53,0xAB,Read,NAK
0.745611,436,0xD4,0xA6,Write,ACK
0.745732,437,0xD5,0x10,Read,ACK
0.74578,437,0xD5,0x0F,Read,NAK
0.745911,438,0xD4,0xA8,Write,ACK
0.746031,439,0xD5,0x08,Read,ACK
0.746079,439,0xD5,0x00,Read,ACK
0.746127,439,0xD5,0x05,Read,ACK
0.746175,439,0xD5,0x00,Read,ACK
0.746223,439,0xD5,0xFF,Read,ACK
0.746271,439,0xD5,0xFF,Read,NAK
0.746405,440,0x52,0x02,Write,ACK
0.746525,441,0x53,0x00,Read,ACK
0.746573,441,0x53,0x00,Read,ACK
0.74662125,441,0x53,0x4F,Read,ACK
0.74666925,441,0x53,0xC0,Read,ACK
0.746717625,441,0x53,0xB6,Read,ACK
0.746765625,441,0x53,0x00,Read,ACK
0.74682125,441,0x53,0xAB,Read,NAK
0.755623875,442,0xD4,0xA6,Write,ACK
0.755744875,443,0xD5,0x10,Read,ACK
0.755792875,443,0xD5,0x0F,Read,NAK
0.755923875,444,0xD4,0xA8,Write,ACK
0.756043875,445,0xD5,0x0A,Read,ACK
0.756091875,445,0xD5,0x00,Read,ACK
0.756139875,445,0xD5,0x07,Read,ACK
0.756187875,445,0xD5,0x00,Read,ACK
0.756235875,445,0xD5,0x01,Read,ACK
0.756283875,445,0xD5,0x00,Read,NAK
0.756417875,446,0x52,0x02,Write,ACK
0.756537875,447,0x53,0x00,Read,ACK
0.756585875,447,0x53,0x00,Read,ACK
0.756634,447,0x53,0x4F,Read,ACK
0.756681875,447,0x53,0xC0,Read,ACK
0.756730125,447,0x53,0xB6,Read,ACK
0.75677825,447,0x53,0x00,Read,ACK
0.756833875,447,0x53,0xAB,Read,NAK
0.7656245,448,0xD4,0xA6,Write,ACK
0.7657455,449,0xD5,0x10,Read,ACK
0.7657935,449,0xD5,0x0F,Read,NAK
0.765924375,450,0xD4,0xA8,Write,ACK
0.766044375,451,0xD5,0x0B,Read,ACK
0.766092375,451,0xD5,0x00,Read,ACK
0.766140375,451,0xD5,0x0B,Read,ACK
0.766188375,451,0xD5,0x00,Read,ACK
0.766236375,451,0xD5,0x06,Read,ACK
0.766284375,451,0xD5,0x00,Read,NAK
0.766418375,452,0x52,0x02,Write,ACK
0.766538375,453,0x53,0x00,Read,ACK
0.766586375,453,0x53,0x00,Read,ACK
0.766634625,453,0x53,0x4F,Read,ACK
0.76668275,453,0x53,0xC0,Read,ACK
0.766731,453,0x53,0xB6,Read,ACK
0.766779125,453,0x53,0x00,Read,ACK
0.76683475,453,0x53,0xAB,Read,NAK
0.775624375,454,0xD4,0xA6,Write,ACK
0.775745375,455,0xD5,0x10,Read,ACK
0.775793375,455,0xD5,0x0F,Read,NAK
0.77592425,456,0xD4,0xA8,Write,ACK
0.77604425,457,0xD5,0x04,Read,ACK
0.77609225,457,0xD5,0x00,Read,ACK
0.77614025,457,0xD5,0x10,Read,ACK
0.77618825,457,0xD5,0x00,Read,ACK
0.77623625,457,0xD5,0x09,Read,ACK
0.77628425,457,0xD5,0x00,Read,NAK
0.77641825,458,0x52,0x02,Write,ACK
0.77653825,459,0x53,0x00,Read,ACK
0.77658625,459,0x53,0x00,Read,ACK
0.776634375,459,0x53,0x4F,Read,ACK
0.77668225,459,0x53,0xC0,Read,ACK
0.7767305,459,0x53,0xB6,Read,ACK
0.776778625,459,0x53,0x00,Read,ACK
0.77683425,459,0x53,0xAB,Read,NAK
0.785623875,460,0xD4,0xA6,Write,ACK
0.785744875,461,0xD5,0x10,Read,ACK
0.785792875,461,0xD5,0x0F,Read,NAK
0.785923875,462,0xD4,0xA8,Write,ACK
0.786043875,463,0xD5,0xFA,Read,ACK
0.786091875,463,0xD5,0xFF,Read,ACK
0.786139875,463,0xD5,0x11,Read,ACK
0.786187875,463,0xD5,0x00,Read,ACK
0.786235875,463,0xD5,0x07,Read,ACK
0.786283875,463,0xD5,0x00,Read,NAK
0.786417875,464,0x52,0x02,Write,ACK
0.786537875,465,0x53,0x00,Read,ACK
0.786585875,465,0x53,0x00,Read,ACK
0.786634,465,0x53,0x4F,Read,ACK
0.786682125,465,0x53,0xC0,Read,ACK
0.786730375,465,0x53,0xB6,Read,ACK
0.7867785,465,0x53,0x00,Read,ACK
0.786834125,465,0x53,0xAB,Read,NAK
0.795623375,466,0xD4,0xA6,Write,ACK
0.795744375,467,0xD5,0x10,Read,ACK
0.795792375,467,0xD5,0x0F,Read,NAK
0.795923375,468,0xD4,0xA8,Write,ACK
0.796043375,469,0xD5,0xF5,Read,ACK
0.796091375,469,0xD5,0xFF,Read,ACK
0.796139375,469,0xD5,0x10,Read,ACK
0.796187375,469,0xD5,0x00,Read,ACK
0.796235375,469,0xD5,0x02,Read,ACK
0.796283375,469,0xD5,0x00,Read,NAK
0.796417375,470,0x52,0x02,Write,ACK
0.796537375,471,0x53,0x00,Read,ACK
0.796585375,471,0x53,0x00,Read,ACK
0.796633625,471,0x53,0x4F,Read,ACK
0.79668175,471,0x53,0xC0,Read,ACK
0.796730125,471,0x53,0xB6,Read,ACK
0.796778,471,0x53,0x00,Read,ACK
0.79683375,471,0x53,0xAB,Read,NAK
0.80562325,472,0xD4,0xA6,Write,ACK
0.80574425,473,0xD5,0x10,Read,ACK
0.80579225,473,0xD5,0x0F,Read,NAK
0.80592325,474,0xD4,0xA8,Write,ACK
0.80604325,475,0xD5,0xF9,Read,ACK
0.80609125,475,0xD5,0xFF,Read,ACK
0.80613925,475,0xD5,0x0F,Read,ACK
0.80618725,475,0xD5,0x00,Read,ACK
0.80623525,475,0xD5,0xFE,Read,ACK
0.80628325,475,0xD5,0xFF,Read,NAK
0.80641725,476,0x52,0x02,Write,ACK
0.80653725,477,0x53,0x00,Read,ACK
0.80658525,477,0x53,0x00,Read,ACK
0.806633375,477,0x53,0x4F,Read,ACK
0.806681625,477,0x53,0xC0,Read,ACK
0.806729875,477,0x53,0xB6,Read,ACK
0.806777875,477,0x53,0x00,Read,ACK
0.806833625,477,0x53,0xAB,Read,NAK
0.815622125,478,0xD4,0xA6,Write,ACK
0.815743125,479,0xD5,0x10,Read,ACK
0.815791125,479,0xD5,0x0F,Read,NAK
0.815922125,480,0xD4,0xA8,Write,ACK
0.816042125,481,0xD5,0x00,Read,ACK
0.816090125,481,0xD5,0x00,Read,ACK
0.816138125,481,0xD5,0x0D,Read,ACK
0.816186125,481,0xD5,0x00,Read,ACK
0.816234125,481,0xD5,0xFC,Read,ACK
0.816282125,481,0xD5,0xFF,Read,NAK
0.816416125,482,0x52,0x02,Write,ACK
0.816536125,483,0x53,0x00,Read,ACK
0.816584125,483,0x53,0x00,Read,ACK
0.816632375,483,0x53,0x4F,Read,ACK
0.8166805,483,0x53,0xC0,Read,ACK
0.81672875,483,0x53,0xB6,Read,ACK
0.81677675,483,0x53,0x00,Read,ACK
0.8168325,483,0x53,0xAB,Read,NAK
0.825609,484,0xD4,0xA6,Write,ACK
0.82573,485,0xD5,0x10,Read,ACK
0.825778,485,0xD5,0x0F,Read,NAK
0.825909,486,0xD4,0xA8,Write,ACK
0.826029,487,0xD5,0x02,Read,ACK
0.826077,487,0xD5,0x00,Read,ACK
0.826125,487,0xD5,0x07,Read,ACK
0.826173,487,0xD5,0x00,Read,ACK
0.826221,487,0xD5,0xFB,Read,ACK
0.826269,487,0xD5,0xFF,Read,NAK
0.826403,488,0x52,0x02,Write,ACK
0.826523,489,0x53,0x00,Read,ACK
0.826571,489,0x53,0x00,Read,ACK
0.82661925,489,0x53,0x4F,Read,ACK
0.826667375,489,0x53,0xC0,Read,ACK
0.82671575,489,0x53,0xB6,Read,ACK
0.826763625,489,0x53,0x00,Read,ACK
0.826819375,489,0x53,0xAB,Read,NAK
0.835621875,490,0xD4,0xA6,Write,ACK
0.835742875,491,0xD5,0x10,Read,ACK
0.835790875,491,0xD5,0x0F,Read,NAK
0.835921875,492,0xD4,0xA8,Write,ACK
0.836041875,493,0xD5,0xFE,Read,ACK
0.836089875,493,0xD5,0xFF,Read,ACK
0.836137875,493,0xD5,0xFC,Read,ACK
0.836185875,493,0xD5,0xFF,Read,ACK
0.836233875,493,0xD5,0xFD,Read,ACK
0.836281875,493,0xD5,0xFF,Read,NAK
0.836415875,494,0x52,0x02,Write,ACK
0.836535875,495,0x53,0x00,Read,ACK
0.836583875,495,0x53,0x00,Read,ACK
0.836632125,495,0x53,0x4F,Read,ACK
0.83668025,495,0x53,0xC0,Read,ACK
0.836728375,495,0x53,0xB6,Read,ACK
0.8367765,495,0x53,0x00,Read,ACK
0.83683225,495,0x53,0xAB,Read,NAK
0.845620125,496,0xD4,0xA6,Write,ACK
0.845741125,497,0xD5,0x10,Read,ACK
0.845789125,497,0xD5,0x0F,Read,NAK
0.845920125,498,0xD4,0xA8,Write,ACK
0.846040125,499,0xD5,0xFA,Read,ACK
0.846088125,499,0xD5,0xFF,Read,ACK
0.846136125,499,0xD5,0xF5,Read,ACK
0.846184125,499,0xD5,0xFF,Read,ACK
0.846232125,499,0xD5,0x01,Read,ACK
0.846280125,499,0xD5,0x00,Read,NAK
0.846414125,500,0x52,0x02,Write,ACK
0.846534125,501,0x53,0x00,Read,ACK
0.846582125,501,0x53,0x00,Read,ACK
0.84663025,501,0x53,0x4F,Read,ACK
0.846678125,501,0x53,0xC0,Read,ACK
0.8467265,501,0x53,0xB6,Read,ACK
0.846774375,501,0x53,0x00,Read,ACK
0.846830125,501,0x53,0xAB,Read,NAK
0.855620625,502,0xD4,0xA6,Write,ACK
0.855741625,503,0xD5,0x10,Read,ACK
0.855789625,503,0xD5,0x0F,Read,NAK
0.855920625,504,0xD4,0xA8,Write,ACK
0.856040625,505,0xD5,0xF9,Read,ACK
0.856088625,505,0xD5,0xFF,Read,ACK
0.856136625,505,0xD5,0xF6,Read,ACK
0.856184625,505,0xD5,0xFF,Read,ACK
0.856232625,505,0xD5,0x05,Read,ACK
0.856280625,505,0xD5,0x00,Read,NAK
0.856414625,506,0x52,0x02,Write,ACK
0.856534625,507,0x53,0x00,Read,ACK
0.856582625,507,0x53,0x00,Read,ACK
0.85663075,507,0x53,0x4F,Read,ACK
0.856679,507,0x53,0xC0,Read,ACK
0.85672725,507,0x53,0xB6,Read,ACK
0.85677525,507,0x53,0x00,Read,ACK
0.856831,507,0x53,0xAB,Read,NAK
0.8656195,508,0xD4,0xA6,Write,ACK
0.8657405,509,0xD5,0x10,Read,ACK
0.8657885,509,0xD5,0x00,Read,NAK
0.8659225,510,0x52,0x02,Write,ACK
0.8660425,511,0x53,0x00,Read,ACK
0.8660905,511,0x53,0x00,Read,ACK
0.86613875,511,0x53,0x4F,Read,ACK
0.866186875,511,0x53,0xC0,Read,ACK
0.866235125,511,0x53,0xB6,Read,ACK
0.86628325,511,0x53,0x00,Read,ACK
0.866338875,511,0x53,0xAB,Read,NAK
0.875618375,512,0xD4,0xA6,Write,ACK
0.875739375,513,0xD5,0x10,Read,ACK
0.875787375,513,0xD5,0x0F,Read,NAK
0.875918375,514,0xD4,0xA8,Write,ACK
0.876038375,515,0xD5,0xFA,Read,ACK
0.876086375,515,0xD5,0xFF,Read,ACK
0.876134375,515,0xD5,0xFF,Read,ACK
0.876182375,515,0xD5,0xFF,Read,ACK
0.876230375,515,0xD5,0x07,Read,ACK
0.876278375,515,0xD5,0x00,Read,NAK
0.876412375,516,0x52,0x02,Write,ACK
0.876532375,517,0x53,0x00,Read,ACK
0.876580375,517,0x53,0x00,Read,ACK
0.876628625,517,0x53,0x4F,Read,ACK
0.87667675,517,0x53,0xC0,Read,ACK
0.876725125,517,0x53,0xB6,Read,ACK
0.876773,517,0x53,0x00,Read,ACK
0.87682875,517,0x53,0xAB,Read,NAK
0.88562,518,0xD4,0xA6,Write,ACK
0.885741,519,0xD5,0x10,Read,ACK
0.885789,519,0xD5,0x0F,Read,NAK
0.88592,520,0xD4,0xA8,Write,ACK
0.88604,521,0xD5,0xFA,Read,ACK
0.886088,521,0xD5,0xFF,Read,ACK
0.886136,521,0xD5,0x0A,Read,ACK
0.886184,521,0xD5,0x00,Read,ACK
0.886232,521,0xD5,0x03,Read,ACK
0.88628,521,0xD5,0x00,Read,NAK
0.886414,522,0x52,0x02,Write,ACK
0.886533875,523,0x53,0x00,Read,ACK
0.886581875,523,0x53,0x00,Read,ACK
0.88663,523,0x53,0x4F,Read,ACK
0.886677875,523,0x53,0xC0,Read,ACK
0.88672625,523,0x53,0xB6,Read,ACK
0.88677425,523,0x53,0x00,Read,ACK
0.886829875,523,0x53,0xAB,Read,NAK
0.8956185,524,0xD4,0xA6,Write,ACK
0.8957395,525,0xD5,0x10,Read,ACK
0.8957875,525,0xD5,0x0F,Read,NAK
0.8959185,526,0xD4,0xA8,Write,ACK
0.8960385,527,0xD5,0xF9,Read,ACK
0.8960865,527,0xD5,0xFF,Read,ACK
0.8961345,527,0xD5,0x11,Read,ACK
0.8961825,527,0xD5,0x00,Read,ACK
0.8962305,527,0xD5,0xFC,Read,ACK
0.8962785,527,0xD5,0xFF,Read,NAK
0.8964125,528,0x52,0x02,Write,ACK
0.8965325,529,0x53,0x00,Read,ACK
0.8965805,529,0x53,0x00,Read,ACK
0.896628625,529,0x53,0x4F,Read,ACK
0.89667675,529,0x53,0xC0,Read,ACK
0.896725,529,0x53,0xB6,Read,ACK
0.896773125,529,0x53,0x00,Read,ACK
0.89682875,529,0x53,0xAB,Read,NAK
0.905616375,530,0xD4,0xA6,Write,ACK
0.905737375,531,0xD5,0x10,Read,ACK
0.905785375,531,0xD5,0x0F,Read,NAK
0.905916375,532,0xD4,0xA8,Write,ACK
0.906036375,533,0xD5,0xFD,Read,ACK
0.906084375,533,0xD5,0xFF,Read,ACK
0.906132375,533,0xD5,0x10,Read,ACK
0.906180375,533,0xD5,0x00,Read,ACK
0.906228375,533,0xD5,0xF7,Read,ACK
0.906276375,533,0xD5,0xFF,Read,NAK
0.906410375,534,0x52,0x02,Write,ACK
0.906530375,535,0x53,0x00,Read,ACK
0.906578375,535,0x53,0x00,Read,ACK
0.9066265,535,0x53,0x4F,Read,ACK
0.906674375,535,0x53,0xC0,Read,ACK
0.906722625,535,0x53,0xB6,Read,ACK
0.906770625,535,0x53,0x00,Read,ACK
0.906826375,535,0x53,0xAB,Read,NAK
0.915617875,536,0xD4,0xA6,Write,ACK
0.915738875,537,0xD5,0x10,Read,ACK
0.915786875,537,0xD5,0x0F,Read,NAK
0.915917875,538,0xD4,0xA8,Write,ACK
0.916037875,539,0xD5,0x05,Read,ACK
0.916085875,539,0xD5,0x00,Read,ACK
0.916133875,539,0xD5,0x0C,Read,ACK
0.916181875,539,0xD5,0x00,Read,ACK
0.916229875,539,0xD5,0xFA,Read,ACK
0.916277875,539,0xD5,0xFF,Read,NAK
0.916411875,540,0x52,0x02,Write,ACK
0.916531875,541,0x53,0x00,Read,ACK
0.916579875,541,0x53,0x00,Read,ACK
0.916628,541,0x53,0x4F,Read,ACK
0.916675875,541,0x53,0xC0,Read,ACK
0.91672425,541,0x53,0xB6,Read,ACK
0.91677225,541,0x53,0x00,Read,ACK
0.916827875,541,0x53,0xAB,Read,NAK
0.92561775,542,0xD4,0xA6,Write,ACK
0.92573875,543,0xD5,0x10,Read,ACK
0.92578675,543,0xD5,0x0F,Read,NAK
0.92591775,544,0xD4,0xA8,Write,ACK
0.92603775,545,0xD5,0x0C,Read,ACK
0.92608575,545,0xD5,0x00,Read,ACK
0.92613375,545,0xD5,0x09,Read,ACK
0.92618175,545,0xD5,0x00,Read,ACK
0.92622975,545,0xD5,0x02,Read,ACK
0.92627775,545,0xD5,0x00,Read,NAK
0.92641175,546,0x52,0x02,Write,ACK
0.92653175,547,0x53,0x00,Read,ACK
0.92657975,547,0x53,0x00,Read,ACK
0.926628,547,0x53,0x4F,Read,ACK
0.926676125,547,0x53,0xC0,Read,ACK
0.926724375,547,0x53,0xB6,Read,ACK
0.926772375,547,0x53,0x00,Read,ACK
0.926828125,547,0x53,0xAB,Read,NAK
0.935618,548,0xD4,0xA6,Write,ACK
0.935739,549,0xD5,0x10,Read,ACK
0.935787,549,0xD5,0x0F,Read,NAK
0.935918,550,0xD4,0xA8,Write,ACK
0.936038,551,0xD5,0x0D,Read,ACK
0.936086,551,0xD5,0x00,Read,ACK
0.936134,551,0xD5,0x09,Read,ACK
0.936182,551,0xD5,0x00,Read,ACK
0.93623,551,0xD5,0x04,Read,ACK
0.936278,551,0xD5,0x00,Read,NAK
0.936412,552,0x52,0x02,Write,ACK
0.936532,553,0x53,0x00,Read,ACK
0.93658,553,0x53,0x00,Read,ACK
0.93662825,553,0x53,0x4F,Read,ACK
0.93667625,553,0x53,0xC0,Read,ACK
0.9367245,553,0x53,0xB6,Read,ACK
0.936772625,553,0x53,0x00,Read,ACK
0.93682825,553,0x53,0xAB,Read,NAK
0.945615625,554,0xD4,0xA6,Write,ACK
0.945736625,555,0xD5,0x10,Read,ACK
0.945784625,555,0xD5,0x0F,Read,NAK
0.9459155,556,0xD4,0xA8,Write,ACK
0.9460355,557,0xD5,0x0F,Read,ACK
0.9460835,557,0xD5,0x00,Read,ACK
0.9461315,557,0xD5,0x09,Read,ACK
0.9461795,557,0xD5,0x00,Read,ACK
0.9462275,557,0xD5,0xFF,Read,ACK
0.9462755,557,0xD5,0xFF,Read,NAK
0.9464095,558,0x52,0x02,Write,ACK
0.9465295,559,0x53,0x00,Read,ACK
0.9465775,559,0x53,0x00,Read,ACK
0.94662575,559,0x53,0x4F,Read,ACK
0.946673875,559,0x53,0xC0,Read,ACK
0.946722125,559,0x53,0xB6,Read,ACK
0.946770125,559,0x53,0x00,Read,ACK
0.946825875,559,0x53,0xAB,Read,NAK
0.9556165,560,0xD4,0xA6,Write,ACK
0.9557375,561,0xD5,0x10,Read,ACK
0.9557855,561,0xD5,0x0F,Read,NAK
0.955916375,562,0xD4,0xA8,Write,ACK
0.956036375,563,0xD5,0x15,Read,ACK
0.956084375,563,0xD5,0x00,Read,ACK
0.956132375,563,0xD5,0x06,Read,ACK
0.956180375,563,0xD5,0x00,Read,ACK
0.956228375,563,0xD5,0xF8,Read,ACK
0.956276375,563,0xD5,0xFF,Read,NAK
0.956410375,564,0x52,0x02,Write,ACK
0.956530375,565,0x53,0x00,Read,ACK
0.956578375,565,0x53,0x00,Read,ACK
0.956626625,565,0x53,0x4F,Read,ACK
0.95667475,565,0x53,0xC0,Read,ACK
0.956723,565,0x53,0xB6,Read,ACK
0.956771,565,0x53,0x00,Read,ACK
0.95682675,565,0x53,0xAB,Read,NAK
0.965615375,566,0xD4,0xA6,Write,ACK
0.965736375,567,0xD5,0x10,Read,ACK
0.965784375,567,0xD5,0x0F,Read,NAK
0.96591525,568,0xD4,0xA8,Write,ACK
0.96603525,569,0xD5,0x1A,Read,ACK
0.96608325,569,0xD5,0x00,Read,ACK
0.96613125,569,0xD5,0xFF,Read,ACK
0.96617925,569,0xD5,0xFF,Read,ACK
0.96622725,569,0xD5,0xF5,Read,ACK
0.96627525,569,0xD5,0xFF,Read,NAK
0.96640925,570,0x52,0x02,Write,ACK
0.96652925,571,0x53,0x00,Read,ACK
0.96657725,571,0x53,0x00,Read,ACK
0.966625625,571,0x53,0x4F,Read,ACK
0.966673625,571,0x53,0xC0,Read,ACK
0.966722,571,0x53,0xB6,Read,ACK
0.96677,571,0x53,0x00,Read,ACK
0.966825625,571,0x53,0xAB,Read,NAK
0.97561525,572,0xD4,0xA6,Write,ACK
0.97573625,573,0xD5,0x10,Read,ACK
0.97578425,573,0xD5,0x0F,Read,NAK
0.975915125,574,0xD4,0xA8,Write,ACK
0.976035125,575,0xD5,0x17,Read,ACK
0.976083125,575,0xD5,0x00,Read,ACK
0.976131125,575,0xD5,0xFB,Read,ACK
0.976179125,575,0xD5,0xFF,Read,ACK
0.976227125,575,0xD5,0xF7,Read,ACK
0.976275125,575,0xD5,0xFF,Read,NAK
0.976409125,576,0x52,0x02,Write,ACK
0.976529125,577,0x53,0x00,Read,ACK
0.976577125,577,0x53,0x00,Read,ACK
0.97662525,577,0x53,0x4F,Read,ACK
0.976673125,577,0x53,0xC0,Read,ACK
0.9767215,577,0x53,0xB6,Read,ACK
0.9767695,577,0x53,0x00,Read,ACK
0.976825125,577,0x53,0xAB,Read,NAK
0.985614375,578,0xD4,0xA6,Write,ACK
0.985735375,579,0xD5,0x10,Read,ACK
0.985783375,579,0xD5,0x0F,Read,NAK
0.985914375,580,0xD4,0xA8,Write,ACK
0.986034375,581,0xD5,0x0D,Read,ACK
0.986082375,581,0xD5,0x00,Read,ACK
0.986130375,581,0xD5,0xFD,Read,ACK
0.986178375,581,0xD5,0xFF,Read,ACK
0.986226375,581,0xD5,0xFA,Read,ACK
0.986274375,581,0xD5,0xFF,Read,NAK
0.986408375,582,0x52,0x02,Write,ACK
0.986528375,583,0x53,0x00,Read,ACK
0.986576375,583,0x53,0x00,Read,ACK
0.986624625,583,0x53,0x4F,Read,ACK
0.98667275,583,0x53,0xC0,Read,ACK
0.986721,583,0x53,0xB6,Read,ACK
0.986769,583,0x53,0x00,Read,ACK
0.986824625,583,0x53,0xAB,Read,NAK
0.995616,584,0xD4,0xA6,Write,ACK
0.995737,585,0xD5,0x10,Read,ACK
0.995785,585,0xD5,0x0F,Read,NAK
0.995916,586,0xD4,0xA8,Write,ACK
0.996036,587,0xD5,0x03,Read,ACK
0.996083875,587,0xD5,0x00,Read,ACK
0.996131875,587,0xD5,0x05,Read,ACK
0.996179875,587,0xD5,0x00,Read,ACK
0.996227875,587,0xD5,0xFB,Read,ACK
0.996275875,587,0xD5,0xFF,Read,NAK
0.996409875,588,0x52,0x02,Write,ACK
0.996529875,589,0x53,0x00,Read,ACK
0.996577875,589,0x53,0x00,Read,ACK
0.996626,589,0x53,0x4F,Read,ACK
0.99667425,589,0x53,0xC0,Read,ACK
0.9967225,589,0x53,0xB6,Read,ACK
0.996770625,589,0x53,0x00,Read,ACK
0.99682625,589,0x53,0xAB,Read,NAK
1.005614875,590,0xD4,0xA6,Write,ACK
1.005735875,591,0xD5,0x10,Read,ACK
1.005783875,591,0xD5,0x0F,Read,NAK
1.005914875,592,0xD4,0xA8,Write,ACK
1.006034875,593,0xD5,0x00,Read,ACK
1.00608275,593,0xD5,0x00,Read,ACK
1.00613075,593,0xD5,0x0E,Read,ACK
1.00617875,593,0xD5,0x00,Read,ACK
1.00622675,593,0xD5,0xF9,Read,ACK
1.00627475,593,0xD5,0xFF,Read,NAK
1.00640875,594,0x52,0x02,Write,ACK
1.00652875,595,0x53,0x00,Read,ACK
1.00657675,595,0x53,0x00,Read,ACK
1.006624875,595,0x53,0x4F,Read,ACK
1.00667275,595,0x53,0xC0,Read,ACK
1.006721125,595,0x53,0xB6,Read,ACK
1.006769125,595,0x53,0x00,Read,ACK
1.00682475,595,0x53,0xAB,Read,NAK
1.015598375,596,0xD4,0xA6,Write,ACK
1.015719375,597,0xD5,0x10,Read,ACK
1.015767375,597,0xD5,0x0F,Read,NAK
1.015898375,598,0xD4,0xA8,Write,ACK
1.016018375,599,0xD5,0x04,Read,ACK
1.016066375,599,0xD5,0x00,Read,ACK
1.016114375,599,0xD5,0x14,Read,ACK
1.016162375,599,0xD5,0x00,Read,ACK
1.016210375,599,0xD5,0xF3,Read,ACK
1.016258375,599,0xD5,0xFF,Read,NAK
1.016392375,600,0x52,0x02,Write,ACK
1.016512375,601,0x53,0x00,Read,ACK
1.016560375,601,0x53,0x00,Read,ACK
1.0166085,601,0x53,0x4F,Read,ACK
1.016656375,601,0x53,0xC0,Read,ACK
1.016704625,601,0x53,0xB6,Read,ACK
1.016752625,601,0x53,0x00,Read,ACK
1.016808375,601,0x53,0xAB,Read,NAK
1.02561225,602,0xD4,0xA6,Write,ACK
1.02573325,603,0xD5,0x10,Read,ACK
1.02578125,603,0xD5,0x0F,Read,NAK
1.02591225,604,0xD4,0xA8,Write,ACK
1.02603225,605,0xD5,0x07,Read,ACK
1.02608025,605,0xD5,0x00,Read,ACK
1.02612825,605,0xD5,0x18,Read,ACK
1.02617625,605,0xD5,0x00,Read,ACK
1.02622425,605,0xD5,0xEE,Read,ACK
1.02627225,605,0xD5,0xFF,Read,NAK
1.02640625,606,0x52,0x02,Write,ACK
1.02652625,607,0x53,0x00,Read,ACK
1.02657425,607,0x53,0x00,Read,ACK
1.026622375,607,0x53,0x4F,Read,ACK
1.0266705,607,0x53,0xC0,Read,ACK
1.026718875,607,0x53,0xB6,Read,ACK
1.026766875,607,0x53,0x00,Read,ACK
1.0268225,607,0x53,0xAB,Read,NAK
1.035611125,608,0xD4,0xA6,Write,ACK
1.035732125,609,0xD5,0x10,Read,ACK
1.035780125,609,0xD5,0x0F,Read,NAK
1.035911125,610,0xD4,0xA8,Write,ACK
1.036031125,611,0xD5,0x00,Read,ACK
1.036079125,611,0xD5,0x00,Read,ACK
1.036127125,611,0xD5,0x18,Read,ACK
1.036175125,611,0xD5,0x00,Read,ACK
1.036223125,611,0xD5,0xF2,Read,ACK
1.036271125,611,0xD5,0xFF,Read,NAK
1.036405125,612,0x52,0x02,Write,ACK
1.036525125,613,0x53,0x00,Read,ACK
1.036573125,613,0x53,0x00,Read,ACK
1.03662125,613,0x53,0x4F,Read,ACK
1.036669375,613,0x53,0xC0,Read,ACK
1.036717625,613,0x53,0xB6,Read,ACK
1.03676575,613,0x53,0x00,Read,ACK
1.036821375,613,0x53,0xAB,Read,NAK
1.045597625,614,0xD4,0xA6,Write,ACK
1.045718625,615,0xD5,0x10,Read,ACK
1.045766625,615,0xD5,0x00,Read,NAK
1.045900625,616,0x52,0x02,Write,ACK
1.046020625,617,0x53,0x00,Read,ACK
1.046068625,617,0x53,0x00,Read,ACK
1.04611675,617,0x53,0x4F,Read,ACK
1.046164625,617,0x53,0xC0,Read,ACK
1.046212875,617,0x53,0xB6,Read,ACK
1.046261,617,0x53,0x00,Read,ACK
1.046316625,617,0x53,0xAB,Read,NAK
1.05559625,618,0xD4,0xA6,Write,ACK
1.05571725,619,0xD5,0x10,Read,ACK
1.05576525,619,0xD5,0x0F,Read,NAK
1.05589625,620,0xD4,0xA8,Write,ACK
1.05601625,621,0xD5,0xF0,Read,ACK
1.05606425,621,0xD5,0xFF,Read,ACK
1.05611225,621,0xD5,0x12,Read,ACK
1.05616025,621,0xD5,0x00,Read,ACK
1.05620825,621,0xD5,0x02,Read,ACK
1.05625625,621,0xD5,0x00,Read,NAK
1.056390125,622,0x52,0x02,Write,ACK
1.056510125,623,0x53,0x00,Read,ACK
1.056558125,623,0x53,0x00,Read,ACK
1.0566065,623,0x53,0x4F,Read,ACK
1.0566545,623,0x53,0xC0,Read,ACK
1.05670275,623,0x53,0xB6,Read,ACK
1.056750875,623,0x53,0x00,Read,ACK
1.0568065,623,0x53,0xAB,Read,NAK
1.06560875,624,0xD4,0xA6,Write,ACK
1.06572975,625,0xD5,0x10,Read,ACK
1.06577775,625,0xD5,0x0F,Read,NAK
1.06590875,626,0xD4,0xA8,Write,ACK
1.06602875,627,0xD5,0xE6,Read,ACK
1.06607675,627,0xD5,0xFF,Read,ACK
1.06612475,627,0xD5,0x0A,Read,ACK
1.06617275,627,0xD5,0x00,Read,ACK
1.06622075,627,0xD5,0x12,Read,ACK
1.06626875,627,0xD5,0x00,Read,NAK
1.06640275,628,0x52,0x02,Write,ACK
1.06652275,629,0x53,0x00,Read,ACK
1.06657075,629,0x53,0x00,Read,ACK
1.066618875,629,0x53,0x4F,Read,ACK
1.066667,629,0x53,0xC0,Read,ACK
1.06671525,629,0x53,0xB6,Read,ACK
1.066763375,629,0x53,0x00,Read,ACK
1.066819,629,0x53,0xAB,Read,NAK
1.07560825,630,0xD4,0xA6,Write,ACK
1.07572925,631,0xD5,0x10,Read,ACK
1.07577725,631,0xD5,0x0F,Read,NAK
1.07590825,632,0xD4,0xA8,Write,ACK
1.07602825,633,0xD5,0xED,Read,ACK
1.07607625,633,0xD5,0xFF,Read,ACK
1.07612425,633,0xD5,0x05,Read,ACK
1.07617225,633,0xD5,0x00,Read,ACK
1.07622025,633,0xD5,0x16,Read,ACK
1.07626825,633,0xD5,0x00,Read,NAK
1.07640225,634,0x52,0x02,Write,ACK
1.07652225,635,0x53,0x00,Read,ACK
1.07657025,635,0x53,0x00,Read,ACK
1.0766185,635,0x53,0x4F,Read,ACK
1.076666625,635,0x53,0xC0,Read,ACK
1.076714875,635,0x53,0xB6,Read,ACK
1.076762875,635,0x53,0x00,Read,ACK
1.076818625,635,0x53,0xAB,Read,NAK
1.085609875,636,0xD4,0xA6,Write,ACK
1.085730875,637,0xD5,0x10,Read,ACK
1.085778875,637,0xD5,0x0F,Read,NAK
1.085909875,638,0xD4,0xA8,Write,ACK
1.086029875,639,0xD5,0x01,Read,ACK
1.086077875,639,0xD5,0x00,Read,ACK
1.086125875,639,0xD5,0x05,Read,ACK
1.086173875,639,0xD5,0x00,Read,ACK
1.086221875,639,0xD5,0x0C,Read,ACK
1.086269875,639,0xD5,0x00,Read,NAK
1.086403875,640,0x52,0x02,Write,ACK
1.08652375,641,0x53,0x00,Read,ACK
1.08657175,641,0x53,0x00,Read,ACK
1.08662,641,0x53,0x4F,Read,ACK
1.086668125,641,0x53,0xC0,Read,ACK
1.086716375,641,0x53,0xB6,Read,ACK
1.0867645,641,0x53,0x00,Read,ACK
1.086820125,641,0x53,0xAB,Read,NAK
1.095609,642,0xD4,0xA6,Write,ACK
1.09573,643,0xD5,0x10,Read,ACK
1.095778,643,0xD5,0x0F,Read,NAK
1.095909,644,0xD4,0xA8,Write,ACK
1.096029,645,0xD5,0x14,Read,ACK
1.096077,645,0xD5,0x00,Read,ACK
1.096125,645,0xD5,0x0A,Read,ACK
1.096173,645,0xD5,0x00,Read,ACK
1.096221,645,0xD5,0xFC,Read,ACK
1.096269,645,0xD5,0xFF,Read,NAK
1.096403,646,0x52,0x02,Write,ACK
1.096523,647,0x53,0x00,Read,ACK
1.096571,647,0x53,0x00,Read,ACK
1.096619125,647,0x53,0x4F,Read,ACK
1.096667375,647,0x53,0xC0,Read,ACK
1.096715625,647,0x53,0xB6,Read,ACK
1.096763625,647,0x53,0x00,Read,ACK
1.096819375,647,0x53,0xAB,Read,NAK
1.105609625,648,0xD4,0xA6,Write,ACK
1.105730625,649,0xD5,0x10,Read,ACK
1.105778625,649,0xD5,0x0F,Read,NAK
1.105909625,650,0xD4,0xA8,Write,ACK
1.106029625,651,0xD5,0x1E,Read,ACK
1.106077625,651,0xD5,0x00,Read,ACK
1.106125625,651,0xD5,0x0C,Read,ACK
1.106173625,651,0xD5,0x00,Read,ACK
1.106221625,651,0xD5,0xF5,Read,ACK
1.106269625,651,0xD5,0xFF,Read,NAK
1.106403625,652,0x52,0x02,Write,ACK
1.1065235,653,0x53,0x00,Read,ACK
1.1065715,653,0x53,0x00,Read,ACK
1.10661975,653,0x53,0x4F,Read,ACK
1.106667875,653,0x53,0xC0,Read,ACK
1.106716125,653,0x53,0xB6,Read,ACK
1.10676425,653,0x53,0x00,Read,ACK
1.106819875,653,0x53,0xAB,Read,NAK
1.11560975,654,0xD4,0xA6,Write,ACK
1.11573075,655,0xD5,0x10,Read,ACK
1.11577875,655,0xD5,0x0F,Read,NAK
1.11590975,656,0xD4,0xA8,Write,ACK
1.11603075,657,0xD5,0x1F,Read,ACK
1.11607875,657,0xD5,0x00,Read,ACK
1.11612675,657,0xD5,0x08,Read,ACK
1.11617475,657,0xD5,0x00,Read,ACK
1.11622275,657,0xD5,0xFA,Read,ACK
1.11627075,657,0xD5,0xFF,Read,NAK
1.11640475,658,0x52,0x02,Write,ACK
1.11652475,659,0x53,0x00,Read,ACK
1.11657275,659,0x53,0x00,Read,ACK
1.116621,659,0x53,0x4F,Read,ACK
1.116669125,659,0x53,0xC0,Read,ACK
1.116717375,659,0x53,0xB6,Read,ACK
1.116765375,659,0x53,0x00,Read,ACK
1.116821125,659,0x53,0xAB,Read,NAK
1.125609,660,0xD4,0xA6,Write,ACK
1.12573,661,0xD5,0x10,Read,ACK
1.125778,661,0xD5,0x0F,Read,NAK
1.125909,662,0xD4,0xA8,Write,ACK
1.126029,663,0xD5,0x1B,Read,ACK
1.126077,663,0xD5,0x00,Read,ACK
1.126125,663,0xD5,0x05,Read,ACK
1.126173,663,0xD5,0x00,Read,ACK
1.126221,663,0xD5,0x00,Read,ACK
1.126269,663,0xD5,0x00,Read,NAK
1.126403,664,0x52,0x02,Write,ACK
1.126523,665,0x53,0x00,Read,ACK
1.126571,665,0x53,0x00,Read,ACK
1.126619125,665,0x53,0x4F,Read,ACK
1.12666725,665,0x53,0xC0,Read,ACK
1.1267155,665,0x53,0xB6,Read,ACK
1.126763625,665,0x53,0x00,Read,ACK
1.12681925,665,0x53,0xAB,Read,NAK
1.13559325,666,0xD4,0xA6,Write,ACK
1.13571425,667,0xD5,0x10,Read,ACK
1.13576225,667,0xD5,0x0F,Read,NAK
1.13589325,668,0xD4,0xA8,Write,ACK
1.13601325,669,0xD5,0x17,Read,ACK
1.13606125,669,0xD5,0x00,Read,ACK
1.13610925,669,0xD5,0x08,Read,ACK
1.13615725,669,0xD5,0x00,Read,ACK
1.13620525,669,0xD5,0xFE,Read,ACK
1.13625325,669,0xD5,0xFF,Read,NAK
1.13638725,670,0x52,0x02,Write,ACK
1.13650725,671,0x53,0x00,Read,ACK
1.13655525,671,0x53,0x00,Read,ACK
1.13660325,671,0x53,0x4F,Read,ACK
1.136651125,671,0x53,0xC0,Read,ACK
1.136699375,671,0x53,0xB6,Read,ACK
1.1367475,671,0x53,0x00,Read,ACK
1.136803125,671,0x53,0xAB,Read,NAK
1.14560775,672,0xD4,0xA6,Write,ACK
1.14572875,673,0xD5,0x10,Read,ACK
1.14577675,673,0xD5,0x0F,Read,NAK
1.14590775,674,0xD4,0xA8,Write,ACK
1.14602775,675,0xD5,0x14,Read,ACK
1.14607575,675,0xD5,0x00,Read,ACK
1.14612375,675,0xD5,0x0E,Read,ACK
1.14617175,675,0xD5,0x00,Read,ACK
1.14621975,675,0xD5,0xFB,Read,ACK
1.14626775,675,0xD5,0xFF,Read,NAK
1.14640175,676,0x52,0x02,Write,ACK
1.14652175,677,0x53,0x00,Read,ACK
1.14656975,677,0x53,0x00,Read,ACK
1.146617875,677,0x53,0x4F,Read,ACK
1.14666575,677,0x53,0xC0,Read,ACK
1.146714,677,0x53,0xB6,Read,ACK
1.146762,677,0x53,0x00,Read,ACK
1.14681775,677,0x53,0xAB,Read,NAK
1.155605375,678,0xD4,0xA6,Write,ACK
1.155726375,679,0xD5,0x10,Read,ACK
1.155774375,679,0xD5,0x0F,Read,NAK
1.15590525,680,0xD4,0xA8,Write,ACK
1.15602525,681,0xD5,0x10,Read,ACK
1.15607325,681,0xD5,0x00,Read,ACK
1.15612125,681,0xD5,0x0F,Read,ACK
1.15616925,681,0xD5,0x00,Read,ACK
1.15621725,681,0xD5,0xFE,Read,ACK
1.15626525,681,0xD5,0xFF,Read,NAK
1.15639925,682,0x52,0x02,Write,ACK
1.15651925,683,0x53,0x00,Read,ACK
1.15656725,683,0x53,0x00,Read,ACK
1.1566155,683,0x53,0x4F,Read,ACK
1.156663625,683,0x53,0xC0,Read,ACK
1.156711875,683,0x53,0xB6,Read,ACK
1.156759875,683,0x53,0x00,Read,ACK
1.156815625,683,0x53,0xAB,Read,NAK
1.1656055,684,0xD4,0xA6,Write,ACK
1.1657265,685,0xD5,0x10,Read,ACK
1.1657745,685,0xD5,0x0F,Read,NAK
1.1659055,686,0xD4,0xA8,Write,ACK
1.1660255,687,0xD5,0x0B,Read,ACK
1.1660735,687,0xD5,0x00,Read,ACK
1.1661215,687,0xD5,0x04,Read,ACK
1.1661695,687,0xD5,0x00,Read,ACK
1.1662175,687,0xD5,0x07,Read,ACK
1.1662655,687,0xD5,0x00,Read,NAK
1.1663995,688,0x52,0x02,Write,ACK
1.1665195,689,0x53,0x00,Read,ACK
1.1665675,689,0x53,0x00,Read,ACK
1.166615625,689,0x53,0x4F,Read,ACK
1.1666635,689,0x53,0xC0,Read,ACK
1.16671175,689,0x53,0xB6,Read,ACK
1.166759875,689,0x53,0x00,Read,ACK
1.1668155,689,0x53,0xAB,Read,NAK
1.175605125,690,0xD4,0xA6,Write,ACK
1.175726125,691,0xD5,0x10,Read,ACK
1.175774125,691,0xD5,0x0F,Read,NAK
1.175905,692,0xD4,0xA8,Write,ACK
1.176025,693,0xD5,0x06,Read,ACK
1.176073,693,0xD5,0x00,Read,ACK
1.176121,693,0xD5,0xF4,Read,ACK
1.176169,693,0xD5,0xFF,Read,ACK
1.176217,693,0xD5,0x0B,Read,ACK
1.176265,693,0xD5,0x00,Read,NAK
1.176399,694,0x52,0x02,Write,ACK
1.176519,695,0x53,0x00,Read,ACK
1.176567,695,0x53,0x00,Read,ACK
1.176615125,695,0x53,0x4F,Read,ACK
1.176663,695,0x53,0xC0,Read,ACK
1.17671125,695,0x53,0xB6,Read,ACK
1.176759375,695,0x53,0x00,Read,ACK
1.176815,695,0x53,0xAB,Read,NAK
1.185607,696,0xD4,0xA6,Write,ACK
1.185728,697,0xD5,0x10,Read,ACK
1.185776,697,0xD5,0x0F,Read,NAK
1.185906875,698,0xD4,0xA8,Write,ACK
1.186026875,699,0xD5,0x01,Read,ACK
1.186074875,699,0xD5,0x00,Read,ACK
1.186122875,699,0xD5,0xE6,Read,ACK
1.186170875,699,0xD5,0xFF,Read,ACK
1.186218875,699,0xD5,0x09,Read,ACK
1.186266875,699,0xD5,0x00,Read,NAK
1.186400875,700,0x52,0x02,Write,ACK
1.186520875,701,0x53,0x00,Read,ACK
1.186568875,701,0x53,0x00,Read,ACK
1.186617125,701,0x53,0x4F,Read,ACK
1.18666525,701,0x53,0xC0,Read,ACK
1.1867135,701,0x53,0xB6,Read,ACK
1.186761625,701,0x53,0x00,Read,ACK
1.18681725,701,0x53,0xAB,Read,NAK
1.195606125,702,0xD4,0xA6,Write,ACK
1.195727125,703,0xD5,0x10,Read,ACK
1.195775125,703,0xD5,0x0F,Read,NAK
1.195906125,704,0xD4,0xA8,Write,ACK
1.196026125,705,0xD5,0xF8,Read,ACK
1.196074125,705,0xD5,0xFF,Read,ACK
1.196122125,705,0xD5,0xE0,Read,ACK
1.196170125,705,0xD5,0xFF,Read,ACK
1.196218125,705,0xD5,0x06,Read,ACK
1.196266125,705,0xD5,0x00,Read,NAK
1.196400125,706,0x52,0x02,Write,ACK
1.196520125,707,0x53,0x00,Read,ACK
1.196568125,707,0x53,0x00,Read,ACK
1.19661625,707,0x53,0x4F,Read,ACK
1.196664125,707,0x53,0xC0,Read,ACK
1.196712375,707,0x53,0xB6,Read,ACK
1.1967605,707,0x53,0x00,Read,ACK
1.196816125,707,0x53,0xAB,Read,NAK
1.205606,708,0xD4,0xA6,Write,ACK
1.205727,709,0xD5,0x10,Read,ACK
1.205775,709,0xD5,0x0F,Read,NAK
1.205906,710,0xD4,0xA8,Write,ACK
1.206026,711,0xD5,0xF0,Read,ACK
1.206074,711,0xD5,0xFF,Read,ACK
1.206122,711,0xD5,0xE2,Read,ACK
1.20617,711,0xD5,0xFF,Read,ACK
1.206218,711,0xD5,0x08,Read,ACK
1.206266,711,0xD5,0x00,Read,NAK
1.2064,712,0x52,0x02,Write,ACK
1.20652,713,0x53,0x00,Read,ACK
1.206568,713,0x53,0x00,Read,ACK
1.20661625,713,0x53,0x4F,Read,ACK
1.206664375,713,0x53,0xC0,Read,ACK
1.206712625,713,0x53,0xB6,Read,ACK
1.206760625,713,0x53,0x00,Read,ACK
1.206816375,713,0x53,0xAB,Read,NAK
1.215605625,714,0xD4,0xA6,Write,ACK
1.215726625,715,0xD5,0x10,Read,ACK
1.215774625,715,0xD5,0x0F,Read,NAK
1.215905625,716,0xD4,0xA8,Write,ACK
1.2160255,717,0xD5,0xF2,Read,ACK
1.2160735,717,0xD5,0xFF,Read,ACK
1.2161215,717,0xD5,0xE8,Read,ACK
1.2161695,717,0xD5,0xFF,Read,ACK
1.2162175,717,0xD5,0x0D,Read,ACK
1.2162655,717,0xD5,0x00,Read,NAK
1.2163995,718,0x52,0x02,Write,ACK
1.2165195,719,0x53,0x00,Read,ACK
1.2165675,719,0x53,0x00,Read,ACK
1.216615625,719,0x53,0x4F,Read,ACK
1.2166635,719,0x53,0xC0,Read,ACK
1.216712,719,0x53,0xB6,Read,ACK
1.216759875,719,0x53,0x00,Read,ACK
1.2168155,719,0x53,0xAB,Read,NAK
1.2256045,720,0xD4,0xA6,Write,ACK
1.2257255,721,0xD5,0x10,Read,ACK
1.2257735,721,0xD5,0x00,Read,NAK
1.2259075,722,0x52,0x02,Write,ACK
1.2260275,723,0x53,0x00,Read,ACK
1.2260755,723,0x53,0x00,Read,ACK
1.226123625,723,0x53,0x4F,Read,ACK
1.22617175,723,0x53,0xC0,Read,ACK
1.22622,723,0x53,0xB6,Read,ACK
1.226268125,723,0x53,0x00,Read,ACK
1.22632375,723,0x53,0xAB,Read,NAK
1.235604,724,0xD4,0xA6,Write,ACK
1.235725,725,0xD5,0x10,Read,ACK
1.235773,725,0xD5,0x0F,Read,NAK
1.235904,726,0xD4,0xA8,Write,ACK
1.236024,727,0xD5,0xFD,Read,ACK
1.236072,727,0xD5,0xFF,Read,ACK
1.23612,727,0xD5,0xF1,Read,ACK
1.236168,727,0xD5,0xFF,Read,ACK
1.236216,727,0xD5,0x11,Read,ACK
1.236264,727,0xD5,0x00,Read,NAK
1.236398,728,0x52,0x02,Write,ACK
1.236518,729,0x53,0x00,Read,ACK
1.236566,729,0x53,0x00,Read,ACK
1.236614125,729,0x53,0x4F,Read,ACK
1.236662,729,0x53,0xC0,Read,ACK
1.23671025,729,0x53,0xB6,Read,ACK
1.23675825,729,0x53,0x00,Read,ACK
1.236814,729,0x53,0xAB,Read,NAK
1.245602875,730,0xD4,0xA6,Write,ACK
1.245723875,731,0xD5,0x10,Read,ACK
1.245771875,731,0xD5,0x0F,Read,NAK
1.245902875,732,0xD4,0xA8,Write,ACK
1.246022875,733,0xD5,0x09,Read,ACK
1.246070875,733,0xD5,0x00,Read,ACK
1.246118875,733,0xD5,0xFF,Read,ACK
1.246166875,733,0xD5,0xFF,Read,ACK
1.246214875,733,0xD5,0x10,Read,ACK
1.246262875,733,0xD5,0x00,Read,NAK
1.246396875,734,0x52,0x02,Write,ACK
1.246516875,735,0x53,0x00,Read,ACK
1.246564875,735,0x53,0x00,Read,ACK
1.246613,735,0x53,0x4F,Read,ACK
1.246660875,735,0x53,0xC0,Read,ACK
1.246709125,735,0x53,0xB6,Read,ACK
1.246757125,735,0x53,0x00,Read,ACK
1.246812875,735,0x53,0xAB,Read,NAK
1.255602375,736,0xD4,0xA6,Write,ACK
1.255723375,737,0xD5,0x10,Read,ACK
1.255771375,737,0xD5,0x0F,Read,NAK
1.255902375,738,0xD4,0xA8,Write,ACK
1.256022375,739,0xD5,0x12,Read,ACK
1.256070375,739,0xD5,0x00,Read,ACK
1.256118375,739,0xD5,0x10,Read,ACK
1.256166375,739,0xD5,0x00,Read,ACK
1.256214375,739,0xD5,0x0D,Read,ACK
1.256262375,739,0xD5,0x00,Read,NAK
1.256396375,740,0x52,0x02,Write,ACK
1.256516375,741,0x53,0x00,Read,ACK
1.256564375,741,0x53,0x00,Read,ACK
1.256612625,741,0x53,0x4F,Read,ACK
1.25666075,741,0x53,0xC0,Read,ACK
1.256709,741,0x53,0xB6,Read,ACK
1.256757,741,0x53,0x00,Read,ACK
1.25681275,741,0x53,0xAB,Read,NAK
1.265601625,742,0xD4,0xA6,Write,ACK
1.265722625,743,0xD5,0x10,Read,ACK
1.265770625,743,0xD5,0x0F,Read,NAK
1.265901625,744,0xD4,0xA8,Write,ACK
1.266021625,745,0xD5,0x1A,Read,ACK
1.266069625,745,0xD5,0x00,Read,ACK
1.266117625,745,0xD5,0x1C,Read,ACK
1.266165625,745,0xD5,0x00,Read,ACK
1.266213625,745,0xD5,0x0A,Read,ACK
1.266261625,745,0xD5,0x00,Read,NAK
1.266395625,746,0x52,0x02,Write,ACK
1.266515625,747,0x53,0x00,Read,ACK
1.266563625,747,0x53,0x00,Read,ACK
1.26661175,747,0x53,0x4F,Read,ACK
1.266659875,747,0x53,0xC0,Read,ACK
1.266708125,747,0x53,0xB6,Read,ACK
1.26675625,747,0x53,0x00,Read,ACK
1.266811875,747,0x53,0xAB,Read,NAK
1.2756025,748,0xD4,0xA6,Write,ACK
1.2757235,749,0xD5,0x10,Read,ACK
1.2757715,749,0xD5,0x0F,Read,NAK
1.2759025,750,0xD4,0xA8,Write,ACK
1.2760225,751,0xD5,0x21,Read,ACK
1.2760705,751,0xD5,0x00,Read,ACK
1.2761185,751,0xD5,0x1D,Read,ACK
1.2761665,751,0xD5,0x00,Read,ACK
1.2762145,751,0xD5,0x08,Read,ACK
1.2762625,751,0xD5,0x00,Read,NAK
1.2763965,752,0x52,0x02,Write,ACK
1.2765165,753,0x53,0x00,Read,ACK
1.2765645,753,0x53,0x00,Read,ACK
1.276612625,753,0x53,0x4F,Read,ACK
1.27666075,753,0x53,0xC0,Read,ACK
1.276709125,753,0x53,0xB6,Read,ACK
1.276757125,753,0x53,0x00,Read,ACK
1.27681275,753,0x53,0xAB,Read,NAK
1.285602375,754,0xD4,0xA6,Write,ACK
1.285723375,755,0xD5,0x10,Read,ACK
1.285771375,755,0xD5,0x0F,Read,NAK
1.285902375,756,0xD4,0xA8,Write,ACK
1.286022375,757,0xD5,0x1F,Read,ACK
1.286070375,757,0xD5,0x00,Read,ACK
1.286118375,757,0xD5,0x15,Read,ACK
1.286166375,757,0xD5,0x00,Read,ACK
1.286214375,757,0xD5,0x04,Read,ACK
1.286262375,757,0xD5,0x00,Read,NAK
1.286396375,758,0x52,0x02,Write,ACK
1.286516375,759,0x53,0x00,Read,ACK
1.286564375,759,0x53,0x00,Read,ACK
1.2866125,759,0x53,0x4F,Read,ACK
1.286660375,759,0x53,0xC0,Read,ACK
1.286708625,759,0x53,0xB6,Read,ACK
1.286756625,759,0x53,0x00,Read,ACK
1.286812375,759,0x53,0xAB,Read,NAK
1.29560125,760,0xD4,0xA6,Write,ACK
1.29572225,761,0xD5,0x10,Read,ACK
1.29577025,761,0xD5,0x0F,Read,NAK
1.29590125,762,0xD4,0xA8,Write,ACK
1.29602125,763,0xD5,0x0D,Read,ACK
1.29606925,763,0xD5,0x00,Read,ACK
1.29611725,763,0xD5,0x0F,Read,ACK
1.29616525,763,0xD5,0x00,Read,ACK
1.29621325,763,0xD5,0xFD,Read,ACK
1.29626125,763,0xD5,0xFF,Read,NAK
1.29639525,764,0x52,0x02,Write,ACK
1.29651525,765,0x53,0x00,Read,ACK
1.29656325,765,0x53,0x00,Read,ACK
1.296611375,765,0x53,0x4F,Read,ACK
1.29665925,765,0x53,0xC0,Read,ACK
1.2967075,765,0x53,0xB6,Read,ACK
1.2967555,765,0x53,0x00,Read,ACK
1.29681125,765,0x53,0xAB,Read,NAK
1.305600125,766,0xD4,0xA6,Write,ACK
1.305721125,767,0xD5,0x10,Read,ACK
1.305769125,767,0xD5,0x0F,Read,NAK
1.305900125,768,0xD4,0xA8,Write,ACK
1.306020125,769,0xD5,0xF6,Read,ACK
1.306068125,769,0xD5,0xFF,Read,ACK
1.306116125,769,0xD5,0x0D,Read,ACK
1.306164125,769,0xD5,0x00,Read,ACK
1.306212125,769,0xD5,0xF8,Read,ACK
1.306260125,769,0xD5,0xFF,Read,NAK
1.306394125,770,0x52,0x02,Write,ACK
1.306514125,771,0x53,0x00,Read,ACK
1.306562125,771,0x53,0x00,Read,ACK
1.30661025,771,0x53,0x4F,Read,ACK
1.306658375,771,0x53,0xC0,Read,ACK
1.306706625,771,0x53,0xB6,Read,ACK
1.30675475,771,0x53,0x00,Read,ACK
1.306810375,771,0x53,0xAB,Read,NAK
1.315599,772,0xD4,0xA6,Write,ACK
1.31572,773,0xD5,0x10,Read,ACK
1.315768,773,0xD5,0x0F,Read,NAK
1.315899,774,0xD4,0xA8,Write,ACK
1.316019,775,0xD5,0xEA,Read,ACK
1.316067,775,0xD5,0xFF,Read,ACK
1.316115,775,0xD5,0x08,Read,ACK
1.316163,775,0xD5,0x00,Read,ACK
1.316211,775,0xD5,0xF5,Read,ACK
1.316259,775,0xD5,0xFF,Read,NAK
1.316393,776,0x52,0x02,Write,ACK
1.316513,777,0x53,0x00,Read,ACK
1.316561,777,0x53,0x00,Read,ACK
1.316609125,777,0x53,0x4F,Read,ACK
1.316657,777,0x53,0xC0,Read,ACK
1.316705375,777,0x53,0xB6,Read,ACK
1.31675325,777,0x53,0x00,Read,ACK
1.316809,777,0x53,0xAB,Read,NAK
1.325599875,778,0xD4,0xA6,Write,ACK
1.325720875,779,0xD5,0x10,Read,ACK
1.325768875,779,0xD5,0x0F,Read,NAK
1.325899875,780,0xD4,0xA8,Write,ACK
1.326019875,781,0xD5,0xF3,Read,ACK
1.326067875,781,0xD5,0xFF,Read,ACK
1.326115875,781,0xD5,0x02,Read,ACK
1.326163875,781,0xD5,0x00,Read,ACK
1.326211875,781,0xD5,0xF8,Read,ACK
1.326259875,781,0xD5,0xFF,Read,NAK
1.326393875,782,0x52,0x02,Write,ACK
1.326513875,783,0x53,0x00,Read,ACK
1.326561875,783,0x53,0x00,Read,ACK
1.32661,783,0x53,0x4F,Read,ACK
1.326657875,783,0x53,0xC0,Read,ACK
1.326706125,783,0x53,0xB6,Read,ACK
1.326754125,783,0x53,0x00,Read,ACK
1.326809875,783,0x53,0xAB,Read,NAK
1.335599125,784,0xD4,0xA6,Write,ACK
1.335720125,785,0xD5,0x10,Read,ACK
1.335768125,785,0xD5,0x0F,Read,NAK
1.335899125,786,0xD4,0xA8,Write,ACK
1.336019125,787,0xD5,0x01,Read,ACK
1.336067125,787,0xD5,0x00,Read,ACK
1.336115125,787,0xD5,0xFE,Read,ACK
1.336163125,787,0xD5,0xFF,Read,ACK
1.336211125,787,0xD5,0x00,Read,ACK
1.336259125,787,0xD5,0x00,Read,NAK
1.336393125,788,0x52,0x02,Write,ACK
1.336513125,789,0x53,0x00,Read,ACK
1.336561125,789,0x53,0x00,Read,ACK
1.336609375,789,0x53,0x4F,Read,ACK
1.336657375,789,0x53,0xC0,Read,ACK
1.336705625,789,0x53,0xB6,Read,ACK
1.33675375,789,0x53,0x00,Read,ACK
1.336809375,789,0x53,0xAB,Read,NAK
1.345583625,790,0xD4,0xA6,Write,ACK
1.345704625,791,0xD5,0x10,Read,ACK
1.345752625,791,0xD5,0x0F,Read,NAK
1.345883625,792,0xD4,0xA8,Write,ACK
1.346003625,793,0xD5,0x06,Read,ACK
1.346051625,793,0xD5,0x00,Read,ACK
1.346099625,793,0xD5,0x01,Read,ACK
1.346147625,793,0xD5,0x00,Read,ACK
1.346195625,793,0xD5,0x0C,Read,ACK
1.346243625,793,0xD5,0x00,Read,NAK
1.346377625,794,0x52,0x02,Write,ACK
1.346497625,795,0x53,0x00,Read,ACK
1.346545625,795,0x53,0x00,Read,ACK
1.346593875,795,0x53,0x4F,Read,ACK
1.346641875,795,0x53,0xC0,Read,ACK
1.346690125,795,0x53,0xB6,Read,ACK
1.34673825,795,0x53,0x00,Read,ACK
1.346793875,795,0x53,0xAB,Read,NAK
1.3555975,796,0xD4,0xA6,Write,ACK
1.3557185,797,0xD5,0x10,Read,ACK
1.3557665,797,0xD5,0x0F,Read,NAK
1.3558975,798,0xD4,0xA8,Write,ACK
1.3560175,799,0xD5,0x01,Read,ACK
1.3560655,799,0xD5,0x00,Read,ACK
1.3561135,799,0xD5,0x09,Read,ACK
1.3561615,799,0xD5,0x00,Read,ACK
1.3562095,799,0xD5,0x0F,Read,ACK
1.3562575,799,0xD5,0x00,Read,NAK
1.3563915,800,0x52,0x02,Write,ACK
1.3565115,801,0x53,0x00,Read,ACK
1.3565595,801,0x53,0x00,Read,ACK
1.356607625,801,0x53,0x4F,Read,ACK
1.3566555,801,0x53,0xC0,Read,ACK
1.35670375,801,0x53,0xB6,Read,ACK
1.35675175,801,0x53,0x00,Read,ACK
1.3568075,801,0x53,0xAB,Read,NAK
1.36559675,802,0xD4,0xA6,Write,ACK
1.36571775,803,0xD5,0x10,Read,ACK
1.36576575,803,0xD5,0x0F,Read,NAK
1.36589675,804,0xD4,0xA8,Write,ACK
1.36601675,805,0xD5,0xFC,Read,ACK
1.36606475,805,0xD5,0xFF,Read,ACK
1.36611275,805,0xD5,0x0B,Read,ACK
1.36616075,805,0xD5,0x00,Read,ACK
1.36620875,805,0xD5,0x06,Read,ACK
1.36625675,805,0xD5,0x00,Read,NAK
1.36639075,806,0x52,0x02,Write,ACK
1.36651075,807,0x53,0x00,Read,ACK
1.36655875,807,0x53,0x00,Read,ACK
1.36660675,807,0x53,0x4F,Read,ACK
1.366654625,807,0x53,0xC0,Read,ACK
1.366702875,807,0x53,0xB6,Read,ACK
1.366751,807,0x53,0x00,Read,ACK
1.366806625,807,0x53,0xAB,Read,NAK
1.375596,808,0xD4,0xA6,Write,ACK
1.375717,809,0xD5,0x10,Read,ACK
1.375765,809,0xD5,0x0F,Read,NAK
1.375895875,810,0xD4,0xA8,Write,ACK
1.376015875,811,0xD5,0xFE,Read,ACK
1.376063875,811,0xD5,0xFF,Read,ACK
1.376111875,811,0xD5,0x02,Read,ACK
1.376159875,811,0xD5,0x00,Read,ACK
1.376207875,811,0xD5,0xF7,Read,ACK
1.376255875,811,0xD5,0xFF,Read,NAK
1.376389875,812,0x52,0x02,Write,ACK
1.376509875,813,0x53,0x00,Read,ACK
1.376557875,813,0x53,0x00,Read,ACK
1.376606125,813,0x53,0x4F,Read,ACK
1.37665425,813,0x53,0xC0,Read,ACK
1.3767025,813,0x53,0xB6,Read,ACK
1.376750625,813,0x53,0x00,Read,ACK
1.37680625,813,0x53,0xAB,Read,NAK
1.385594875,814,0xD4,0xA6,Write,ACK
1.385715875,815,0xD5,0x10,Read,ACK
1.385763875,815,0xD5,0x0F,Read,NAK
1.38589475,816,0xD4,0xA8,Write,ACK
1.38601475,817,0xD5,0xFF,Read,ACK
1.38606275,817,0xD5,0xFF,Read,ACK
1.38611075,817,0xD5,0xF2,Read,ACK
1.38615875,817,0xD5,0xFF,Read,ACK
1.38620675,817,0xD5,0xF0,Read,ACK
1.38625475,817,0xD5,0xFF,Read,NAK
1.38638875,818,0x52,0x02,Write,ACK
1.38650875,819,0x53,0x00,Read,ACK
1.38655675,819,0x53,0x00,Read,ACK
1.386605,819,0x53,0x4F,Read,ACK
1.386653125,819,0x53,0xC0,Read,ACK
1.386701375,819,0x53,0xB6,Read,ACK
1.3867495,819,0x53,0x00,Read,ACK
1.386805125,819,0x53,0xAB,Read,NAK
1.39559675,820,0xD4,0xA6,Write,ACK
1.39571775,821,0xD5,0x10,Read,ACK
1.39576575,821,0xD5,0x0F,Read,NAK
1.395896625,822,0xD4,0xA8,Write,ACK
1.396016625,823,0xD5,0xFB,Read,ACK
1.396064625,823,0xD5,0xFF,Read,ACK
1.396112625,823,0xD5,0xE7,Read,ACK
1.396160625,823,0xD5,0xFF,Read,ACK
1.396208625,823,0xD5,0xF3,Read,ACK
1.396256625,823,0xD5,0xFF,Read,NAK
1.396390625,824,0x52,0x02,Write,ACK
1.396510625,825,0x53,0x00,Read,ACK
1.396558625,825,0x53,0x00,Read,ACK
1.39660675,825,0x53,0x4F,Read,ACK
1.396654625,825,0x53,0xC0,Read,ACK
1.396702875,825,0x53,0xB6,Read,ACK
1.396751,825,0x53,0x00,Read,ACK
1.396806625,825,0x53,0xAB,Read,NAK
1.405595875,826,0xD4,0xA6,Write,ACK
1.405716875,827,0xD5,0x10,Read,ACK
1.405764875,827,0xD5,0x00,Read,NAK
1.405898875,828,0x52,0x02,Write,ACK
1.406018875,829,0x53,0x00,Read,ACK
1.406066875,829,0x53,0x00,Read,ACK
1.406115125,829,0x53,0x4F,Read,ACK
1.40616325,829,0x53,0xC0,Read,ACK
1.4062115,829,0x53,0xB6,Read,ACK
1.4062595,829,0x53,0x00,Read,ACK
1.40631525,829,0x53,0xAB,Read,NAK
1.41559575,830,0xD4,0xA6,Write,ACK
1.41571675,831,0xD5,0x10,Read,ACK
1.41576475,831,0xD5,0x0F,Read,NAK
1.41589575,832,0xD4,0xA8,Write,ACK
1.41601575,833,0xD5,0xF9,Read,ACK
1.41606375,833,0xD5,0xFF,Read,ACK
1.41611175,833,0xD5,0xE9,Read,ACK
1.41615975,833,0xD5,0xFF,Read,ACK
1.41620775,833,0xD5,0xFC,Read,ACK
1.41625575,833,0xD5,0xFF,Read,NAK
1.41638975,834,0x52,0x02,Write,ACK
1.41650975,835,0x53,0x00,Read,ACK
1.41655775,835,0x53,0x00,Read,ACK
1.416605875,835,0x53,0x4F,Read,ACK
1.416654125,835,0x53,0xC0,Read,ACK
1.4167025,835,0x53,0xB6,Read,ACK
1.416750375,835,0x53,0x00,Read,ACK
1.416806125,835,0x53,0xAB,Read,NAK
1.425595375,836,0xD4,0xA6,Write,ACK
1.425716375,837,0xD5,0x10,Read,ACK
1.425764375,837,0xD5,0x0F,Read,NAK
1.425895375,838,0xD4,0xA8,Write,ACK
1.42601525,839,0xD5,0xFD,Read,ACK
1.42606325,839,0xD5,0xFF,Read,ACK
1.42611125,839,0xD5,0xF3,Read,ACK
1.42615925,839,0xD5,0xFF,Read,ACK
1.42620725,839,0xD5,0x03,Read,ACK
1.42625525,839,0xD5,0x00,Read,NAK
1.42638925,840,0x52,0x02,Write,ACK
1.42650925,841,0x53,0x00,Read,ACK
1.42655725,841,0x53,0x00,Read,ACK
1.426605375,841,0x53,0x4F,Read,ACK
1.42665325,841,0x53,0xC0,Read,ACK
1.426701625,841,0x53,0xB6,Read,ACK
1.426749625,841,0x53,0x00,Read,ACK
1.42680525,841,0x53,0xAB,Read,NAK
1.4355945,842,0xD4,0xA6,Write,ACK
1.4357155,843,0xD5,0x10,Read,ACK
1.4357635,843,0xD5,0x0F,Read,NAK
1.4358945,844,0xD4,0xA8,Write,ACK
1.4360145,845,0xD5,0x03,Read,ACK
1.4360625,845,0xD5,0x00,Read,ACK
1.4361105,845,0xD5,0xFC,Read,ACK
1.4361585,845,0xD5,0xFF,Read,ACK
1.4362065,845,0xD5,0x03,Read,ACK
1.4362545,845,0xD5,0x00,Read,NAK
1.4363885,846,0x52,0x02,Write,ACK
1.4365085,847,0x53,0x00,Read,ACK
1.4365565,847,0x53,0x00,Read,ACK
1.436604625,847,0x53,0x4F,Read,ACK
1.4366525,847,0x53,0xC0,Read,ACK
1.436700875,847,0x53,0xB6,Read,ACK
1.436748875,847,0x53,0x00,Read,ACK
1.4368045,847,0x53,0xAB,Read,NAK
1.44559375,848,0xD4,0xA6,Write,ACK
1.445715375,849,0xD5,0x10,Read,ACK
1.445763375,849,0xD5,0x0F,Read,NAK
1.445901125,850,0xD4,0xA8,Write,ACK
1.446025375,851,0xD5,0x00,Read,ACK
1.446073375,851,0xD5,0x00,Read,ACK
1.446121375,851,0xD5,0x03,Read,ACK
1.446169375,851,0xD5,0x00,Read,ACK
1.446217375,851,0xD5,0xFD,Read,ACK
1.446265375,851,0xD5,0xFF,Read,NAK
1.446406375,852,0x52,0x02,Write,ACK
1.44653,853,0x53,0x00,Read,ACK
1.446578,853,0x53,0x00,Read,ACK
1.446626125,853,0x53,0x4F,Read,ACK
1.446674,853,0x53,0xC0,Read,ACK
1.446722375,853,0x53,0xB6,Read,ACK
1.446770375,853,0x53,0x00,Read,ACK
1.446828,853,0x53,0xAB,Read,NAK
1.455579625,854,0xD4,0xA6,Write,ACK
1.455700625,855,0xD5,0x10,Read,ACK
1.455748625,855,0xD5,0x0F,Read,NAK
1.455879625,856,0xD4,0xA8,Write,ACK
1.455999625,857,0xD5,0xF5,Read,ACK
1.456047625,857,0xD5,0xFF,Read,ACK
1.456095625,857,0xD5,0x06,Read,ACK
1.456143625,857,0xD5,0x00,Read,ACK
1.456191625,857,0xD5,0xF8,Read,ACK
1.456239625,857,0xD5,0xFF,Read,NAK
1.456373625,858,0x52,0x02,Write,ACK
1.456493625,859,0x53,0x00,Read,ACK
1.456541625,859,0x53,0x00,Read,ACK
1.45658975,859,0x53,0x4F,Read,ACK
1.456637625,859,0x53,0xC0,Read,ACK
1.456685875,859,0x53,0xB6,Read,ACK
1.456733875,859,0x53,0x00,Read,ACK
1.456789625,859,0x53,0xAB,Read,NAK
1.4655915,860,0xD4,0xA6,Write,ACK
1.4657125,861,0xD5,0x10,Read,ACK
1.4657605,861,0xD5,0x0F,Read,NAK
1.4658915,862,0xD4,0xA8,Write,ACK
1.4660115,863,0xD5,0xEC,Read,ACK
1.4660595,863,0xD5,0xFF,Read,ACK
1.4661075,863,0xD5,0xFF,Read,ACK
1.4661555,863,0xD5,0xFF,Read,ACK
1.4662035,863,0xD5,0xFA,Read,ACK
1.4662515,863,0xD5,0xFF,Read,NAK
1.4663855,864,0x52,0x02,Write,ACK
1.4665055,865,0x53,0x00,Read,ACK
1.4665535,865,0x53,0x00,Read,ACK
1.466601625,865,0x53,0x4F,Read,ACK
1.46664975,865,0x53,0xC0,Read,ACK
1.466698,865,0x53,0xB6,Read,ACK
1.466746125,865,0x53,0x00,Read,ACK
1.46680175,865,0x53,0xAB,Read,NAK
1.475592375,866,0xD4,0xA6,Write,ACK
1.475713375,867,0xD5,0x10,Read,ACK
1.475761375,867,0xD5,0x0F,Read,NAK
1.475892375,868,0xD4,0xA8,Write,ACK
1.476012375,869,0xD5,0xE9,Read,ACK
1.476060375,869,0xD5,0xFF,Read,ACK
1.476108375,869,0xD5,0xED,Read,ACK
1.476156375,869,0xD5,0xFF,Read,ACK
1.476204375,869,0xD5,0x00,Read,ACK
1.476252375,869,0xD5,0x00,Read,NAK
1.476386375,870,0x52,0x02,Write,ACK
1.476506375,871,0x53,0x00,Read,ACK
1.476554375,871,0x53,0x00,Read,ACK
1.4766025,871,0x53,0x4F,Read,ACK
1.476650625,871,0x53,0xC0,Read,ACK
1.476698875,871,0x53,0xB6,Read,ACK
1.476747,871,0x53,0x00,Read,ACK
1.476802625,871,0x53,0xAB,Read,NAK
1.485577625,872,0xD4,0xA6,Write,ACK
1.485698625,873,0xD5,0x10,Read,ACK
1.485746625,873,0xD5,0x0F,Read,NAK
1.485877625,874,0xD4,0xA8,Write,ACK
1.485997625,875,0xD5,0xE8,Read,ACK
1.486045625,875,0xD5,0xFF,Read,ACK
1.486093625,875,0xD5,0xDC,Read,ACK
1.486141625,875,0xD5,0xFF,Read,ACK
1.486189625,875,0xD5,0x05,Read,ACK
1.486237625,875,0xD5,0x00,Read,NAK
1.4863715,876,0x52,0x02,Write,ACK
1.4864915,877,0x53,0x00,Read,ACK
1.4865395,877,0x53,0x00,Read,ACK
1.48658775,877,0x53,0x4F,Read,ACK
1.486635875,877,0x53,0xC0,Read,ACK
1.486684125,877,0x53,0xB6,Read,ACK
1.48673225,877,0x53,0x00,Read,ACK
1.486787875,877,0x53,0xAB,Read,NAK
1.4955915,878,0xD4,0xA6,Write,ACK
1.4957125,879,0xD5,0x10,Read,ACK
1.4957605,879,0xD5,0x0F,Read,NAK
1.4958915,880,0xD4,0xA8,Write,ACK
1.4960115,881,0xD5,0xE9,Read,ACK
1.4960595,881,0xD5,0xFF,Read,ACK
1.4961075,881,0xD5,0xDB,Read,ACK
1.4961555,881,0xD5,0xFF,Read,ACK
1.4962035,881,0xD5,0x06,Read,ACK
1.4962515,881,0xD5,0x00,Read,NAK
1.496385375,882,0x52,0x02,Write,ACK
1.496505375,883,0x53,0x00,Read,ACK
1.496553375,883,0x53,0x00,Read,ACK
1.496601625,883,0x53,0x4F,Read,ACK
1.49664975,883,0x53,0xC0,Read,ACK
1.496698,883,0x53,0xB6,Read,ACK
1.496746125,883,0x53,0x00,Read,ACK
1.49680175,883,0x53,0xAB,Read,NAK
1.505590625,884,0xD4,0xA6,Write,ACK
1.505711625,885,0xD5,0x10,Read,ACK
1.505759625,885,0xD5,0x0F,Read,NAK
1.505890625,886,0xD4,0xA8,Write,ACK
1.506010625,887,0xD5,0xEB,Read,ACK
1.506058625,887,0xD5,0xFF,Read,ACK
1.506106625,887,0xD5,0xED,Read,ACK
1.506154625,887,0xD5,0xFF,Read,ACK
1.506202625,887,0xD5,0x03,Read,ACK
1.506250625,887,0xD5,0x00,Read,NAK
1.506384625,888,0x52,0x02,Write,ACK
1.506504625,889,0x53,0x00,Read,ACK
1.506552625,889,0x53,0x00,Read,ACK
1.50660075,889,0x53,0x4F,Read,ACK
1.506648625,889,0x53,0xC0,Read,ACK
1.506696875,889,0x53,0xB6,Read,ACK
1.506745,889,0x53,0x00,Read,ACK
1.506800625,889,0x53,0xAB,Read,NAK
1.5155895,890,0xD4,0xA6,Write,ACK
1.5157105,891,0xD5,0x10,Read,ACK
1.5157585,891,0xD5,0x0F,Read,NAK
1.5158895,892,0xD4,0xA8,Write,ACK
1.5160095,893,0xD5,0xED,Read,ACK
1.5160575,893,0xD5,0xFF,Read,ACK
1.5161055,893,0xD5,0x00,Read,ACK
1.5161535,893,0xD5,0x00,Read,ACK
1.5162015,893,0xD5,0x01,Read,ACK
1.5162495,893,0xD5,0x00,Read,NAK
1.5163835,894,0x52,0x02,Write,ACK
1.5165035,895,0x53,0x00,Read,ACK
1.5165515,895,0x53,0x00,Read,ACK
1.51659975,895,0x53,0x4F,Read,ACK
1.516647875,895,0x53,0xC0,Read,ACK
1.51669625,895,0x53,0xB6,Read,ACK
1.516744125,895,0x53,0x00,Read,ACK
1.516799875,895,0x53,0xAB,Read,NAK
1.525575375,896,0xD4,0xA6,Write,ACK
1.525696375,897,0xD5,0x10,Read,ACK
1.525744375,897,0xD5,0x0F,Read,NAK
1.525875375,898,0xD4,0xA8,Write,ACK
1.525995375,899,0xD5,0xED,Read,ACK
1.526043375,899,0xD5,0xFF,Read,ACK
1.526091375,899,0xD5,0x08,Read,ACK
1.526139375,899,0xD5,0x00,Read,ACK
1.526187375,899,0xD5,0xFC,Read,ACK
1.526235375,899,0xD5,0xFF,Read,NAK
1.526369375,900,0x52,0x02,Write,ACK
1.526489375,901,0x53,0x00,Read,ACK
1.526537375,901,0x53,0x00,Read,ACK
1.526585625,901,0x53,0x4F,Read,ACK
1.52663375,901,0x53,0xC0,Read,ACK
1.526682,901,0x53,0xB6,Read,ACK
1.52673,901,0x53,0x00,Read,ACK
1.52678575,901,0x53,0xAB,Read,NAK
1.53559025,902,0xD4,0xA6,Write,ACK
1.53571125,903,0xD5,0x10,Read,ACK
1.53575925,903,0xD5,0x0F,Read,NAK
1.53589025,904,0xD4,0xA8,Write,ACK
1.53601025,905,0xD5,0xF0,Read,ACK
1.53605825,905,0xD5,0xFF,Read,ACK
1.53610625,905,0xD5,0x07,Read,ACK
1.53615425,905,0xD5,0x00,Read,ACK
1.53620225,905,0xD5,0xF4,Read,ACK
1.53625025,905,0xD5,0xFF,Read,NAK
1.53638425,906,0x52,0x02,Write,ACK
1.53650425,907,0x53,0x00,Read,ACK
1.53655225,907,0x53,0x00,Read,ACK
1.5366005,907,0x53,0x4F,Read,ACK
1.536648625,907,0x53,0xC0,Read,ACK
1.536696875,907,0x53,0xB6,Read,ACK
1.536744875,907,0x53,0x00,Read,ACK
1.536800625,907,0x53,0xAB,Read,NAK
1.54558925,908,0xD4,0xA6,Write,ACK
1.54571025,909,0xD5,0x10,Read,ACK
1.545758125,909,0xD5,0x0F,Read,NAK
1.545889125,910,0xD4,0xA8,Write,ACK
1.546009125,911,0xD5,0xFA,Read,ACK
1.546057125,911,0xD5,0xFF,Read,ACK
1.546105125,911,0xD5,0x05,Read,ACK
1.546153125,911,0xD5,0x00,Read,ACK
1.546201125,911,0xD5,0xEA,Read,ACK
1.546249125,911,0xD5,0xFF,Read,NAK
1.546383125,912,0x52,0x02,Write,ACK
1.546503125,913,0x53,0x00,Read,ACK
1.546551125,913,0x53,0x00,Read,ACK
1.54659925,913,0x53,0x4F,Read,ACK
1.546647125,913,0x53,0xC0,Read,ACK
1.546695375,913,0x53,0xB6,Read,ACK
1.5467435,913,0x53,0x00,Read,ACK
1.546799125,913,0x53,0xAB,Read,NAK
1.555588375,914,0xD4,0xA6,Write,ACK
1.555709375,915,0xD5,0x10,Read,ACK
1.555757375,915,0xD5,0x0F,Read,NAK
1.555888375,916,0xD4,0xA8,Write,ACK
1.556008375,917,0xD5,0x07,Read,ACK
1.556056375,917,0xD5,0x00,Read,ACK
1.556104375,917,0xD5,0x04,Read,ACK
1.556152375,917,0xD5,0x00,Read,ACK
1.556200375,917,0xD5,0xE2,Read,ACK
1.556248375,917,0xD5,0xFF,Read,NAK
1.556382375,918,0x52,0x02,Write,ACK
1.556502375,919,0x53,0x00,Read,ACK
1.556550375,919,0x53,0x00,Read,ACK
1.5565985,919,0x53,0x4F,Read,ACK
1.556646625,919,0x53,0xC0,Read,ACK
1.556695,919,0x53,0xB6,Read,ACK
1.556743,919,0x53,0x00,Read,ACK
1.556798625,919,0x53,0xAB,Read,NAK
1.56558725,920,0xD4,0xA6,Write,ACK
1.56570825,921,0xD5,0x10,Read,ACK
1.56575625,921,0xD5,0x0F,Read,NAK
1.56588725,922,0xD4,0xA8,Write,ACK
1.56600725,923,0xD5,0x0B,Read,ACK
1.56605525,923,0xD5,0x00,Read,ACK
1.56610325,923,0xD5,0x03,Read,ACK
1.56615125,923,0xD5,0x00,Read,ACK
1.56619925,923,0xD5,0xE1,Read,ACK
1.56624725,923,0xD5,0xFF,Read,NAK
1.56638125,924,0x52,0x02,Write,ACK
1.56650125,925,0x53,0x00,Read,ACK
1.56654925,925,0x53,0x00,Read,ACK
1.566597375,925,0x53,0x4F,Read,ACK
1.5666455,925,0x53,0xC0,Read,ACK
1.566693875,925,0x53,0xB6,Read,ACK
1.566741875,925,0x53,0x00,Read,ACK
1.5667975,925,0x53,0xAB,Read,NAK
1.5755875,926,0xD4,0xA6,Write,ACK
1.5757085,927,0xD5,0x10,Read,ACK
1.5757565,927,0xD5,0x0F,Read,NAK
1.5758875,928,0xD4,0xA8,Write,ACK
1.5760075,929,0xD5,0x01,Read,ACK
1.5760555,929,0xD5,0x00,Read,ACK
1.5761035,929,0xD5,0x01,Read,ACK
1.5761515,929,0xD5,0x00,Read,ACK
1.5761995,929,0xD5,0xE6,Read,ACK
1.5762475,929,0xD5,0xFF,Read,NAK
1.5763815,930,0x52,0x02,Write,ACK
1.5765015,931,0x53,0x00,Read,ACK
1.5765495,931,0x53,0x00,Read,ACK
1.5765975,931,0x53,0x4F,Read,ACK
1.576645375,931,0x53,0xC0,Read,ACK
1.576693625,931,0x53,0xB6,Read,ACK
1.57674175,931,0x53,0x00,Read,ACK
1.576797375,931,0x53,0xAB,Read,NAK
1.585587375,932,0xD4,0xA6,Write,ACK
1.585708375,933,0xD5,0x10,Read,ACK
1.585756375,933,0xD5,0x00,Read,NAK
1.585890375,934,0x52,0x02,Write,ACK
1.586010375,935,0x53,0x00,Read,ACK
1.586058375,935,0x53,0x00,Read,ACK
1.5861065,935,0x53,0x4F,Read,ACK
1.586154375,935,0x53,0xC0,Read,ACK
1.586202625,935,0x53,0xB6,Read,ACK
1.586250625,935,0x53,0x00,Read,ACK
1.586306375,935,0x53,0xAB,Read,NAK
1.595587625,936,0xD4,0xA6,Write,ACK
1.595708625,937,0xD5,0x10,Read,ACK
1.595756625,937,0xD5,0x0F,Read,NAK
1.5958875,938,0xD4,0xA8,Write,ACK
1.5960075,939,0xD5,0xF2,Read,ACK
1.5960555,939,0xD5,0xFF,Read,ACK
1.5961035,939,0xD5,0xF9,Read,ACK
1.5961515,939,0xD5,0xFF,Read,ACK
1.5961995,939,0xD5,0xEE,Read,ACK
1.5962475,939,0xD5,0xFF,Read,NAK
1.5963815,940,0x52,0x02,Write,ACK
1.5965015,941,0x53,0x00,Read,ACK
1.5965495,941,0x53,0x00,Read,ACK
1.596597625,941,0x53,0x4F,Read,ACK
1.5966455,941,0x53,0xC0,Read,ACK
1.59669375,941,0x53,0xB6,Read,ACK
1.596741875,941,0x53,0x00,Read,ACK
1.5967975,941,0x53,0xAB,Read,NAK
1.6055875,942,0xD4,0xA6,Write,ACK
1.6057085,943,0xD5,0x10,Read,ACK
1.6057565,943,0xD5,0x0F,Read,NAK
1.605887375,944,0xD4,0xA8,Write,ACK
1.606007375,945,0xD5,0xE8,Read,ACK
1.606055375,945,0xD5,0xFF,Read,ACK
1.606103375,945,0xD5,0xF0,Read,ACK
1.606151375,945,0xD5,0xFF,Read,ACK
1.606199375,945,0xD5,0xF7,Read,ACK
1.606247375,945,0xD5,0xFF,Read,NAK
1.606381375,946,0x52,0x02,Write,ACK
1.606501375,947,0x53,0x00,Read,ACK
1.606549375,947,0x53,0x00,Read,ACK
1.6065975,947,0x53,0x4F,Read,ACK
1.60664575,947,0x53,0xC0,Read,ACK
1.606694,947,0x53,0xB6,Read,ACK
1.606742125,947,0x53,0x00,Read,ACK
1.60679775,947,0x53,0xAB,Read,NAK
1.615586625,948,0xD4,0xA6,Write,ACK
1.615707625,949,0xD5,0x10,Read,ACK
1.615755625,949,0xD5,0x0F,Read,NAK
1.615886625,950,0xD4,0xA8,Write,ACK
1.616006625,951,0xD5,0xEA,Read,ACK
1.616054625,951,0xD5,0xFF,Read,ACK
1.616102625,951,0xD5,0xEC,Read,ACK
1.616150625,951,0xD5,0xFF,Read,ACK
1.616198625,951,0xD5,0x00,Read,ACK
1.616246625,951,0xD5,0x00,Read,NAK
1.616380625,952,0x52,0x02,Write,ACK
1.616500625,953,0x53,0x00,Read,ACK
1.616548625,953,0x53,0x00,Read,ACK
1.616596875,953,0x53,0x4F,Read,ACK
1.616645,953,0x53,0xC0,Read,ACK
1.61669325,953,0x53,0xB6,Read,ACK
1.61674125,953,0x53,0x00,Read,ACK
1.616797,953,0x53,0xAB,Read,NAK
1.625570875,954,0xD4,0xA6,Write,ACK
1.625691875,955,0xD5,0x10,Read,ACK
1.625739875,955,0xD5,0x0F,Read,NAK
1.625870875,956,0xD4,0xA8,Write,ACK
1.625990875,957,0xD5,0xF4,Read,ACK
1.626038875,957,0xD5,0xFF,Read,ACK
1.626086875,957,0xD5,0xF2,Read,ACK
1.626134875,957,0xD5,0xFF,Read,ACK
1.626182875,957,0xD5,0x04,Read,ACK
1.626230875,957,0xD5,0x00,Read,NAK
1.626364875,958,0x52,0x02,Write,ACK
1.626484875,959,0x53,0x00,Read,ACK
1.626532875,959,0x53,0x00,Read,ACK
1.626581,959,0x53,0x4F,Read,ACK
1.626629125,959,0x53,0xC0,Read,ACK
1.626677375,959,0x53,0xB6,Read,ACK
1.6267255,959,0x53,0x00,Read,ACK
1.626781125,959,0x53,0xAB,Read,NAK
1.635584375,960,0xD4,0xA6,Write,ACK
1.635705375,961,0xD5,0x10,Read,ACK
1.635753375,961,0xD5,0x0F,Read,NAK
1.635884375,962,0xD4,0xA8,Write,ACK
1.636004375,963,0xD5,0xFB,Read,ACK
1.636052375,963,0xD5,0xFF,Read,ACK
1.636100375,963,0xD5,0xFF,Read,ACK
1.636148375,963,0xD5,0xFF,Read,ACK
1.636196375,963,0xD5,0x05,Read,ACK
1.636244375,963,0xD5,0x00,Read,NAK
1.636378375,964,0x52,0x02,Write,ACK
1.636498375,965,0x53,0x00,Read,ACK
1.636546375,965,0x53,0x00,Read,ACK
1.6365945,965,0x53,0x4F,Read,ACK
1.636642375,965,0x53,0xC0,Read,ACK
1.636690625,965,0x53,0xB6,Read,ACK
1.63673875,965,0x53,0x00,Read,ACK
1.636794375,965,0x53,0xAB,Read,NAK
1.64558425,966,0xD4,0xA6,Write,ACK
1.64570525,967,0xD5,0x10,Read,ACK
1.64575325,967,0xD5,0x0F,Read,NAK
1.64588425,968,0xD4,0xA8,Write,ACK
1.64600425,969,0xD5,0xFA,Read,ACK
1.64605225,969,0xD5,0xFF,Read,ACK
1.64610025,969,0xD5,0x0B,Read,ACK
1.64614825,969,0xD5,0x00,Read,ACK
1.64619625,969,0xD5,0x04,Read,ACK
1.64624425,969,0xD5,0x00,Read,NAK
1.64637825,970,0x52,0x02,Write,ACK
1.64649825,971,0x53,0x00,Read,ACK
1.64654625,971,0x53,0x00,Read,ACK
1.6465945,971,0x53,0x4F,Read,ACK
1.646642625,971,0x53,0xC0,Read,ACK
1.646690875,971,0x53,0xB6,Read,ACK
1.646738875,971,0x53,0x00,Read,ACK
1.646794625,971,0x53,0xAB,Read,NAK
1.6555835,972,0xD4,0xA6,Write,ACK
1.6557045,973,0xD5,0x10,Read,ACK
1.6557525,973,0xD5,0x0F,Read,NAK
1.6558835,974,0xD4,0xA8,Write,ACK
1.6560035,975,0xD5,0xF6,Read,ACK
1.6560515,975,0xD5,0xFF,Read,ACK
1.6560995,975,0xD5,0x15,Read,ACK
1.6561475,975,0xD5,0x00,Read,ACK
1.6561955,975,0xD5,0x02,Read,ACK
1.6562435,975,0xD5,0x00,Read,NAK
1.6563775,976,0x52,0x02,Write,ACK
1.6564975,977,0x53,0x00,Read,ACK
1.6565455,977,0x53,0x00,Read,ACK
1.656593625,977,0x53,0x4F,Read,ACK
1.65664175,977,0x53,0xC0,Read,ACK
1.65669025,977,0x53,0xB6,Read,ACK
1.656738125,977,0x53,0x00,Read,ACK
1.65679375,977,0x53,0xAB,Read,NAK
1.66558275,978,0xD4,0xA6,Write,ACK
1.66570375,979,0xD5,0x10,Read,ACK
1.66575175,979,0xD5,0x0F,Read,NAK
1.66588275,980,0xD4,0xA8,Write,ACK
1.66600275,981,0xD5,0xF5,Read,ACK
1.66605075,981,0xD5,0xFF,Read,ACK
1.66609875,981,0xD5,0x1A,Read,ACK
1.66614675,981,0xD5,0x00,Read,ACK
1.666194625,981,0xD5,0xFE,Read,ACK
1.666242625,981,0xD5,0xFF,Read,NAK
1.666376625,982,0x52,0x02,Write,ACK
1.666496625,983,0x53,0x00,Read,ACK
1.666544625,983,0x53,0x00,Read,ACK
1.666592875,983,0x53,0x4F,Read,ACK
1.666641,983,0x53,0xC0,Read,ACK
1.66668925,983,0x53,0xB6,Read,ACK
1.666737375,983,0x53,0x00,Read,ACK
1.666793,983,0x53,0xAB,Read,NAK
1.675584625,984,0xD4,0xA6,Write,ACK
1.675705625,985,0xD5,0x10,Read,ACK
1.675753625,985,0xD5,0x0F,Read,NAK
1.675884625,986,0xD4,0xA8,Write,ACK
1.676004625,987,0xD5,0xFA,Read,ACK
1.676052625,987,0xD5,0xFF,Read,ACK
1.676100625,987,0xD5,0x15,Read,ACK
1.676148625,987,0xD5,0x00,Read,ACK
1.6761965,987,0xD5,0xFB,Read,ACK
1.6762445,987,0xD5,0xFF,Read,NAK
1.6763785,988,0x52,0x02,Write,ACK
1.6764985,989,0x53,0x00,Read,ACK
1.6765465,989,0x53,0x00,Read,ACK
1.67659475,989,0x53,0x4F,Read,ACK
1.676642875,989,0x53,0xC0,Read,ACK
1.676691125,989,0x53,0xB6,Read,ACK
1.67673925,989,0x53,0x00,Read,ACK
1.676794875,989,0x53,0xAB,Read,NAK
1.68558275,990,0xD4,0xA6,Write,ACK
1.68570375,991,0xD5,0x10,Read,ACK
1.68575175,991,0xD5,0x0F,Read,NAK
1.68588275,992,0xD4,0xA8,Write,ACK
1.68600275,993,0xD5,0xFC,Read,ACK
1.68605075,993,0xD5,0xFF,Read,ACK
1.68609875,993,0xD5,0x04,Read,ACK
1.68614675,993,0xD5,0x00,Read,ACK
1.68619475,993,0xD5,0xFD,Read,ACK
1.68624275,993,0xD5,0xFF,Read,NAK
1.68637675,994,0x52,0x02,Write,ACK
1.68649675,995,0x53,0x00,Read,ACK
1.68654475,995,0x53,0x00,Read,ACK
1.686593,995,0x53,0x4F,Read,ACK
1.686641125,995,0x53,0xC0,Read,ACK
1.68668925,995,0x53,0xB6,Read,ACK
1.686737375,995,0x53,0x00,Read,ACK
1.686793125,995,0x53,0xAB,Read,NAK
1.695583375,996,0xD4,0xA6,Write,ACK
1.695704375,997,0xD5,0x10,Read,ACK
1.695752375,997,0xD5,0x0F,Read,NAK
1.695883375,998,0xD4,0xA8,Write,ACK
1.696003375,999,0xD5,0xF7,Read,ACK
1.696051375,999,0xD5,0xFF,Read,ACK
1.696099375,999,0xD5,0xF6,Read,ACK
1.696147375,999,0xD5,0xFF,Read,ACK
1.696195375,999,0xD5,0x00,Read,ACK
1.696243375,999,0xD5,0x00,Read,NAK
1.69637725,1000,0x52,0x02,Write,ACK
1.69649725,1001,0x53,0x00,Read,ACK
1.69654525,1001,0x53,0x00,Read,ACK
1.696593375,1001,0x53,0x4F,Read,ACK
1.69664125,1001,0x53,0xC0,Read,ACK
1.696689625,1001,0x53,0xB6,Read,ACK
1.696737625,1001,0x53,0x00,Read,ACK
1.69679325,1001,0x53,0xAB,Read,NAK
1.705568875,1002,0xD4,0xA6,Write,ACK
1.705689875,1003,0xD5,0x10,Read,ACK
1.705737875,1003,0xD5,0x0F,Read,NAK
1.705868875,1004,0xD4,0xA8,Write,ACK
1.705988875,1005,0xD5,0xF0,Read,ACK
1.706036875,1005,0xD5,0xFF,Read,ACK
1.706084875,1005,0xD5,0xF4,Read,ACK
1.706132875,1005,0xD5,0xFF,Read,ACK
1.706180875,1005,0xD5,0xFF,Read,ACK
1.706228875,1005,0xD5,0xFF,Read,NAK
1.706362875,1006,0x52,0x02,Write,ACK
1.706482875,1007,0x53,0x00,Read,ACK
1.706530875,1007,0x53,0x00,Read,ACK
1.706579,1007,0x53,0x4F,Read,ACK
1.706627125,1007,0x53,0xC0,Read,ACK
1.706675375,1007,0x53,0xB6,Read,ACK
1.7067235,1007,0x53,0x00,Read,ACK
1.706779125,1007,0x53,0xAB,Read,NAK
1.715581375,1008,0xD4,0xA6,Write,ACK
1.715702375,1009,0xD5,0x10,Read,ACK
1.715750375,1009,0xD5,0x0F,Read,NAK
1.715881375,1010,0xD4,0xA8,Write,ACK
1.716001375,1011,0xD5,0xF2,Read,ACK
1.716049375,1011,0xD5,0xFF,Read,ACK
1.716097375,1011,0xD5,0xFE,Read,ACK
1.716145375,1011,0xD5,0xFF,Read,ACK
1.716193375,1011,0xD5,0xFC,Read,ACK
1.716241375,1011,0xD5,0xFF,Read,NAK
1.716375375,1012,0x52,0x02,Write,ACK
1.716495375,1013,0x53,0x00,Read,ACK
1.716543375,1013,0x53,0x00,Read,ACK
1.7165915,1013,0x53,0x4F,Read,ACK
1.716639375,1013,0x53,0xC0,Read,ACK
1.716687625,1013,0x53,0xB6,Read,ACK
1.71673575,1013,0x53,0x00,Read,ACK
1.716791375,1013,0x53,0xAB,Read,NAK
1.72558025,1014,0xD4,0xA6,Write,ACK
1.72570125,1015,0xD5,0x10,Read,ACK
1.72574925,1015,0xD5,0x0F,Read,NAK
1.72588025,1016,0xD4,0xA8,Write,ACK
1.72600025,1017,0xD5,0xFB,Read,ACK
1.72604825,1017,0xD5,0xFF,Read,ACK
1.72609625,1017,0xD5,0x09,Read,ACK
1.72614425,1017,0xD5,0x00,Read,ACK
1.72619225,1017,0xD5,0xF9,Read,ACK
1.72624025,1017,0xD5,0xFF,Read,NAK
1.72637425,1018,0x52,0x02,Write,ACK
1.72649425,1019,0x53,0x00,Read,ACK
1.72654225,1019,0x53,0x00,Read,ACK
1.726590375,1019,0x53,0x4F,Read,ACK
1.72663825,1019,0x53,0xC0,Read,ACK
1.7266865,1019,0x53,0xB6,Read,ACK
1.726734625,1019,0x53,0x00,Read,ACK
1.72679025,1019,0x53,0xAB,Read,NAK
1.7355795,1020,0xD4,0xA6,Write,ACK
1.7357005,1021,0xD5,0x10,Read,ACK
1.7357485,1021,0xD5,0x0F,Read,NAK
1.7358795,1022,0xD4,0xA8,Write,ACK
1.7359995,1023,0xD5,0x01,Read,ACK
1.7360475,1023,0xD5,0x00,Read,ACK
1.7360955,1023,0xD5,0x11,Read,ACK
1.7361435,1023,0xD5,0x00,Read,ACK
1.7361915,1023,0xD5,0xF9,Read,ACK
1.7362395,1023,0xD5,0xFF,Read,NAK
1.7363735,1024,0x52,0x02,Write,ACK
1.7364935,1025,0x53,0x00,Read,ACK
1.7365415,1025,0x53,0x00,Read,ACK
1.736589625,1025,0x53,0x4F,Read,ACK
1.7366375,1025,0x53,0xC0,Read,ACK
1.73668575,1025,0x53,0xB6,Read,ACK
1.73673375,1025,0x53,0x00,Read,ACK
1.7367895,1025,0x53,0xAB,Read,NAK
1.745579,1026,0xD4,0xA6,Write,ACK
1.7457,1027,0xD5,0x10,Read,ACK
1.745748,1027,0xD5,0x0F,Read,NAK
1.745879,1028,0xD4,0xA8,Write,ACK
1.745999,1029,0xD5,0xFC,Read,ACK
1.746047,1029,0xD5,0xFF,Read,ACK
1.746095,1029,0xD5,0x17,Read,ACK
1.746143,1029,0xD5,0x00,Read,ACK
1.746191,1029,0xD5,0xFB,Read,ACK
1.746239,1029,0xD5,0xFF,Read,NAK
1.746373,1030,0x52,0x02,Write,ACK
1.746493,1031,0x53,0x00,Read,ACK
1.746541,1031,0x53,0x00,Read,ACK
1.746589125,1031,0x53,0x4F,Read,ACK
1.746637375,1031,0x53,0xC0,Read,ACK
1.746685625,1031,0x53,0xB6,Read,ACK
1.746733625,1031,0x53,0x00,Read,ACK
1.746789375,1031,0x53,0xAB,Read,NAK
1.755579625,1032,0xD4,0xA6,Write,ACK
1.755700625,1033,0xD5,0x10,Read,ACK
1.755748625,1033,0xD5,0x0F,Read,NAK
1.755879625,1034,0xD4,0xA8,Write,ACK
1.755999625,1035,0xD5,0xEE,Read,ACK
1.756047625,1035,0xD5,0xFF,Read,ACK
1.756095625,1035,0xD5,0x17,Read,ACK
1.756143625,1035,0xD5,0x00,Read,ACK
1.756191625,1035,0xD5,0xFE,Read,ACK
1.756239625,1035,0xD5,0xFF,Read,NAK
1.756373625,1036,0x52,0x02,Write,ACK
1.756493625,1037,0x53,0x00,Read,ACK
1.756541625,1037,0x53,0x00,Read,ACK
1.75658975,1037,0x53,0x4F,Read,ACK
1.7566375,1037,0x53,0xC0,Read,ACK
1.756685875,1037,0x53,0xB6,Read,ACK
1.756733875,1037,0x53,0x00,Read,ACK
1.7567895,1037,0x53,0xAB,Read,NAK
1.765579125,1038,0xD4,0xA6,Write,ACK
1.765700125,1039,0xD5,0x10,Read,ACK
1.765748125,1039,0xD5,0x00,Read,NAK
1.765882125,1040,0x52,0x02,Write,ACK
1.766002125,1041,0x53,0x00,Read,ACK
1.766050125,1041,0x53,0x00,Read,ACK
1.76609825,1041,0x53,0x4F,Read,ACK
1.7661465,1041,0x53,0xC0,Read,ACK
1.76619475,1041,0x53,0xB6,Read,ACK
1.76624275,1041,0x53,0x00,Read,ACK
1.7662985,1041,0x53,0xAB,Read,NAK
1.775578375,1042,0xD4,0xA6,Write,ACK
1.775699375,1043,0xD5,0x10,Read,ACK
1.775747375,1043,0xD5,0x0F,Read,NAK
1.775878375,1044,0xD4,0xA8,Write,ACK
1.775998375,1045,0xD5,0xE3,Read,ACK
1.776046375,1045,0xD5,0xFF,Read,ACK
1.776094375,1045,0xD5,0x12,Read,ACK
1.776142375,1045,0xD5,0x00,Read,ACK
1.776190375,1045,0xD5,0x00,Read,ACK
1.776238375,1045,0xD5,0x00,Read,NAK
1.776372375,1046,0x52,0x02,Write,ACK
1.776492375,1047,0x53,0x00,Read,ACK
1.776540375,1047,0x53,0x00,Read,ACK
1.776588375,1047,0x53,0x4F,Read,ACK
1.77663625,1047,0x53,0xC0,Read,ACK
1.776684625,1047,0x53,0xB6,Read,ACK
1.776732625,1047,0x53,0x00,Read,ACK
1.77678825,1047,0x53,0xAB,Read,NAK
1.785563625,1048,0xD4,0xA6,Write,ACK
1.785684625,1049,0xD5,0x10,Read,ACK
1.785732625,1049,0xD5,0x0F,Read,NAK
1.7858635,1050,0xD4,0xA8,Write,ACK
1.7859835,1051,0xD5,0xE4,Read,ACK
1.7860315,1051,0xD5,0xFF,Read,ACK
1.7860795,1051,0xD5,0x0D,Read,ACK
1.7861275,1051,0xD5,0x00,Read,ACK
1.7861755,1051,0xD5,0xFF,Read,ACK
1.7862235,1051,0xD5,0xFF,Read,NAK
1.7863575,1052,0x52,0x02,Write,ACK
1.7864775,1053,0x53,0x00,Read,ACK
1.7865255,1053,0x53,0x00,Read,ACK
1.786573625,1053,0x53,0x4F,Read,ACK
1.786621875,1053,0x53,0xC0,Read,ACK
1.786670125,1053,0x53,0xB6,Read,ACK
1.78671825,1053,0x53,0x00,Read,ACK
1.786773875,1053,0x53,0xAB,Read,NAK
1.795577125,1054,0xD4,0xA6,Write,ACK
1.795698125,1055,0xD5,0x10,Read,ACK
1.795746125,1055,0xD5,0x0F,Read,NAK
1.795877125,1056,0xD4,0xA8,Write,ACK
1.795997125,1057,0xD5,0xEF,Read,ACK
1.796045125,1057,0xD5,0xFF,Read,ACK
1.796093125,1057,0xD5,0x0E,Read,ACK
1.796141125,1057,0xD5,0x00,Read,ACK
1.796189125,1057,0xD5,0xFD,Read,ACK
1.796237125,1057,0xD5,0xFF,Read,NAK
1.796371125,1058,0x52,0x02,Write,ACK
1.796491125,1059,0x53,0x00,Read,ACK
1.796539125,1059,0x53,0x00,Read,ACK
1.79658725,1059,0x53,0x4F,Read,ACK
1.796635375,1059,0x53,0xC0,Read,ACK
1.796683625,1059,0x53,0xB6,Read,ACK
1.79673175,1059,0x53,0x00,Read,ACK
1.796787375,1059,0x53,0xAB,Read,NAK
1.805576375,1060,0xD4,0xA6,Write,ACK
1.805697375,1061,0xD5,0x10,Read,ACK
1.805745375,1061,0xD5,0x0F,Read,NAK
1.80587625,1062,0xD4,0xA8,Write,ACK
1.80599625,1063,0xD5,0x00,Read,ACK
1.80604425,1063,0xD5,0x00,Read,ACK
1.80609225,1063,0xD5,0x10,Read,ACK
1.80614025,1063,0xD5,0x00,Read,ACK
1.80618825,1063,0xD5,0xFD,Read,ACK
1.80623625,1063,0xD5,0xFF,Read,NAK
1.80637025,1064,0x52,0x02,Write,ACK
1.80649025,1065,0x53,0x00,Read,ACK
1.80653825,1065,0x53,0x00,Read,ACK
1.806586375,1065,0x53,0x4F,Read,ACK
1.80663425,1065,0x53,0xC0,Read,ACK
1.8066825,1065,0x53,0xB6,Read,ACK
1.806730625,1065,0x53,0x00,Read,ACK
1.80678625,1065,0x53,0xAB,Read,NAK
1.81556125,1066,0xD4,0xA6,Write,ACK
1.81568225,1067,0xD5,0x10,Read,ACK
1.81573025,1067,0xD5,0x0F,Read,NAK
1.81586125,1068,0xD4,0xA8,Write,ACK
1.815981125,1069,0xD5,0x0C,Read,ACK
1.816029125,1069,0xD5,0x00,Read,ACK
1.816077125,1069,0xD5,0x10,Read,ACK
1.816125125,1069,0xD5,0x00,Read,ACK
1.816173125,1069,0xD5,0xFE,Read,ACK
1.816221125,1069,0xD5,0xFF,Read,NAK
1.816355125,1070,0x52,0x02,Write,ACK
1.816475125,1071,0x53,0x00,Read,ACK
1.816523125,1071,0x53,0x00,Read,ACK
1.816571375,1071,0x53,0x4F,Read,ACK
1.8166195,1071,0x53,0xC0,Read,ACK
1.81666775,1071,0x53,0xB6,Read,ACK
1.816715875,1071,0x53,0x00,Read,ACK
1.8167715,1071,0x53,0xAB,Read,NAK
1.825574375,1072,0xD4,0xA6,Write,ACK
1.825695375,1073,0xD5,0x10,Read,ACK
1.825743375,1073,0xD5,0x0F,Read,NAK
1.825874375,1074,0xD4,0xA8,Write,ACK
1.825994375,1075,0xD5,0x0E,Read,ACK
1.826042375,1075,0xD5,0x00,Read,ACK
1.826090375,1075,0xD5,0x0E,Read,ACK
1.826138375,1075,0xD5,0x00,Read,ACK
1.826186375,1075,0xD5,0xFB,Read,ACK
1.826234375,1075,0xD5,0xFF,Read,NAK
1.826368375,1076,0x52,0x02,Write,ACK
1.826488375,1077,0x53,0x00,Read,ACK
1.826536375,1077,0x53,0x00,Read,ACK
1.8265845,1077,0x53,0x4F,Read,ACK
1.82663275,1077,0x53,0xC0,Read,ACK
1.826681,1077,0x53,0xB6,Read,ACK
1.826729,1077,0x53,0x00,Read,ACK
1.82678475,1077,0x53,0xAB,Read,NAK
1.835575625,1078,0xD4,0xA6,Write,ACK
1.835696625,1079,0xD5,0x10,Read,ACK
1.835744625,1079,0xD5,0x0F,Read,NAK
1.835875625,1080,0xD4,0xA8,Write,ACK
1.835995625,1081,0xD5,0x06,Read,ACK
1.836043625,1081,0xD5,0x00,Read,ACK
1.836091625,1081,0xD5,0x0E,Read,ACK
1.836139625,1081,0xD5,0x00,Read,ACK
1.836187625,1081,0xD5,0xF4,Read,ACK
1.836235625,1081,0xD5,0xFF,Read,NAK
1.836369625,1082,0x52,0x02,Write,ACK
1.836489625,1083,0x53,0x00,Read,ACK
1.836537625,1083,0x53,0x00,Read,ACK
1.83658575,1083,0x53,0x4F,Read,ACK
1.836633875,1083,0x53,0xC0,Read,ACK
1.836682125,1083,0x53,0xB6,Read,ACK
1.83673025,1083,0x53,0x00,Read,ACK
1.836785875,1083,0x53,0xAB,Read,NAK
1.8455745,1084,0xD4,0xA6,Write,ACK
1.8456955,1085,0xD5,0x10,Read,ACK
1.8457435,1085,0xD5,0x0F,Read,NAK
1.8458745,1086,0xD4,0xA8,Write,ACK
1.8459945,1087,0xD5,0xFD,Read,ACK
1.8460425,1087,0xD5,0xFF,Read,ACK
1.8460905,1087,0xD5,0x12,Read,ACK
1.8461385,1087,0xD5,0x00,Read,ACK
1.8461865,1087,0xD5,0xEA,Read,ACK
1.8462345,1087,0xD5,0xFF,Read,NAK
1.8463685,1088,0x52,0x02,Write,ACK
1.8464885,1089,0x53,0x00,Read,ACK
1.8465365,1089,0x53,0x00,Read,ACK
1.846584625,1089,0x53,0x4F,Read,ACK
1.84663275,1089,0x53,0xC0,Read,ACK
1.846681125,1089,0x53,0xB6,Read,ACK
1.846729125,1089,0x53,0x00,Read,ACK
1.84678475,1089,0x53,0xAB,Read,NAK
1.855574375,1090,0xD4,0xA6,Write,ACK
1.855695375,1091,0xD5,0x10,Read,ACK
1.855743375,1091,0xD5,0x0F,Read,NAK
1.855874375,1092,0xD4,0xA8,Write,ACK
1.855994375,1093,0xD5,0xFF,Read,ACK
1.856042375,1093,0xD5,0xFF,Read,ACK
1.856090375,1093,0xD5,0x17,Read,ACK
1.856138375,1093,0xD5,0x00,Read,ACK
1.856186375,1093,0xD5,0xE0,Read,ACK
1.856234375,1093,0xD5,0xFF,Read,NAK
1.856368375,1094,0x52,0x02,Write,ACK
1.856488375,1095,0x53,0x00,Read,ACK
1.856536375,1095,0x53,0x00,Read,ACK
1.8565845,1095,0x53,0x4F,Read,ACK
1.856632375,1095,0x53,0xC0,Read,ACK
1.8566805,1095,0x53,0xB6,Read,ACK
1.856728625,1095,0x53,0x00,Read,ACK
1.856784375,1095,0x53,0xAB,Read,NAK
1.865574875,1096,0xD4,0xA6,Write,ACK
1.865695875,1097,0xD5,0x10,Read,ACK
1.865743875,1097,0xD5,0x0F,Read,NAK
1.865874875,1098,0xD4,0xA8,Write,ACK
1.865994875,1099,0xD5,0x0E,Read,ACK
1.866042875,1099,0xD5,0x00,Read,ACK
1.866090875,1099,0xD5,0x1A,Read,ACK
1.866138875,1099,0xD5,0x00,Read,ACK
1.866186875,1099,0xD5,0xDC,Read,ACK
1.866234875,1099,0xD5,0xFF,Read,NAK
1.866368875,1100,0x52,0x02,Write,ACK
1.866488875,1101,0x53,0x00,Read,ACK
1.866536875,1101,0x53,0x00,Read,ACK
1.866585125,1101,0x53,0x4F,Read,ACK
1.86663325,1101,0x53,0xC0,Read,ACK
1.8666815,1101,0x53,0xB6,Read,ACK
1.8667295,1101,0x53,0x00,Read,ACK
1.86678525,1101,0x53,0xAB,Read,NAK
1.875574125,1102,0xD4,0xA6,Write,ACK
1.875695125,1103,0xD5,0x10,Read,ACK
1.875743125,1103,0xD5,0x0F,Read,NAK
1.875874125,1104,0xD4,0xA8,Write,ACK
1.875994125,1105,0xD5,0x1B,Read,ACK
1.876042125,1105,0xD5,0x00,Read,ACK
1.876090125,1105,0xD5,0x18,Read,ACK
1.876138125,1105,0xD5,0x00,Read,ACK
1.876186125,1105,0xD5,0xE4,Read,ACK
1.876234125,1105,0xD5,0xFF,Read,NAK
1.876368125,1106,0x52,0x02,Write,ACK
1.876488125,1107,0x53,0x00,Read,ACK
1.876536125,1107,0x53,0x00,Read,ACK
1.87658425,1107,0x53,0x4F,Read,ACK
1.876632375,1107,0x53,0xC0,Read,ACK
1.87668075,1107,0x53,0xB6,Read,ACK
1.87672875,1107,0x53,0x00,Read,ACK
1.876784375,1107,0x53,0xAB,Read,NAK
1.885574625,1108,0xD4,0xA6,Write,ACK
1.885695625,1109,0xD5,0x10,Read,ACK
1.885743625,1109,0xD5,0x0F,Read,NAK
1.885874625,1110,0xD4,0xA8,Write,ACK
1.885994625,1111,0xD5,0x1C,Read,ACK
1.886042625,1111,0xD5,0x00,Read,ACK
1.886090625,1111,0xD5,0x0A,Read,ACK
1.886138625,1111,0xD5,0x00,Read,ACK
1.886186625,1111,0xD5,0xF7,Read,ACK
1.886234625,1111,0xD5,0xFF,Read,NAK
1.886368625,1112,0x52,0x02,Write,ACK
1.886488625,1113,0x53,0x00,Read,ACK
1.886536625,1113,0x53,0x00,Read,ACK
1.88658475,1113,0x53,0x4F,Read,ACK
1.886632625,1113,0x53,0xC0,Read,ACK
1.886680875,1113,0x53,0xB6,Read,ACK
1.886729,1113,0x53,0x00,Read,ACK
1.886784625,1113,0x53,0xAB,Read,NAK
1.89557425,1114,0xD4,0xA6,Write,ACK
1.89569525,1115,0xD5,0x10,Read,ACK
1.89574325,1115,0xD5,0x0F,Read,NAK
1.89587425,1116,0xD4,0xA8,Write,ACK
1.89599425,1117,0xD5,0x14,Read,ACK
1.89604225,1117,0xD5,0x00,Read,ACK
1.89609025,1117,0xD5,0xF5,Read,ACK
1.89613825,1117,0xD5,0xFF,Read,ACK
1.89618625,1117,0xD5,0x08,Read,ACK
1.89623425,1117,0xD5,0x00,Read,NAK
1.896368125,1118,0x52,0x02,Write,ACK
1.896488125,1119,0x53,0x00,Read,ACK
1.896536125,1119,0x53,0x00,Read,ACK
1.896584375,1119,0x53,0x4F,Read,ACK
1.8966325,1119,0x53,0xC0,Read,ACK
1.89668075,1119,0x53,0xB6,Read,ACK
1.896728875,1119,0x53,0x00,Read,ACK
1.8967845,1119,0x53,0xAB,Read,NAK
1.90557275,1120,0xD4,0xA6,Write,ACK
1.90569375,1121,0xD5,0x10,Read,ACK
1.90574175,1121,0xD5,0x0F,Read,NAK
1.90587275,1122,0xD4,0xA8,Write,ACK
1.90599275,1123,0xD5,0x0D,Read,ACK
1.90604075,1123,0xD5,0x00,Read,ACK
1.90608875,1123,0xD5,0xE4,Read,ACK
1.90613675,1123,0xD5,0xFF,Read,ACK
1.90618475,1123,0xD5,0x0F,Read,ACK
1.90623275,1123,0xD5,0x00,Read,NAK
1.90636675,1124,0x52,0x02,Write,ACK
1.90648675,1125,0x53,0x00,Read,ACK
1.90653475,1125,0x53,0x00,Read,ACK
1.906582875,1125,0x53,0x4F,Read,ACK
1.90663075,1125,0x53,0xC0,Read,ACK
1.906679,1125,0x53,0xB6,Read,ACK
1.906727,1125,0x53,0x00,Read,ACK
1.90678275,1125,0x53,0xAB,Read,NAK
1.915572625,1126,0xD4,0xA6,Write,ACK
1.915693625,1127,0xD5,0x10,Read,ACK
1.915741625,1127,0xD5,0x0F,Read,NAK
1.915872625,1128,0xD4,0xA8,Write,ACK
1.915992625,1129,0xD5,0x08,Read,ACK
1.916040625,1129,0xD5,0x00,Read,ACK
1.916088625,1129,0xD5,0xE4,Read,ACK
1.916136625,1129,0xD5,0xFF,Read,ACK
1.916184625,1129,0xD5,0x0B,Read,ACK
1.916232625,1129,0xD5,0x00,Read,NAK
1.916366625,1130,0x52,0x02,Write,ACK
1.916486625,1131,0x53,0x00,Read,ACK
1.916534625,1131,0x53,0x00,Read,ACK
1.91658275,1131,0x53,0x4F,Read,ACK
1.916630875,1131,0x53,0xC0,Read,ACK
1.916679125,1131,0x53,0xB6,Read,ACK
1.91672725,1131,0x53,0x00,Read,ACK
1.916782875,1131,0x53,0xAB,Read,NAK
1.925572875,1132,0xD4,0xA6,Write,ACK
1.925693875,1133,0xD5,0x10,Read,ACK
1.925741875,1133,0xD5,0x0F,Read,NAK
1.925872875,1134,0xD4,0xA8,Write,ACK
1.925992875,1135,0xD5,0x02,Read,ACK
1.926040875,1135,0xD5,0x00,Read,ACK
1.926088875,1135,0xD5,0xF0,Read,ACK
1.926136875,1135,0xD5,0xFF,Read,ACK
1.926184875,1135,0xD5,0x04,Read,ACK
1.926232875,1135,0xD5,0x00,Read,NAK
1.926366875,1136,0x52,0x02,Write,ACK
1.92648675,1137,0x53,0x00,Read,ACK
1.92653475,1137,0x53,0x00,Read,ACK
1.926583,1137,0x53,0x4F,Read,ACK
1.926631125,1137,0x53,0xC0,Read,ACK
1.926679375,1137,0x53,0xB6,Read,ACK
1.9267275,1137,0x53,0x00,Read,ACK
1.926783125,1137,0x53,0xAB,Read,NAK
1.935572,1138,0xD4,0xA6,Write,ACK
1.935693,1139,0xD5,0x10,Read,ACK
1.935741,1139,0xD5,0x0F,Read,NAK
1.935872,1140,0xD4,0xA8,Write,ACK
1.935992,1141,0xD5,0xFC,Read,ACK
1.93604,1141,0xD5,0xFF,Read,ACK
1.936088,1141,0xD5,0xFC,Read,ACK
1.936136,1141,0xD5,0xFF,Read,ACK
1.936184,1141,0xD5,0x00,Read,ACK
1.936232,1141,0xD5,0x00,Read,NAK
1.936366,1142,0x52,0x02,Write,ACK
1.936486,1143,0x53,0x00,Read,ACK
1.936534,1143,0x53,0x00,Read,ACK
1.93658225,1143,0x53,0x4F,Read,ACK
1.936630375,1143,0x53,0xC0,Read,ACK
1.93667875,1143,0x53,0xB6,Read,ACK
1.936726625,1143,0x53,0x00,Read,ACK
1.936782375,1143,0x53,0xAB,Read,NAK
1.945556875,1144,0xD4,0xA6,Write,ACK
1.945677875,1145,0xD5,0x10,Read,ACK
1.945725875,1145,0xD5,0x00,Read,NAK
1.945859875,1146,0x52,0x02,Write,ACK
1.945979875,1147,0x53,0x00,Read,ACK
1.946027875,1147,0x53,0x00,Read,ACK
1.946076125,1147,0x53,0x4F,Read,ACK
1.94612425,1147,0x53,0xC0,Read,ACK
1.946172625,1147,0x53,0xB6,Read,ACK
1.946220625,1147,0x53,0x00,Read,ACK
1.94627625,1147,0x53,0xAB,Read,NAK
1.955554875,1148,0xD4,0xA6,Write,ACK
1.955675875,1149,0xD5,0x10,Read,ACK
1.95572375,1149,0xD5,0x0F,Read,NAK
1.95585475,1150,0xD4,0xA8,Write,ACK
1.95597475,1151,0xD5,0xF5,Read,ACK
1.95602275,1151,0xD5,0xFF,Read,ACK
1.95607075,1151,0xD5,0x03,Read,ACK
1.95611875,1151,0xD5,0x00,Read,ACK
1.95616675,1151,0xD5,0x00,Read,ACK
1.95621475,1151,0xD5,0x00,Read,NAK
1.95634875,1152,0x52,0x02,Write,ACK
1.95646875,1153,0x53,0x00,Read,ACK
1.95651675,1153,0x53,0x00,Read,ACK
1.956565,1153,0x53,0x4F,Read,ACK
1.956613125,1153,0x53,0xC0,Read,ACK
1.956661375,1153,0x53,0xB6,Read,ACK
1.956709375,1153,0x53,0x00,Read,ACK
1.956765125,1153,0x53,0xAB,Read,NAK
1.965554,1154,0xD4,0xA6,Write,ACK
1.965675,1155,0xD5,0x10,Read,ACK
1.965723,1155,0xD5,0x0F,Read,NAK
1.965854,1156,0xD4,0xA8,Write,ACK
1.965974,1157,0xD5,0xED,Read,ACK
1.966022,1157,0xD5,0xFF,Read,ACK
1.96607,1157,0xD5,0x06,Read,ACK
1.966118,1157,0xD5,0x00,Read,ACK
1.966166,1157,0xD5,0x01,Read,ACK
1.966214,1157,0xD5,0x00,Read,NAK
1.966348,1158,0x52,0x02,Write,ACK
1.966468,1159,0x53,0x00,Read,ACK
1.966516,1159,0x53,0x00,Read,ACK
1.96656425,1159,0x53,0x4F,Read,ACK
1.96661225,1159,0x53,0xC0,Read,ACK
1.9666605,1159,0x53,0xB6,Read,ACK
1.966708625,1159,0x53,0x00,Read,ACK
1.96676425,1159,0x53,0xAB,Read,NAK
1.975566625,1160,0xD4,0xA6,Write,ACK
1.975687625,1161,0xD5,0x10,Read,ACK
1.975735625,1161,0xD5,0x0F,Read,NAK
1.9758665,1162,0xD4,0xA8,Write,ACK
1.9759865,1163,0xD5,0xE6,Read,ACK
1.9760345,1163,0xD5,0xFF,Read,ACK
1.9760825,1163,0xD5,0x07,Read,ACK
1.9761305,1163,0xD5,0x00,Read,ACK
1.9761785,1163,0xD5,0xFE,Read,ACK
1.9762265,1163,0xD5,0xFF,Read,NAK
1.9763605,1164,0x52,0x02,Write,ACK
1.9764805,1165,0x53,0x00,Read,ACK
1.9765285,1165,0x53,0x00,Read,ACK
1.976576625,1165,0x53,0x4F,Read,ACK
1.9766245,1165,0x53,0xC0,Read,ACK
1.976672875,1165,0x53,0xB6,Read,ACK
1.976720875,1165,0x53,0x00,Read,ACK
1.9767765,1165,0x53,0xAB,Read,NAK
1.98556675,1166,0xD4,0xA6,Write,ACK
1.98568775,1167,0xD5,0x10,Read,ACK
1.98573575,1167,0xD5,0x0F,Read,NAK
1.98586675,1168,0xD4,0xA8,Write,ACK
1.98598675,1169,0xD5,0xEA,Read,ACK
1.98603475,1169,0xD5,0xFF,Read,ACK
1.98608275,1169,0xD5,0x09,Read,ACK
1.98613075,1169,0xD5,0x00,Read,ACK
1.98617875,1169,0xD5,0xF5,Read,ACK
1.98622675,1169,0xD5,0xFF,Read,NAK
1.98636075,1170,0x52,0x02,Write,ACK
1.98648075,1171,0x53,0x00,Read,ACK
1.98652875,1171,0x53,0x00,Read,ACK
1.986576875,1171,0x53,0x4F,Read,ACK
1.98662475,1171,0x53,0xC0,Read,ACK
1.986673,1171,0x53,0xB6,Read,ACK
1.986721125,1171,0x53,0x00,Read,ACK
1.98677675,1171,0x53,0xAB,Read,NAK
1.995567375,1172,0xD4,0xA6,Write,ACK
1.995688375,1173,0xD5,0x10,Read,ACK
1.995736375,1173,0xD5,0x0F,Read,NAK
1.99586725,1174,0xD4,0xA8,Write,ACK
1.99598725,1175,0xD5,0xFB,Read,ACK
1.99603525,1175,0xD5,0xFF,Read,ACK
1.99608325,1175,0xD5,0x0E,Read,ACK
1.99613125,1175,0xD5,0x00,Read,ACK
1.99617925,1175,0xD5,0xEF,Read,ACK
1.99622725,1175,0xD5,0xFF,Read,NAK
1.99636125,1176,0x52,0x02,Write,ACK
1.99648125,1177,0x53,0x00,Read,ACK
1.99652925,1177,0x53,0x00,Read,ACK
1.9965775,1177,0x53,0x4F,Read,ACK
1.996625625,1177,0x53,0xC0,Read,ACK
1.996673875,1177,0x53,0xB6,Read,ACK
1.996722,1177,0x53,0x00,Read,ACK
1.996777625,1177,0x53,0xAB,Read,NAK
2.005566875,1178,0xD4,0xA6,Write,ACK
2.005687875,1179,0xD5,0x10,Read,ACK
2.005735875,1179,0xD5,0x0F,Read,NAK
2.005866875,1180,0xD4,0xA8,Write,ACK
2.005986875,1181,0xD5,0x10,Read,ACK
2.006034875,1181,0xD5,0x00,Read,ACK
2.006082875,1181,0xD5,0x15,Read,ACK
2.006130875,1181,0xD5,0x00,Read,ACK
2.006178875,1181,0xD5,0xF5,Read,ACK
2.006226875,1181,0xD5,0xFF,Read,NAK
2.006360875,1182,0x52,0x02,Write,ACK
2.006480875,1183,0x53,0x00,Read,ACK
2.006528875,1183,0x53,0x00,Read,ACK
2.006577,1183,0x53,0x4F,Read,ACK
2.006625125,1183,0x53,0xC0,Read,ACK
2.0066735,1183,0x53,0xB6,Read,ACK
2.0067215,1183,0x53,0x00,Read,ACK
2.006777125,1183,0x53,0xAB,Read,NAK
2.015568125,1184,0xD4,0xA6,Write,ACK
2.015689125,1185,0xD5,0x10,Read,ACK
2.015737125,1185,0xD5,0x0F,Read,NAK
2.015868,1186,0xD4,0xA8,Write,ACK
2.015988,1187,0xD5,0x18,Read,ACK
2.016036,1187,0xD5,0x00,Read,ACK
2.016084,1187,0xD5,0x18,Read,ACK
2.016132,1187,0xD5,0x00,Read,ACK
2.01618,1187,0xD5,0x03,Read,ACK
2.016228,1187,0xD5,0x00,Read,NAK
2.016362,1188,0x52,0x02,Write,ACK
2.016482,1189,0x53,0x00,Read,ACK
2.01653,1189,0x53,0x00,Read,ACK
2.01657825,1189,0x53,0x4F,Read,ACK
2.016626375,1189,0x53,0xC0,Read,ACK
2.016674625,1189,0x53,0xB6,Read,ACK
2.01672275,1189,0x53,0x00,Read,ACK
2.016778375,1189,0x53,0xAB,Read,NAK
2.025568,1190,0xD4,0xA6,Write,ACK
2.025689,1191,0xD5,0x10,Read,ACK
2.025737,1191,0xD5,0x0F,Read,NAK
2.025868,1192,0xD4,0xA8,Write,ACK
2.025988,1193,0xD5,0x0E,Read,ACK
2.026035875,1193,0xD5,0x00,Read,ACK
2.026083875,1193,0xD5,0x0E,Read,ACK
2.026131875,1193,0xD5,0x00,Read,ACK
2.026179875,1193,0xD5,0x0D,Read,ACK
2.026227875,1193,0xD5,0x00,Read,NAK
2.026361875,1194,0x52,0x02,Write,ACK
2.026481875,1195,0x53,0x00,Read,ACK
2.026529875,1195,0x53,0x00,Read,ACK
2.026578125,1195,0x53,0x4F,Read,ACK
2.02662625,1195,0x53,0xC0,Read,ACK
2.0266745,1195,0x53,0xB6,Read,ACK
2.026722625,1195,0x53,0x00,Read,ACK
2.02677825,1195,0x53,0xAB,Read,NAK
2.035567875,1196,0xD4,0xA6,Write,ACK
2.035688875,1197,0xD5,0x10,Read,ACK
2.035736875,1197,0xD5,0x0F,Read,NAK
2.035867875,1198,0xD4,0xA8,Write,ACK
2.03598775,1199,0xD5,0xFE,Read,ACK
2.03603575,1199,0xD5,0xFF,Read,ACK
2.03608375,1199,0xD5,0xFC,Read,ACK
2.03613175,1199,0xD5,0xFF,Read,ACK
2.03617975,1199,0xD5,0x0E,Read,ACK
2.03622775,1199,0xD5,0x00,Read,NAK
2.03636175,1200,0x52,0x02,Write,ACK
2.03648175,1201,0x53,0x00,Read,ACK
2.03652975,1201,0x53,0x00,Read,ACK
2.036577875,1201,0x53,0x4F,Read,ACK
2.03662575,1201,0x53,0xC0,Read,ACK
2.036674125,1201,0x53,0xB6,Read,ACK
2.036722125,1201,0x53,0x00,Read,ACK
2.03677775,1201,0x53,0xAB,Read,NAK
2.04556775,1202,0xD4,0xA6,Write,ACK
2.04568875,1203,0xD5,0x10,Read,ACK
2.04573675,1203,0xD5,0x0F,Read,NAK
2.04586775,1204,0xD4,0xA8,Write,ACK
2.045987625,1205,0xD5,0xF6,Read,ACK
2.046035625,1205,0xD5,0xFF,Read,ACK
2.046083625,1205,0xD5,0xEE,Read,ACK
2.046131625,1205,0xD5,0xFF,Read,ACK
2.046179625,1205,0xD5,0x07,Read,ACK
2.046227625,1205,0xD5,0x00,Read,NAK
2.046361625,1206,0x52,0x02,Write,ACK
2.046481625,1207,0x53,0x00,Read,ACK
2.046529625,1207,0x53,0x00,Read,ACK
2.04657775,1207,0x53,0x4F,Read,ACK
2.046625625,1207,0x53,0xC0,Read,ACK
2.046674125,1207,0x53,0xB6,Read,ACK
2.046722,1207,0x53,0x00,Read,ACK
2.046777625,1207,0x53,0xAB,Read,NAK
2.055566625,1208,0xD4,0xA6,Write,ACK
2.055687625,1209,0xD5,0x10,Read,ACK
2.055735625,1209,0xD5,0x0F,Read,NAK
2.055866625,1210,0xD4,0xA8,Write,ACK
2.055986625,1211,0xD5,0xFD,Read,ACK
2.0560345,1211,0xD5,0xFF,Read,ACK
2.0560825,1211,0xD5,0xEE,Read,ACK
2.0561305,1211,0xD5,0xFF,Read,ACK
2.0561785,1211,0xD5,0xFE,Read,ACK
2.0562265,1211,0xD5,0xFF,Read,NAK
2.0563605,1212,0x52,0x02,Write,ACK
2.0564805,1213,0x53,0x00,Read,ACK
2.0565285,1213,0x53,0x00,Read,ACK
2.056576625,1213,0x53,0x4F,Read,ACK
2.056624875,1213,0x53,0xC0,Read,ACK
2.056673125,1213,0x53,0xB6,Read,ACK
2.05672125,1213,0x53,0x00,Read,ACK
2.056776875,1213,0x53,0xAB,Read,NAK
2.065566125,1214,0xD4,0xA6,Write,ACK
2.065687125,1215,0xD5,0x10,Read,ACK
2.065735125,1215,0xD5,0x0F,Read,NAK
2.065866125,1216,0xD4,0xA8,Write,ACK
2.065986125,1217,0xD5,0x08,Read,ACK
2.066034125,1217,0xD5,0x00,Read,ACK
2.066082125,1217,0xD5,0xFA,Read,ACK
2.066130125,1217,0xD5,0xFF,Read,ACK
2.066178125,1217,0xD5,0xF8,Read,ACK
2.066226125,1217,0xD5,0xFF,Read,NAK
2.066360125,1218,0x52,0x02,Write,ACK
2.066480125,1219,0x53,0x00,Read,ACK
2.066528125,1219,0x53,0x00,Read,ACK
2.06657625,1219,0x53,0x4F,Read,ACK
2.066624125,1219,0x53,0xC0,Read,ACK
2.0666725,1219,0x53,0xB6,Read,ACK
2.066720375,1219,0x53,0x00,Read,ACK
2.066776125,1219,0x53,0xAB,Read,NAK
2.075565375,1220,0xD4,0xA6,Write,ACK
2.075686375,1221,0xD5,0x10,Read,ACK
2.075734375,1221,0xD5,0x0F,Read,NAK
2.075865375,1222,0xD4,0xA8,Write,ACK
2.075985375,1223,0xD5,0x0D,Read,ACK
2.076033375,1223,0xD5,0x00,Read,ACK
2.076081375,1223,0xD5,0x06,Read,ACK
2.076129375,1223,0xD5,0x00,Read,ACK
2.07617725,1223,0xD5,0xFA,Read,ACK
2.07622525,1223,0xD5,0xFF,Read,NAK
2.07635925,1224,0x52,0x02,Write,ACK
2.07647925,1225,0x53,0x00,Read,ACK
2.07652725,1225,0x53,0x00,Read,ACK
2.0765755,1225,0x53,0x4F,Read,ACK
2.076623625,1225,0x53,0xC0,Read,ACK
2.076672,1225,0x53,0xB6,Read,ACK
2.07672,1225,0x53,0x00,Read,ACK
2.076775625,1225,0x53,0xAB,Read,NAK
2.0855655,1226,0xD4,0xA6,Write,ACK
2.0856865,1227,0xD5,0x10,Read,ACK
2.0857345,1227,0xD5,0x0F,Read,NAK
2.0858655,1228,0xD4,0xA8,Write,ACK
2.0859855,1229,0xD5,0x0D,Read,ACK
2.0860335,1229,0xD5,0x00,Read,ACK
2.0860815,1229,0xD5,0x0B,Read,ACK
2.0861295,1229,0xD5,0x00,Read,ACK
2.0861775,1229,0xD5,0x00,Read,ACK
2.0862255,1229,0xD5,0x00,Read,NAK
2.0863595,1230,0x52,0x02,Write,ACK
2.0864795,1231,0x53,0x00,Read,ACK
2.0865275,1231,0x53,0x00,Read,ACK
2.086575625,1231,0x53,0x4F,Read,ACK
2.0866235,1231,0x53,0xC0,Read,ACK
2.08667175,1231,0x53,0xB6,Read,ACK
2.086719875,1231,0x53,0x00,Read,ACK
2.0867755,1231,0x53,0xAB,Read,NAK
2.095550375,1232,0xD4,0xA6,Write,ACK
2.095671375,1233,0xD5,0x10,Read,ACK
2.095719375,1233,0xD5,0x0F,Read,NAK
2.095850375,1234,0xD4,0xA8,Write,ACK
2.095970375,1235,0xD5,0x10,Read,ACK
2.096018375,1235,0xD5,0x00,Read,ACK
2.096066375,1235,0xD5,0x08,Read,ACK
2.096114375,1235,0xD5,0x00,Read,ACK
2.096162375,1235,0xD5,0x01,Read,ACK
2.096210375,1235,0xD5,0x00,Read,NAK
2.096344375,1236,0x52,0x02,Write,ACK
2.096464375,1237,0x53,0x00,Read,ACK
2.096512375,1237,0x53,0x00,Read,ACK
2.0965605,1237,0x53,0x4F,Read,ACK
2.096608375,1237,0x53,0xC0,Read,ACK
2.096656625,1237,0x53,0xB6,Read,ACK
2.09670475,1237,0x53,0x00,Read,ACK
2.096760375,1237,0x53,0xAB,Read,NAK
2.105563625,1238,0xD4,0xA6,Write,ACK
2.105684625,1239,0xD5,0x10,Read,ACK
2.105732625,1239,0xD5,0x0F,Read,NAK
2.105863625,1240,0xD4,0xA8,Write,ACK
2.105983625,1241,0xD5,0x15,Read,ACK
2.106031625,1241,0xD5,0x00,Read,ACK
2.106079625,1241,0xD5,0x06,Read,ACK
2.106127625,1241,0xD5,0x00,Read,ACK
2.106175625,1241,0xD5,0xFB,Read,ACK
2.106223625,1241,0xD5,0xFF,Read,NAK
2.106357625,1242,0x52,0x02,Write,ACK
2.106477625,1243,0x53,0x00,Read,ACK
2.106525625,1243,0x53,0x00,Read,ACK
2.10657375,1243,0x53,0x4F,Read,ACK
2.106621875,1243,0x53,0xC0,Read,ACK
2.10667025,1243,0x53,0xB6,Read,ACK
2.10671825,1243,0x53,0x00,Read,ACK
2.106773875,1243,0x53,0xAB,Read,NAK
2.1155625,1244,0xD4,0xA6,Write,ACK
2.1156835,1245,0xD5,0x10,Read,ACK
2.1157315,1245,0xD5,0x0F,Read,NAK
2.1158625,1246,0xD4,0xA8,Write,ACK
2.1159825,1247,0xD5,0x13,Read,ACK
2.1160305,1247,0xD5,0x00,Read,ACK
2.1160785,1247,0xD5,0x0C,Read,ACK
2.1161265,1247,0xD5,0x00,Read,ACK
2.1161745,1247,0xD5,0xF2,Read,ACK
2.1162225,1247,0xD5,0xFF,Read,NAK
2.116356875,1248,0x52,0x02,Write,ACK
2.11647675,1249,0x53,0x00,Read,ACK
2.11652475,1249,0x53,0x00,Read,ACK
2.116573,1249,0x53,0x4F,Read,ACK
2.116621125,1249,0x53,0xC0,Read,ACK
2.116669375,1249,0x53,0xB6,Read,ACK
2.1167175,1249,0x53,0x00,Read,ACK
2.116773125,1249,0x53,0xAB,Read,NAK
2.125561375,1250,0xD4,0xA6,Write,ACK
2.125682375,1251,0xD5,0x10,Read,ACK
2.125730375,1251,0xD5,0x00,Read,NAK
2.125864375,1252,0x52,0x02,Write,ACK
2.125984375,1253,0x53,0x00,Read,ACK
2.126032375,1253,0x53,0x00,Read,ACK
2.1260805,1253,0x53,0x4F,Read,ACK
2.126128375,1253,0x53,0xC0,Read,ACK
2.126176625,1253,0x53,0xB6,Read,ACK
2.12622475,1253,0x53,0x00,Read,ACK
2.126280375,1253,0x53,0xAB,Read,NAK
2.135561875,1254,0xD4,0xA6,Write,ACK
2.135682875,1255,0xD5,0x10,Read,ACK
2.135730875,1255,0xD5,0x0F,Read,NAK
2.135861875,1256,0xD4,0xA8,Write,ACK
2.135981875,1257,0xD5,0x06,Read,ACK
2.136029875,1257,0xD5,0x00,Read,ACK
2.136077875,1257,0xD5,0x10,Read,ACK
2.136125875,1257,0xD5,0x00,Read,ACK
2.136173875,1257,0xD5,0xEC,Read,ACK
2.136221875,1257,0xD5,0xFF,Read,NAK
2.136355875,1258,0x52,0x02,Write,ACK
2.136475875,1259,0x53,0x00,Read,ACK
2.136523875,1259,0x53,0x00,Read,ACK
2.136572125,1259,0x53,0x4F,Read,ACK
2.13662025,1259,0x53,0xC0,Read,ACK
2.1366685,1259,0x53,0xB6,Read,ACK
2.1367165,1259,0x53,0x00,Read,ACK
2.13677225,1259,0x53,0xAB,Read,NAK
2.145562125,1260,0xD4,0xA6,Write,ACK
2.145683125,1261,0xD5,0x10,Read,ACK
2.145731125,1261,0xD5,0x0F,Read,NAK
2.145862125,1262,0xD4,0xA8,Write,ACK
2.145982125,1263,0xD5,0xFA,Read,ACK
2.146030125,1263,0xD5,0xFF,Read,ACK
2.146078125,1263,0xD5,0x07,Read,ACK
2.146126125,1263,0xD5,0x00,Read,ACK
2.146174125,1263,0xD5,0xEC,Read,ACK
2.146222125,1263,0xD5,0xFF,Read,NAK
2.146356125,1264,0x52,0x02,Write,ACK
2.146476125,1265,0x53,0x00,Read,ACK
2.146524125,1265,0x53,0x00,Read,ACK
2.14657225,1265,0x53,0x4F,Read,ACK
2.146620125,1265,0x53,0xC0,Read,ACK
2.146668375,1265,0x53,0xB6,Read,ACK
2.146716375,1265,0x53,0x00,Read,ACK
2.146772125,1265,0x53,0xAB,Read,NAK
2.155561625,1266,0xD4,0xA6,Write,ACK
2.155682625,1267,0xD5,0x10,Read,ACK
2.155730625,1267,0xD5,0x0F,Read,NAK
2.155861625,1268,0xD4,0xA8,Write,ACK
2.155981625,1269,0xD5,0xF9,Read,ACK
2.156029625,1269,0xD5,0xFF,Read,ACK
2.156077625,1269,0xD5,0xF5,Read,ACK
2.156125625,1269,0xD5,0xFF,Read,ACK
2.156173625,1269,0xD5,0xF0,Read,ACK
2.156221625,1269,0xD5,0xFF,Read,NAK
2.156355625,1270,0x52,0x02,Write,ACK
2.156475625,1271,0x53,0x00,Read,ACK
2.156523625,1271,0x53,0x00,Read,ACK
2.156571875,1271,0x53,0x4F,Read,ACK
2.15662,1271,0x53,0xC0,Read,ACK
2.15666825,1271,0x53,0xB6,Read,ACK
2.15671625,1271,0x53,0x00,Read,ACK
2.156772,1271,0x53,0xAB,Read,NAK
2.165561625,1272,0xD4,0xA6,Write,ACK
2.165682625,1273,0xD5,0x10,Read,ACK
2.1657305,1273,0xD5,0x0F,Read,NAK
2.1658615,1274,0xD4,0xA8,Write,ACK
2.1659815,1275,0xD5,0x02,Read,ACK
2.1660295,1275,0xD5,0x00,Read,ACK
2.1660775,1275,0xD5,0xEC,Read,ACK
2.1661255,1275,0xD5,0xFF,Read,ACK
2.1661735,1275,0xD5,0xF1,Read,ACK
2.1662215,1275,0xD5,0xFF,Read,NAK
2.1663555,1276,0x52,0x02,Write,ACK
2.1664755,1277,0x53,0x00,Read,ACK
2.1665235,1277,0x53,0x00,Read,ACK
2.16657175,1277,0x53,0x4F,Read,ACK
2.166619875,1277,0x53,0xC0,Read,ACK
2.166668125,1277,0x53,0xB6,Read,ACK
2.166716125,1277,0x53,0x00,Read,ACK
2.166771875,1277,0x53,0xAB,Read,NAK
2.175561125,1278,0xD4,0xA6,Write,ACK
2.175682125,1279,0xD5,0x10,Read,ACK
2.175730125,1279,0xD5,0x0F,Read,NAK
2.175861125,1280,0xD4,0xA8,Write,ACK
2.175981125,1281,0xD5,0x0A,Read,ACK
2.176029125,1281,0xD5,0x00,Read,ACK
2.176077125,1281,0xD5,0xF8,Read,ACK
2.176125125,1281,0xD5,0xFF,Read,ACK
2.176173125,1281,0xD5,0xEF,Read,ACK
2.176221125,1281,0xD5,0xFF,Read,NAK
2.176355125,1282,0x52,0x02,Write,ACK
2.176475125,1283,0x53,0x00,Read,ACK
2.176523125,1283,0x53,0x00,Read,ACK
2.17657125,1283,0x53,0x4F,Read,ACK
2.176619375,1283,0x53,0xC0,Read,ACK
2.176667625,1283,0x53,0xB6,Read,ACK
2.17671575,1283,0x53,0x00,Read,ACK
2.176771375,1283,0x53,0xAB,Read,NAK
2.185560375,1284,0xD4,0xA6,Write,ACK
2.185681375,1285,0xD5,0x10,Read,ACK
2.185729375,1285,0xD5,0x0F,Read,NAK
2.18586025,1286,0xD4,0xA8,Write,ACK
2.18598025,1287,0xD5,0x0A,Read,ACK
2.18602825,1287,0xD5,0x00,Read,ACK
2.18607625,1287,0xD5,0x0E,Read,ACK
2.18612425,1287,0xD5,0x00,Read,ACK
2.18617225,1287,0xD5,0xEE,Read,ACK
2.18622025,1287,0xD5,0xFF,Read,NAK
2.18635425,1288,0x52,0x02,Write,ACK
2.18647425,1289,0x53,0x00,Read,ACK
2.18652225,1289,0x53,0x00,Read,ACK
2.186570375,1289,0x53,0x4F,Read,ACK
2.186618625,1289,0x53,0xC0,Read,ACK
2.186666875,1289,0x53,0xB6,Read,ACK
2.186714875,1289,0x53,0x00,Read,ACK
2.186770625,1289,0x53,0xAB,Read,NAK
2.1955595,1290,0xD4,0xA6,Write,ACK
2.1956805,1291,0xD5,0x10,Read,ACK
2.1957285,1291,0xD5,0x0F,Read,NAK
2.1958595,1292,0xD4,0xA8,Write,ACK
2.1959795,1293,0xD5,0x02,Read,ACK
2.1960275,1293,0xD5,0x00,Read,ACK
2.1960755,1293,0xD5,0x16,Read,ACK
2.1961235,1293,0xD5,0x00,Read,ACK
2.1961715,1293,0xD5,0xF2,Read,ACK
2.1962195,1293,0xD5,0xFF,Read,NAK
2.1963535,1294,0x52,0x02,Write,ACK
2.1964735,1295,0x53,0x00,Read,ACK
2.1965215,1295,0x53,0x00,Read,ACK
2.196569625,1295,0x53,0x4F,Read,ACK
2.196617875,1295,0x53,0xC0,Read,ACK
2.196666125,1295,0x53,0xB6,Read,ACK
2.196714125,1295,0x53,0x00,Read,ACK
2.19676975,1295,0x53,0xAB,Read,NAK
2.205560125,1296,0xD4,0xA6,Write,ACK
2.205681125,1297,0xD5,0x10,Read,ACK
2.205729125,1297,0xD5,0x0F,Read,NAK
2.20586,1298,0xD4,0xA8,Write,ACK
2.20598,1299,0xD5,0xF7,Read,ACK
2.206028,1299,0xD5,0xFF,Read,ACK
2.206076,1299,0xD5,0x0D,Read,ACK
2.206124,1299,0xD5,0x00,Read,ACK
2.206172,1299,0xD5,0xFB,Read,ACK
2.20622,1299,0xD5,0xFF,Read,NAK
2.206354,1300,0x52,0x02,Write,ACK
2.206474,1301,0x53,0x00,Read,ACK
2.206522,1301,0x53,0x00,Read,ACK
2.206570125,1301,0x53,0x4F,Read,ACK
2.206618,1301,0x53,0xC0,Read,ACK
2.2066665,1301,0x53,0xB6,Read,ACK
2.206714375,1301,0x53,0x00,Read,ACK
2.20677,1301,0x53,0xAB,Read,NAK
2.21555825,1302,0xD4,0xA6,Write,ACK
2.21567925,1303,0xD5,0x10,Read,ACK
2.21572725,1303,0xD5,0x0F,Read,NAK
2.21585825,1304,0xD4,0xA8,Write,ACK
2.21597825,1305,0xD5,0xF1,Read,ACK
2.21602625,1305,0xD5,0xFF,Read,ACK
2.21607425,1305,0xD5,0x01,Read,ACK
2.21612225,1305,0xD5,0x00,Read,ACK
2.21617025,1305,0xD5,0x01,Read,ACK
2.21621825,1305,0xD5,0x00,Read,NAK
2.21635225,1306,0x52,0x02,Write,ACK
2.21647225,1307,0x53,0x00,Read,ACK
2.21652025,1307,0x53,0x00,Read,ACK
2.216568375,1307,0x53,0x4F,Read,ACK
2.216616625,1307,0x53,0xC0,Read,ACK
2.216664875,1307,0x53,0xB6,Read,ACK
2.216712875,1307,0x53,0x00,Read,ACK
2.2167685,1307,0x53,0xAB,Read,NAK
2.225558125,1308,0xD4,0xA6,Write,ACK
2.225679125,1309,0xD5,0x10,Read,ACK
2.225727125,1309,0xD5,0x0F,Read,NAK
2.225858125,1310,0xD4,0xA8,Write,ACK
2.225978125,1311,0xD5,0xF7,Read,ACK
2.226026125,1311,0xD5,0xFF,Read,ACK
2.226074125,1311,0xD5,0xFF,Read,ACK
2.226122125,1311,0xD5,0xFF,Read,ACK
2.226170125,1311,0xD5,0x03,Read,ACK
2.226218125,1311,0xD5,0x00,Read,NAK
2.226352125,1312,0x52,0x02,Write,ACK
2.226472125,1313,0x53,0x00,Read,ACK
2.226520125,1313,0x53,0x00,Read,ACK
2.226568375,1313,0x53,0x4F,Read,ACK
2.2266165,1313,0x53,0xC0,Read,ACK
2.22666475,1313,0x53,0xB6,Read,ACK
2.22671275,1313,0x53,0x00,Read,ACK
2.2267685,1313,0x53,0xAB,Read,NAK
2.235558,1314,0xD4,0xA6,Write,ACK
2.235679,1315,0xD5,0x10,Read,ACK
2.235727,1315,0xD5,0x0F,Read,NAK
2.235858,1316,0xD4,0xA8,Write,ACK
2.235978,1317,0xD5,0x05,Read,ACK
2.236026,1317,0xD5,0x00,Read,ACK
2.236074,1317,0xD5,0x05,Read,ACK
2.236122,1317,0xD5,0x00,Read,ACK
2.23617,1317,0xD5,0x03,Read,ACK
2.236218,1317,0xD5,0x00,Read,NAK
2.236352,1318,0x52,0x02,Write,ACK
2.236472,1319,0x53,0x00,Read,ACK
2.23652,1319,0x53,0x00,Read,ACK
2.236568125,1319,0x53,0x4F,Read,ACK
2.236616,1319,0x53,0xC0,Read,ACK
2.236664375,1319,0x53,0xB6,Read,ACK
2.236712375,1319,0x53,0x00,Read,ACK
2.236768,1319,0x53,0xAB,Read,NAK
2.24555725,1320,0xD4,0xA6,Write,ACK
2.24567825,1321,0xD5,0x10,Read,ACK
2.24572625,1321,0xD5,0x0F,Read,NAK
2.24585725,1322,0xD4,0xA8,Write,ACK
2.24597725,1323,0xD5,0x11,Read,ACK
2.24602525,1323,0xD5,0x00,Read,ACK
2.24607325,1323,0xD5,0x08,Read,ACK
2.24612125,1323,0xD5,0x00,Read,ACK
2.24616925,1323,0xD5,0x05,Read,ACK
2.24621725,1323,0xD5,0x00,Read,NAK
2.24635125,1324,0x52,0x02,Write,ACK
2.24647125,1325,0x53,0x00,Read,ACK
2.24651925,1325,0x53,0x00,Read,ACK
2.246567375,1325,0x53,0x4F,Read,ACK
2.24661525,1325,0x53,0xC0,Read,ACK
2.2466635,1325,0x53,0xB6,Read,ACK
2.2467115,1325,0x53,0x00,Read,ACK
2.24676725,1325,0x53,0xAB,Read,NAK
2.25555475,1326,0xD4,0xA6,Write,ACK
2.25567575,1327,0xD5,0x10,Read,ACK
2.25572375,1327,0xD5,0x0F,Read,NAK
2.25585475,1328,0xD4,0xA8,Write,ACK
2.25597475,1329,0xD5,0x0F,Read,ACK
2.25602275,1329,0xD5,0x00,Read,ACK
2.25607075,1329,0xD5,0x03,Read,ACK
2.25611875,1329,0xD5,0x00,Read,ACK
2.25616675,1329,0xD5,0x07,Read,ACK
2.25621475,1329,0xD5,0x00,Read,NAK
2.25634875,1330,0x52,0x02,Write,ACK
2.25646875,1331,0x53,0x00,Read,ACK
2.25651675,1331,0x53,0x00,Read,ACK
2.256564875,1331,0x53,0x4F,Read,ACK
2.256613125,1331,0x53,0xC0,Read,ACK
2.256661375,1331,0x53,0xB6,Read,ACK
2.256709375,1331,0x53,0x00,Read,ACK
2.256765125,1331,0x53,0xAB,Read,NAK
2.265554625,1332,0xD4,0xA6,Write,ACK
2.265675625,1333,0xD5,0x10,Read,ACK
2.265723625,1333,0xD5,0x0F,Read,NAK
2.265854625,1334,0xD4,0xA8,Write,ACK
2.265974625,1335,0xD5,0x01,Read,ACK
2.266022625,1335,0xD5,0x00,Read,ACK
2.266070625,1335,0xD5,0xFD,Read,ACK
2.266118625,1335,0xD5,0xFF,Read,ACK
2.266166625,1335,0xD5,0x07,Read,ACK
2.266214625,1335,0xD5,0x00,Read,NAK
2.266348625,1336,0x52,0x02,Write,ACK
2.266468625,1337,0x53,0x00,Read,ACK
2.266516625,1337,0x53,0x00,Read,ACK
2.26656475,1337,0x53,0x4F,Read,ACK
2.266613,1337,0x53,0xC0,Read,ACK
2.26666125,1337,0x53,0xB6,Read,ACK
2.26670925,1337,0x53,0x00,Read,ACK
2.266765,1337,0x53,0xAB,Read,NAK
2.2755555,1338,0xD4,0xA6,Write,ACK
2.2756765,1339,0xD5,0x10,Read,ACK
2.2757245,1339,0xD5,0x0F,Read,NAK
2.2758555,1340,0xD4,0xA8,Write,ACK
2.2759755,1341,0xD5,0xF0,Read,ACK
2.2760235,1341,0xD5,0xFF,Read,ACK
2.2760715,1341,0xD5,0xF9,Read,ACK
2.2761195,1341,0xD5,0xFF,Read,ACK
2.2761675,1341,0xD5,0x05,Read,ACK
2.2762155,1341,0xD5,0x00,Read,NAK
2.2763495,1342,0x52,0x02,Write,ACK
2.2764695,1343,0x53,0x00,Read,ACK
2.2765175,1343,0x53,0x00,Read,ACK
2.276565625,1343,0x53,0x4F,Read,ACK
2.2766135,1343,0x53,0xC0,Read,ACK
2.27666175,1343,0x53,0xB6,Read,ACK
2.276709875,1343,0x53,0x00,Read,ACK
2.2767655,1343,0x53,0xAB,Read,NAK
2.28555575,1344,0xD4,0xA6,Write,ACK
2.28567675,1345,0xD5,0x10,Read,ACK
2.28572475,1345,0xD5,0x0F,Read,NAK
2.28585575,1346,0xD4,0xA8,Write,ACK
2.28597575,1347,0xD5,0xE5,Read,ACK
2.28602375,1347,0xD5,0xFF,Read,ACK
2.28607175,1347,0xD5,0xF5,Read,ACK
2.28611975,1347,0xD5,0xFF,Read,ACK
2.28616775,1347,0xD5,0x01,Read,ACK
2.28621575,1347,0xD5,0x00,Read,NAK
2.28634975,1348,0x52,0x02,Write,ACK
2.28646975,1349,0x53,0x00,Read,ACK
2.28651775,1349,0x53,0x00,Read,ACK
2.286565875,1349,0x53,0x4F,Read,ACK
2.28661375,1349,0x53,0xC0,Read,ACK
2.286662,1349,0x53,0xB6,Read,ACK
2.28671,1349,0x53,0x00,Read,ACK
2.28676575,1349,0x53,0xAB,Read,NAK
2.29555525,1350,0xD4,0xA6,Write,ACK
2.29567625,1351,0xD5,0x10,Read,ACK
2.29572425,1351,0xD5,0x0F,Read,NAK
2.29585525,1352,0xD4,0xA8,Write,ACK
2.29597525,1353,0xD5,0xE3,Read,ACK
2.29602325,1353,0xD5,0xFF,Read,ACK
2.29607125,1353,0xD5,0xF1,Read,ACK
2.29611925,1353,0xD5,0xFF,Read,ACK
2.29616725,1353,0xD5,0xFF,Read,ACK
2.29621525,1353,0xD5,0xFF,Read,NAK
2.29634925,1354,0x52,0x02,Write,ACK
2.29646925,1355,0x53,0x00,Read,ACK
2.29651725,1355,0x53,0x00,Read,ACK
2.296565375,1355,0x53,0x4F,Read,ACK
2.29661325,1355,0x53,0xC0,Read,ACK
2.296661625,1355,0x53,0xB6,Read,ACK
2.296709625,1355,0x53,0x00,Read,ACK
2.29676525,1355,0x53,0xAB,Read,NAK
2.3055545,1356,0xD4,0xA6,Write,ACK
2.305675875,1357,0xD5,0x10,Read,ACK
2.305723875,1357,0xD5,0x0F,Read,NAK
2.3058615,1358,0xD4,0xA8,Write,ACK
2.305985875,1359,0xD5,0xE9,Read,ACK
2.306033875,1359,0xD5,0xFF,Read,ACK
2.306081875,1359,0xD5,0xF2,Read,ACK
2.306129875,1359,0xD5,0xFF,Read,ACK
2.306177875,1359,0xD5,0xFD,Read,ACK
2.30622575,1359,0xD5,0xFF,Read,NAK
2.30636675,1360,0x52,0x02,Write,ACK
2.3064905,1361,0x53,0x00,Read,ACK
2.3065385,1361,0x53,0x00,Read,ACK
2.306586625,1361,0x53,0x4F,Read,ACK
2.3066345,1361,0x53,0xC0,Read,ACK
2.30668275,1361,0x53,0xB6,Read,ACK
2.30673075,1361,0x53,0x00,Read,ACK
2.3067885,1361,0x53,0xAB,Read,NAK
2.315562,1362,0xD4,0xA6,Write,ACK
2.315687375,1363,0xD5,0x10,Read,ACK
2.315735375,1363,0xD5,0x00,Read,NAK
2.317987,1366,0xD4,0xA0,Write,ACK
2.318035,1366,0xD4,0x0F,Write,ACK
2.318083,1366,0xD4,0x29,Write,ACK
2.318131,1366,0xD4,0x00,Write,ACK
2.318178875,1366,0xD4,0x80,Write,ACK
2.318226875,1366,0xD4,0x53,Write,ACK
2.318358625,1367,0xD4,0xAE,Write,ACK
2.318406625,1367,0xD4,0x5F,Write,ACK
2.325380625,1368,0xD4,0xA6,Write,ACK
2.325501625,1369,0xD5,0x10,Read,ACK
2.325549625,1369,0xD5,0x0F,Read,NAK
2.545682875,1370,0xD4,0xA8,Write,ACK
2.545802875,1371,0xD5,0xEF,Read,ACK
2.545850875,1371,0xD5,0xFF,Read,ACK
2.545898875,1371,0xD5,0xF5,Read,ACK
2.545946875,1371,0xD5,0xFF,Read,ACK
2.545994875,1371,0xD5,0xFD,Read,ACK
2.546042875,1371,0xD5,0xFF,Read,NAK
2.546172875,1372,0xD4,0xA0,Write,ACK
2.546220875,1372,0xD4,0x0F,Write,ACK
2.546268875,1372,0xD4,0x29,Write,ACK
2.546316875,1372,0xD4,0x00,Write,ACK
2.546364875,1372,0xD4,0x80,Write,ACK
2.546412875,1372,0xD4,0x53,Write,ACK
2.5465445,1373,0xD4,0xAE,Write,ACK
2.5465925,1373,0xD4,0x5F,Write,ACK
2.546727125,1374,0x52,0x02,Write,ACK
2.546847125,1375,0x53,0x00,Read,ACK
2.546895125,1375,0x53,0x00,Read,ACK
2.546943375,1375,0x53,0x4F,Read,ACK
2.5469915,1375,0x53,0xC0,Read,ACK
2.547039875,1375,0x53,0xB6,Read,ACK
2.54708775,1375,0x53,0x00,Read,ACK
2.5471435,1375,0x53,0xAB,Read,NAK
2.55538275,1376,0xD4,0xA6,Write,ACK
2.55550375,1377,0xD5,0x10,Read,ACK
2.55555175,1377,0xD5,0x0F,Read,NAK
2.55568275,1378,0xD4,0xA8,Write,ACK
2.55580275,1379,0xD5,0xF5,Read,ACK
2.55585075,1379,0xD5,0xFF,Read,ACK
2.55589875,1379,0xD5,0xF5,Read,ACK
2.55594675,1379,0xD5,0xFF,Read,ACK
2.55599475,1379,0xD5,0xFF,Read,ACK
2.55604275,1379,0xD5,0xFF,Read,NAK
2.55617675,1380,0x52,0x02,Write,ACK
2.55629675,1381,0x53,0x00,Read,ACK
2.55634475,1381,0x53,0x00,Read,ACK
2.556392875,1381,0x53,0x4F,Read,ACK
2.556441,1381,0x53,0xC0,Read,ACK
2.55648925,1381,0x53,0xB6,Read,ACK
2.556537375,1381,0x53,0x00,Read,ACK
2.556593,1381,0x53,0xAB,Read,NAK
2.56554125,1382,0xD4,0xA6,Write,ACK
2.56566225,1383,0xD5,0x10,Read,ACK
2.56571025,1383,0xD5,0x0F,Read,NAK
2.56584125,1384,0xD4,0xA8,Write,ACK
2.56596125,1385,0xD5,0xF9,Read,ACK
2.56600925,1385,0xD5,0xFF,Read,ACK
2.56605725,1385,0xD5,0xEF,Read,ACK
2.56610525,1385,0xD5,0xFF,Read,ACK
2.56615325,1385,0xD5,0x06,Read,ACK
2.56620125,1385,0xD5,0x00,Read,NAK
2.56633525,1386,0x52,0x02,Write,ACK
2.56645525,1387,0x53,0x00,Read,ACK
2.56650325,1387,0x53,0x00,Read,ACK
2.5665515,1387,0x53,0x4F,Read,ACK
2.566599625,1387,0x53,0xC0,Read,ACK
2.566647875,1387,0x53,0xB6,Read,ACK
2.566695875,1387,0x53,0x00,Read,ACK
2.566751625,1387,0x53,0xAB,Read,NAK
2.575542875,1388,0xD4,0xA6,Write,ACK
2.575663875,1389,0xD5,0x10,Read,ACK
2.575711875,1389,0xD5,0x0F,Read,NAK
2.575842875,1390,0xD4,0xA8,Write,ACK
2.575962875,1391,0xD5,0x00,Read,ACK
2.576010875,1391,0xD5,0x00,Read,ACK
2.576058875,1391,0xD5,0xED,Read,ACK
2.576106875,1391,0xD5,0xFF,Read,ACK
2.576154875,1391,0xD5,0x0F,Read,ACK
2.576202875,1391,0xD5,0x00,Read,NAK
2.57633675,1392,0x52,0x02,Write,ACK
2.57645675,1393,0x53,0x00,Read,ACK
2.57650475,1393,0x53,0x00,Read,ACK
2.576552875,1393,0x53,0x4F,Read,ACK
2.57660075,1393,0x53,0xC0,Read,ACK
2.576649125,1393,0x53,0xB6,Read,ACK
2.576697125,1393,0x53,0x00,Read,ACK
2.57675275,1393,0x53,0xAB,Read,NAK
2.585528375,1394,0xD4,0xA6,Write,ACK
2.585649375,1395,0xD5,0x10,Read,ACK
2.585697375,1395,0xD5,0x0F,Read,NAK
2.585828375,1396,0xD4,0xA8,Write,ACK
2.585948375,1397,0xD5,0x06,Read,ACK
2.585996375,1397,0xD5,0x00,Read,ACK
2.586044375,1397,0xD5,0xF2,Read,ACK
2.586092375,1397,0xD5,0xFF,Read,ACK
2.586140375,1397,0xD5,0x12,Read,ACK
2.586188375,1397,0xD5,0x00,Read,NAK
2.586322375,1398,0x52,0x02,Write,ACK
2.586442375,1399,0x53,0x00,Read,ACK
2.586490375,1399,0x53,0x00,Read,ACK
2.5865385,1399,0x53,0x4F,Read,ACK
2.586586625,1399,0x53,0xC0,Read,ACK
2.586635,1399,0x53,0xB6,Read,ACK
2.586683,1399,0x53,0x00,Read,ACK
2.586738625,1399,0x53,0xAB,Read,NAK
2.595540625,1400,0xD4,0xA6,Write,ACK
2.595661625,1401,0xD5,0x10,Read,ACK
2.595709625,1401,0xD5,0x0F,Read,NAK
2.595840625,1402,0xD4,0xA8,Write,ACK
2.595960625,1403,0xD5,0x0A,Read,ACK
2.596008625,1403,0xD5,0x00,Read,ACK
2.596056625,1403,0xD5,0xF8,Read,ACK
2.596104625,1403,0xD5,0xFF,Read,ACK
2.596152625,1403,0xD5,0x0F,Read,ACK
2.596200625,1403,0xD5,0x00,Read,NAK
2.596334625,1404,0x52,0x02,Write,ACK
2.5964545,1405,0x53,0x00,Read,ACK
2.5965025,1405,0x53,0x00,Read,ACK
2.59655075,1405,0x53,0x4F,Read,ACK
2.596598875,1405,0x53,0xC0,Read,ACK
2.59664725,1405,0x53,0xB6,Read,ACK
2.59669525,1405,0x53,0x00,Read,ACK
2.596750875,1405,0x53,0xAB,Read,NAK
2.60554075,1406,0xD4,0xA6,Write,ACK
2.60566175,1407,0xD5,0x10,Read,ACK
2.60570975,1407,0xD5,0x0F,Read,NAK
2.60584075,1408,0xD4,0xA8,Write,ACK
2.60596075,1409,0xD5,0x08,Read,ACK
2.60600875,1409,0xD5,0x00,Read,ACK
2.60605675,1409,0xD5,0xF8,Read,ACK
2.60610475,1409,0xD5,0xFF,Read,ACK
2.60615275,1409,0xD5,0x07,Read,ACK
2.60620075,1409,0xD5,0x00,Read,NAK
2.60633475,1410,0x52,0x02,Write,ACK
2.60645475,1411,0x53,0x00,Read,ACK
2.60650275,1411,0x53,0x00,Read,ACK
2.606550875,1411,0x53,0x4F,Read,ACK
2.606599125,1411,0x53,0xC0,Read,ACK
2.606647375,1411,0x53,0xB6,Read,ACK
2.606695375,1411,0x53,0x00,Read,ACK
2.606751125,1411,0x53,0xAB,Read,NAK
2.615539375,1412,0xD4,0xA6,Write,ACK
2.615660375,1413,0xD5,0x10,Read,ACK
2.615708375,1413,0xD5,0x0F,Read,NAK
2.615839375,1414,0xD4,0xA8,Write,ACK
2.615959375,1415,0xD5,0x01,Read,ACK
2.616007375,1415,0xD5,0x00,Read,ACK
2.616055375,1415,0xD5,0xF4,Read,ACK
2.616103375,1415,0xD5,0xFF,Read,ACK
2.616151375,1415,0xD5,0x00,Read,ACK
2.616199375,1415,0xD5,0x00,Read,NAK
2.616333375,1416,0x52,0x02,Write,ACK
2.61645325,1417,0x53,0x00,Read,ACK
2.61650125,1417,0x53,0x00,Read,ACK
2.6165495,1417,0x53,0x4F,Read,ACK
2.616597625,1417,0x53,0xC0,Read,ACK
2.616645875,1417,0x53,0xB6,Read,ACK
2.616694,1417,0x53,0x00,Read,ACK
2.616749625,1417,0x53,0xAB,Read,NAK
2.62552425,1418,0xD4,0xA6,Write,ACK
2.62564525,1419,0xD5,0x10,Read,ACK
2.62569325,1419,0xD5,0x0F,Read,NAK
2.62582425,1420,0xD4,0xA8,Write,ACK
2.62594425,1421,0xD5,0xFC,Read,ACK
2.62599225,1421,0xD5,0xFF,Read,ACK
2.62604025,1421,0xD5,0xF3,Read,ACK
2.62608825,1421,0xD5,0xFF,Read,ACK
2.62613625,1421,0xD5,0xFB,Read,ACK
2.62618425,1421,0xD5,0xFF,Read,NAK
2.62631825,1422,0x52,0x02,Write,ACK
2.62643825,1423,0x53,0x00,Read,ACK
2.626486125,1423,0x53,0x00,Read,ACK
2.626534375,1423,0x53,0x4F,Read,ACK
2.6265825,1423,0x53,0xC0,Read,ACK
2.62663075,1423,0x53,0xB6,Read,ACK
2.626678875,1423,0x53,0x00,Read,ACK
2.6267345,1423,0x53,0xAB,Read,NAK
2.635538125,1424,0xD4,0xA6,Write,ACK
2.635659125,1425,0xD5,0x10,Read,ACK
2.635707125,1425,0xD5,0x0F,Read,NAK
2.635838125,1426,0xD4,0xA8,Write,ACK
2.635958125,1427,0xD5,0xFC,Read,ACK
2.636006125,1427,0xD5,0xFF,Read,ACK
2.636054125,1427,0xD5,0xF6,Read,ACK
2.636102125,1427,0xD5,0xFF,Read,ACK
2.636150125,1427,0xD5,0xF9,Read,ACK
2.636198125,1427,0xD5,0xFF,Read,NAK
2.636332125,1428,0x52,0x02,Write,ACK
2.636452125,1429,0x53,0x00,Read,ACK
2.6365,1429,0x53,0x00,Read,ACK
2.63654825,1429,0x53,0x4F,Read,ACK
2.636596375,1429,0x53,0xC0,Read,ACK
2.63664475,1429,0x53,0xB6,Read,ACK
2.63669275,1429,0x53,0x00,Read,ACK
2.636748375,1429,0x53,0xAB,Read,NAK
2.64553825,1430,0xD4,0xA6,Write,ACK
2.64565925,1431,0xD5,0x10,Read,ACK
2.64570725,1431,0xD5,0x0F,Read,NAK
2.64583825,1432,0xD4,0xA8,Write,ACK
2.64595825,1433,0xD5,0x02,Read,ACK
2.64600625,1433,0xD5,0x00,Read,ACK
2.64605425,1433,0xD5,0xFB,Read,ACK
2.64610225,1433,0xD5,0xFF,Read,ACK
2.64615025,1433,0xD5,0xFD,Read,ACK
2.64619825,1433,0xD5,0xFF,Read,NAK
2.64633225,1434,0x52,0x02,Write,ACK
2.64645225,1435,0x53,0x00,Read,ACK
2.64650025,1435,0x53,0x00,Read,ACK
2.646548375,1435,0x53,0x4F,Read,ACK
2.646596625,1435,0x53,0xC0,Read,ACK
2.646644875,1435,0x53,0xB6,Read,ACK
2.646692875,1435,0x53,0x00,Read,ACK
2.646748625,1435,0x53,0xAB,Read,NAK
2.655537875,1436,0xD4,0xA6,Write,ACK
2.655658875,1437,0xD5,0x10,Read,ACK
2.655706875,1437,0xD5,0x0F,Read,NAK
2.655837875,1438,0xD4,0xA8,Write,ACK
2.655957875,1439,0xD5,0x09,Read,ACK
2.656005875,1439,0xD5,0x00,Read,ACK
2.656053875,1439,0xD5,0xFF,Read,ACK
2.656101875,1439,0xD5,0xFF,Read,ACK
2.656149875,1439,0xD5,0x05,Read,ACK
2.656197875,1439,0xD5,0x00,Read,NAK
2.656331875,1440,0x52,0x02,Write,ACK
2.656451875,1441,0x53,0x00,Read,ACK
2.656499875,1441,0x53,0x00,Read,ACK
2.656548,1441,0x53,0x4F,Read,ACK
2.65659575,1441,0x53,0xC0,Read,ACK
2.656644,1441,0x53,0xB6,Read,ACK
2.656692125,1441,0x53,0x00,Read,ACK
2.65674775,1441,0x53,0xAB,Read,NAK
2.665537375,1442,0xD4,0xA6,Write,ACK
2.665658375,1443,0xD5,0x10,Read,ACK
2.665706375,1443,0xD5,0x0F,Read,NAK
2.665837375,1444,0xD4,0xA8,Write,ACK
2.665957375,1445,0xD5,0x0D,Read,ACK
2.666005375,1445,0xD5,0x00,Read,ACK
2.666053375,1445,0xD5,0x01,Read,ACK
2.666101375,1445,0xD5,0x00,Read,ACK
2.666149375,1445,0xD5,0x0C,Read,ACK
2.666197375,1445,0xD5,0x00,Read,NAK
2.666331375,1446,0x52,0x02,Write,ACK
2.666451375,1447,0x53,0x00,Read,ACK
2.666499375,1447,0x53,0x00,Read,ACK
2.6665475,1447,0x53,0x4F,Read,ACK
2.666595375,1447,0x53,0xC0,Read,ACK
2.666643625,1447,0x53,0xB6,Read,ACK
2.666691625,1447,0x53,0x00,Read,ACK
2.666747375,1447,0x53,0xAB,Read,NAK
2.67553725,1448,0xD4,0xA6,Write,ACK
2.67565825,1449,0xD5,0x10,Read,ACK
2.67570625,1449,0xD5,0x00,Read,NAK
2.67584025,1450,0x52,0x02,Write,ACK
2.67596025,1451,0x53,0x00,Read,ACK
2.67600825,1451,0x53,0x00,Read,ACK
2.676056625,1451,0x53,0x4F,Read,ACK
2.676104625,1451,0x53,0xC0,Read,ACK
2.676152875,1451,0x53,0xB6,Read,ACK
2.676200875,1451,0x53,0x00,Read,ACK
